# Version 1.00
#
freq[Hz];db:Trc1_S11;ang:Trc1_S11;
8.000000000000000E+007;-2.610495366046996E+000;3.884820019187809E+001;
8.003500000000000E+007;-2.639834721672492E+000;4.034742623482766E+001;
8.007000000000000E+007;-2.630992820186430E+000;3.914749301980262E+001;
8.010500000000000E+007;-2.736528505679448E+000;3.972722177807556E+001;
8.014000000000000E+007;-2.705493557399079E+000;3.804276501472421E+001;
8.017500000000000E+007;-2.742689632079151E+000;3.759538329138884E+001;
8.021000000000000E+007;-2.757911484166526E+000;3.888296780727471E+001;
8.024500000000000E+007;-2.712275460887445E+000;3.624458983867017E+001;
8.028000000000000E+007;-2.760263387215259E+000;3.540834756324656E+001;
8.031500000000000E+007;-2.726398418917221E+000;3.472080841362323E+001;
8.035000000000000E+007;-2.769589470337003E+000;3.489105089345914E+001;
8.038500000000000E+007;-2.871337488068704E+000;3.538726747138725E+001;
8.042000000000000E+007;-2.810307910750138E+000;3.405527276490603E+001;
8.045500000000000E+007;-2.824507134994922E+000;3.218497150090892E+001;
8.049000000000000E+007;-2.846392084764795E+000;3.269629838642445E+001;
8.052500000000000E+007;-2.899424353991966E+000;3.248184922636877E+001;
8.056000000000000E+007;-2.928593043383918E+000;3.231048845275230E+001;
8.059500000000000E+007;-2.960519605505283E+000;3.183018976370315E+001;
8.063000000000000E+007;-2.944451319205481E+000;3.040313908700907E+001;
8.066500000000000E+007;-2.974817680066350E+000;2.962180874394015E+001;
8.070000000000000E+007;-2.993576442205208E+000;2.891364688185686E+001;
8.073500000000000E+007;-3.004196133497362E+000;2.829282243760303E+001;
8.077000000000000E+007;-3.002310050036458E+000;2.752125649660082E+001;
8.080500000000000E+007;-3.033983849640090E+000;2.614649107775106E+001;
8.084000000000000E+007;-3.145062269081710E+000;2.787153204024300E+001;
8.087500000000000E+007;-3.129489510085644E+000;2.660528525565500E+001;
8.091000000000000E+007;-3.173507099921049E+000;2.706899904908077E+001;
8.094500000000000E+007;-3.218084965149245E+000;2.624078938311916E+001;
8.098000000000000E+007;-3.285292676536291E+000;2.616910687510818E+001;
8.101500000000000E+007;-3.298626266783913E+000;2.411348062841885E+001;
8.105000000000000E+007;-3.258596591497899E+000;2.328190064357822E+001;
8.108500000000000E+007;-3.334939349045306E+000;2.314762295853971E+001;
8.112000000000000E+007;-3.319742915101767E+000;2.131567416286303E+001;
8.115500000000000E+007;-3.331598804453535E+000;2.043917773427056E+001;
8.119000000000000E+007;-3.466185660939783E+000;2.176396458534186E+001;
8.122500000000000E+007;-3.462263630625513E+000;2.061985423478428E+001;
8.126000000000000E+007;-3.505802847859171E+000;2.126333402094280E+001;
8.129500000000000E+007;-3.611338202390341E+000;2.037057702659776E+001;
8.133000000000000E+007;-3.552780938578373E+000;1.783744816433632E+001;
8.136500000000000E+007;-3.665147283773924E+000;1.877287596705168E+001;
8.140000000000000E+007;-3.681411518109638E+000;1.767615865586087E+001;
8.143500000000000E+007;-3.737415797118977E+000;1.598155241701000E+001;
8.147000000000000E+007;-3.727174068244289E+000;1.333950604048417E+001;
8.150500000000000E+007;-3.833519167266741E+000;1.477733975833744E+001;
8.154000000000000E+007;-3.954110899536823E+000;1.390116566776443E+001;
8.157500000000000E+007;-3.974991916705246E+000;1.361005133671066E+001;
8.161000000000000E+007;-3.982184131265084E+000;1.133008139701900E+001;
8.164500000000000E+007;-4.064068544113471E+000;1.087114799717899E+001;
8.168000000000000E+007;-4.149481714258658E+000;9.917486989009538E+000;
8.171500000000000E+007;-4.255282793255672E+000;1.021483263522791E+001;
8.175000000000000E+007;-4.343928421843017E+000;9.853179239186918E+000;
8.178500000000000E+007;-4.382656286646934E+000;7.405250383981500E+000;
8.182000000000000E+007;-4.518772775099182E+000;1.020456472598589E+001;
8.185500000000000E+007;-4.522542133990153E+000;6.665900568088434E+000;
8.189000000000000E+007;-4.635944200700360E+000;5.770015212554776E+000;
8.192500000000000E+007;-4.661035535186464E+000;3.151276610186398E+000;
8.196000000000000E+007;-4.805640643985115E+000;4.645846323850089E+000;
8.199500000000000E+007;-4.919064203481759E+000;2.312066728123627E+000;
8.203000000000000E+007;-5.074335584487771E+000;3.709792532094421E+000;
8.206500000000000E+007;-5.164086101484461E+000;8.829221546160718E-001;
8.210000000000000E+007;-5.259452938601399E+000;-3.982752642510569E-001;
8.213500000000000E+007;-5.419780039597089E+000;-4.061908257448743E-001;
8.217000000000000E+007;-5.565024489496780E+000;-1.623101898714830E+000;
8.220500000000000E+007;-5.706700040074172E+000;-1.640292807608369E+000;
8.224000000000000E+007;-5.792811570390349E+000;-4.231923507020815E+000;
8.227500000000000E+007;-5.964880752618643E+000;-3.835042894333640E+000;
8.231000000000000E+007;-6.094870330122713E+000;-7.012498330014778E+000;
8.234500000000000E+007;-6.371556170901962E+000;-6.678886482439451E+000;
8.238000000000000E+007;-6.461384754148500E+000;-9.520649199728473E+000;
8.241500000000000E+007;-6.706325547932449E+000;-8.240740247436870E+000;
8.245000000000000E+007;-6.939788304729643E+000;-9.536758551000999E+000;
8.248500000000000E+007;-7.113562343456365E+000;-1.042666991789909E+001;
8.252000000000000E+007;-7.337723917513401E+000;-1.253704593899626E+001;
8.255500000000000E+007;-7.688513645408079E+000;-1.218665377019810E+001;
8.259000000000000E+007;-7.900164392577874E+000;-1.437731851809234E+001;
8.262500000000000E+007;-8.164959884998524E+000;-1.723587225532313E+001;
8.266000000000000E+007;-8.453006121729015E+000;-1.883556967813962E+001;
8.269500000000000E+007;-8.767235145322438E+000;-1.873919057780108E+001;
8.273000000000000E+007;-9.121712722969972E+000;-2.061213028110125E+001;
8.276500000000000E+007;-9.576156208158867E+000;-2.137250763923869E+001;
8.280000000000000E+007;-1.002139019530438E+001;-2.070552940946819E+001;
8.283500000000000E+007;-1.038998958394306E+001;-2.319107865943909E+001;
8.287000000000000E+007;-1.099939393474622E+001;-2.598331385683397E+001;
8.290500000000000E+007;-1.150210074321956E+001;-2.702039562225939E+001;
8.294000000000000E+007;-1.208584463647255E+001;-2.768158664917688E+001;
8.297500000000000E+007;-1.265315057042777E+001;-3.000167990495072E+001;
8.301000000000000E+007;-1.335238047607370E+001;-2.997456530996013E+001;
8.304500000000000E+007;-1.398273901649942E+001;-3.142574321867132E+001;
8.308000000000000E+007;-1.496575977778504E+001;-3.431237108074868E+001;
8.311500000000000E+007;-1.594482475453052E+001;-3.281492346076579E+001;
8.315000000000000E+007;-1.702174712779455E+001;-3.341965934946990E+001;
8.318500000000000E+007;-1.841536047666743E+001;-3.336270963003627E+001;
8.322000000000000E+007;-1.996385525195166E+001;-3.383341721319673E+001;
8.325500000000000E+007;-2.205966962744775E+001;-3.385494084382560E+001;
8.329000000000000E+007;-2.459813862386466E+001;-2.689238886405657E+001;
8.332500000000000E+007;-2.691556997039616E+001;-1.692172773408901E+001;
8.336000000000000E+007;-3.114287117321628E+001;-2.972418956508466E+000;
8.339500000000000E+007;-3.281796922176650E+001;5.075778651427873E+001;
8.343000000000000E+007;-2.877121732489801E+001;7.791744080533454E+001;
8.346500000000000E+007;-2.562850496944861E+001;9.629548036058469E+001;
8.350000000000000E+007;-2.293044166312225E+001;1.027026087065501E+002;
8.353500000000000E+007;-2.074628302314340E+001;1.014181682697441E+002;
8.357000000000000E+007;-1.864403054021248E+001;1.068621185108720E+002;
8.360500000000000E+007;-1.754696387274787E+001;1.049803690797318E+002;
8.364000000000000E+007;-1.615396647879706E+001;1.042112561583961E+002;
8.367500000000000E+007;-1.511972801296914E+001;1.034431507839145E+002;
8.371000000000000E+007;-1.420092497755975E+001;1.008752347179721E+002;
8.374500000000000E+007;-1.356022035970953E+001;1.009610207968536E+002;
8.378000000000000E+007;-1.261353763857760E+001;1.026815339631379E+002;
8.381500000000000E+007;-1.196100308199795E+001;9.757989490800989E+001;
8.385000000000000E+007;-1.138475390284758E+001;9.632320501573707E+001;
8.388500000000000E+007;-1.091107961606545E+001;9.701405632689604E+001;
8.392000000000000E+007;-1.028150885553446E+001;9.235753417788614E+001;
8.395500000000000E+007;-9.797381800601359E+000;9.294719559179919E+001;
8.399000000000000E+007;-9.400083157129567E+000;9.051673840320612E+001;
8.402500000000000E+007;-8.908481065700105E+000;9.036276266277724E+001;
8.406000000000000E+007;-8.684293726376231E+000;9.009321070430285E+001;
8.409500000000000E+007;-8.195181615026721E+000;8.607066337101628E+001;
8.413000000000000E+007;-7.823655402801430E+000;8.426455173519065E+001;
8.416500000000000E+007;-7.649555851130647E+000;8.497967946155954E+001;
8.420000000000000E+007;-7.362150773018326E+000;8.386641047426157E+001;
8.423500000000000E+007;-7.072773898310673E+000;8.037247432400947E+001;
8.427000000000000E+007;-6.754303356910234E+000;7.915596155712106E+001;
8.430500000000000E+007;-6.567513319225459E+000;7.909354738313978E+001;
8.434000000000000E+007;-6.382146742244998E+000;7.670994113542977E+001;
8.437500000000000E+007;-6.152013262270647E+000;7.790353314370395E+001;
8.441000000000000E+007;-6.044913896572717E+000;7.526473183497795E+001;
8.444500000000000E+007;-5.818517696472042E+000;7.532383726942670E+001;
8.448000000000000E+007;-5.617865949972133E+000;7.281442589386377E+001;
8.451500000000000E+007;-5.438716552156988E+000;7.142651222158045E+001;
8.455000000000000E+007;-5.342570727489404E+000;7.149862064421718E+001;
8.458500000000000E+007;-5.213217139095741E+000;6.974873018028649E+001;
8.462000000000000E+007;-5.028383204415781E+000;6.834245317651556E+001;
8.465500000000000E+007;-4.898488567911237E+000;6.740478582489558E+001;
8.469000000000000E+007;-4.807121463124717E+000;6.625708277353826E+001;
8.472500000000000E+007;-4.692649329209933E+000;6.636648218064144E+001;
8.476000000000000E+007;-4.587195142155781E+000;6.433419724204808E+001;
8.479500000000000E+007;-4.425982322117588E+000;6.227305616181049E+001;
8.483000000000000E+007;-4.322039427813427E+000;6.176770263510780E+001;
8.486500000000000E+007;-4.366045854886941E+000;6.218886538475447E+001;
8.490000000000000E+007;-4.222770371439330E+000;6.030734867347115E+001;
8.493500000000000E+007;-4.178851586556597E+000;6.011911690432952E+001;
8.497000000000000E+007;-4.049207085864701E+000;5.896233843632233E+001;
8.500500000000000E+007;-3.981493279707433E+000;5.905789430419330E+001;
8.504000000000000E+007;-3.876624080021142E+000;5.585452962440118E+001;
8.507500000000000E+007;-3.898732493192948E+000;5.695448285733839E+001;
8.511000000000000E+007;-3.791954929792796E+000;5.518820692398005E+001;
8.514500000000000E+007;-3.725893939796516E+000;5.357709317767164E+001;
8.518000000000000E+007;-3.670562361531941E+000;5.217269425939159E+001;
8.521500000000000E+007;-3.629884118781612E+000;5.300582443775188E+001;
8.525000000000000E+007;-3.616011484227321E+000;5.306566030477212E+001;
8.528500000000000E+007;-3.476101279277708E+000;4.995531669715085E+001;
8.532000000000000E+007;-3.546319114853189E+000;5.139921592935038E+001;
8.535500000000000E+007;-3.428778106036358E+000;4.893845184203366E+001;
8.539000000000000E+007;-3.432514454067553E+000;5.049521772697837E+001;
8.542500000000000E+007;-3.353239233525028E+000;4.721837635809404E+001;
8.546000000000000E+007;-3.302826536489655E+000;4.604950041072531E+001;
8.549500000000000E+007;-3.273397418633848E+000;4.560972221695450E+001;
8.553000000000000E+007;-3.269682114615135E+000;4.540301419836869E+001;
8.556500000000000E+007;-3.185298037268612E+000;4.378732653374760E+001;
8.560000000000000E+007;-3.113080875402869E+000;4.224826532461904E+001;
8.563500000000000E+007;-3.156006363828925E+000;4.415553701799868E+001;
8.567000000000000E+007;-3.068703136945634E+000;4.252517790608638E+001;
8.570500000000000E+007;-3.085143089441778E+000;4.228344116733174E+001;
8.574000000000000E+007;-3.059861608210585E+000;4.101836741967233E+001;
8.577500000000000E+007;-3.049733121237326E+000;4.063336713894258E+001;
8.581000000000000E+007;-3.086175154568711E+000;4.022989850177530E+001;
8.584500000000000E+007;-2.939289810046150E+000;3.788167899032638E+001;
8.588000000000000E+007;-2.950717197309938E+000;3.821001874572990E+001;
8.591500000000000E+007;-2.901167053524294E+000;3.693556746254738E+001;
8.595000000000000E+007;-2.911491706838673E+000;3.669964567368972E+001;
8.598500000000000E+007;-2.930884571352532E+000;3.697284739814298E+001;
8.602000000000000E+007;-2.885878518085881E+000;3.555175203181722E+001;
8.605500000000000E+007;-2.777117264279698E+000;3.359254855743487E+001;
8.609000000000000E+007;-2.853313264365623E+000;3.532968435870877E+001;
8.612500000000000E+007;-2.796389438593849E+000;3.440725811584371E+001;
8.616000000000000E+007;-2.862061699119494E+000;3.334816275496492E+001;
8.619500000000000E+007;-2.746904360801950E+000;3.239672477648630E+001;
8.623000000000000E+007;-2.730580251776091E+000;3.250179137767501E+001;
8.626500000000000E+007;-2.751601850721153E+000;3.199470707912915E+001;
8.630000000000000E+007;-2.714692485830063E+000;3.048023511997129E+001;
8.633500000000000E+007;-2.693569850264363E+000;3.102853239976399E+001;
8.637000000000000E+007;-2.746453119727651E+000;3.065771293484844E+001;
8.640500000000000E+007;-2.713195413200393E+000;2.928816607880242E+001;
8.644000000000000E+007;-2.655162373900270E+000;2.778139213440016E+001;
8.647500000000000E+007;-2.670309735725416E+000;2.787063855721208E+001;
8.651000000000000E+007;-2.739968560389064E+000;2.900368435284420E+001;
8.654500000000000E+007;-2.600889488926237E+000;2.614886297835834E+001;
8.658000000000000E+007;-2.722490295978337E+000;2.783624194175813E+001;
8.661500000000000E+007;-2.630541311663288E+000;2.565487655269551E+001;
8.665000000000000E+007;-2.667196337214219E+000;2.691063713878031E+001;
8.668500000000000E+007;-2.590402043901986E+000;2.460978213965496E+001;
8.672000000000000E+007;-2.614354331706010E+000;2.441547093736046E+001;
8.675500000000000E+007;-2.615210513743144E+000;2.367951036377785E+001;
8.679000000000000E+007;-2.650613574986317E+000;2.347105672256908E+001;
8.682500000000000E+007;-2.633879091822688E+000;2.385582200386528E+001;
8.686000000000000E+007;-2.566434194788592E+000;2.245181578909101E+001;
8.689500000000000E+007;-2.604975632619868E+000;2.203721600969733E+001;
8.693000000000000E+007;-2.629627666742750E+000;2.245644257025753E+001;
8.696500000000000E+007;-2.579526723900302E+000;1.918005308172976E+001;
8.700000000000000E+007;-2.560395649610709E+000;1.957680385436037E+001;
