# Version 1.00
#
freq[Hz];db:Trc1_S11;ang:Trc1_S11;
8.000000000000000E+007;-2.605312984621172E+000;4.138728540367419E+001;
8.003500000000000E+007;-2.566249020225408E+000;3.918125613639077E+001;
8.007000000000000E+007;-2.634273453986459E+000;4.037760707425950E+001;
8.010500000000000E+007;-2.611700423067939E+000;3.937115599475573E+001;
8.014000000000000E+007;-2.641179499232793E+000;3.910913951198199E+001;
8.017500000000000E+007;-2.623320999716498E+000;3.758294528943313E+001;
8.021000000000000E+007;-2.685313281764063E+000;3.896981513352721E+001;
8.024500000000000E+007;-2.663125173914847E+000;3.758461553361838E+001;
8.028000000000000E+007;-2.729365061800410E+000;3.805462435581134E+001;
8.031500000000000E+007;-2.750651453419367E+000;3.704058903571342E+001;
8.035000000000000E+007;-2.705579204980189E+000;3.687095139617662E+001;
8.038500000000000E+007;-2.772762430164112E+000;3.651148384839443E+001;
8.042000000000000E+007;-2.736035545443527E+000;3.560086387163939E+001;
8.045500000000000E+007;-2.762256198597057E+000;3.513547546623391E+001;
8.049000000000000E+007;-2.798312421160567E+000;3.392053699446385E+001;
8.052500000000000E+007;-2.815005007268321E+000;3.385154498318504E+001;
8.056000000000000E+007;-2.819893983643218E+000;3.372721529210152E+001;
8.059500000000000E+007;-2.836294964168300E+000;3.183471484245505E+001;
8.063000000000000E+007;-2.814360597783210E+000;3.072623283717664E+001;
8.066500000000000E+007;-2.915975221871941E+000;3.215819745411819E+001;
8.070000000000000E+007;-2.852518131863930E+000;2.968074801614451E+001;
8.073500000000000E+007;-2.965318052402968E+000;3.073386831640344E+001;
8.077000000000000E+007;-2.898567163804648E+000;2.968985728735128E+001;
8.080500000000000E+007;-3.058059378216807E+000;3.060207980509033E+001;
8.084000000000000E+007;-2.982171168435162E+000;2.779956731367823E+001;
8.087500000000000E+007;-3.040907936232714E+000;2.859689606718082E+001;
8.091000000000000E+007;-3.046761232480612E+000;2.752995008569889E+001;
8.094500000000000E+007;-3.116525655024998E+000;2.732327922779917E+001;
8.098000000000000E+007;-3.108255930640570E+000;2.637625959992631E+001;
8.101500000000000E+007;-3.063127053013073E+000;2.426188351215289E+001;
8.105000000000000E+007;-3.175279549412869E+000;2.632342736168320E+001;
8.108500000000000E+007;-3.133079237615089E+000;2.317366553057157E+001;
8.112000000000000E+007;-3.178284043392992E+000;2.373364799417569E+001;
8.115500000000000E+007;-3.264686555583739E+000;2.491306305924173E+001;
8.119000000000000E+007;-3.246799074484374E+000;2.288079468552924E+001;
8.122500000000000E+007;-3.267523971100033E+000;2.174115487445826E+001;
8.126000000000000E+007;-3.325927727306715E+000;2.296473182841293E+001;
8.129500000000000E+007;-3.395649150106014E+000;2.179116929895909E+001;
8.133000000000000E+007;-3.322830454683495E+000;1.925590316845351E+001;
8.136500000000000E+007;-3.498857525610887E+000;2.197415417789206E+001;
8.140000000000000E+007;-3.466712750629742E+000;1.839020344545119E+001;
8.143500000000000E+007;-3.556214268386632E+000;1.821425906506317E+001;
8.147000000000000E+007;-3.587330552959146E+000;1.893448908422101E+001;
8.150500000000000E+007;-3.629582530073371E+000;1.713753623670403E+001;
8.154000000000000E+007;-3.592729685684103E+000;1.615947704353726E+001;
8.157500000000000E+007;-3.654667595676250E+000;1.385520872798538E+001;
8.161000000000000E+007;-3.720028119373345E+000;1.344041792680243E+001;
8.164500000000000E+007;-3.820215760893694E+000;1.466104390082871E+001;
8.168000000000000E+007;-3.907943263639986E+000;1.266974609160404E+001;
8.171500000000000E+007;-3.852366677773798E+000;1.022242958332238E+001;
8.175000000000000E+007;-4.025487732554656E+000;1.302855614964585E+001;
8.178500000000000E+007;-4.004461089090487E+000;1.062918027455080E+001;
8.182000000000000E+007;-4.125070939630703E+000;9.877616883820737E+000;
8.185500000000000E+007;-4.149128840742273E+000;8.459463417400569E+000;
8.189000000000000E+007;-4.329692583251044E+000;9.585623439515899E+000;
8.192500000000000E+007;-4.375810994519080E+000;8.497674864771998E+000;
8.196000000000000E+007;-4.351772533105716E+000;5.469565045823045E+000;
8.199500000000000E+007;-4.446457839632174E+000;5.167764866927823E+000;
8.203000000000000E+007;-4.616570163975560E+000;5.588685696445173E+000;
8.206500000000000E+007;-4.621792903809302E+000;3.981924317760868E+000;
8.210000000000000E+007;-4.614904098338838E+000;1.533053236884568E+000;
8.213500000000000E+007;-4.819123327576746E+000;1.804310002680640E+000;
8.217000000000000E+007;-4.941746562892362E+000;1.607903563376744E+000;
8.220500000000000E+007;-5.027178173964438E+000;5.802948005681129E-001;
8.224000000000000E+007;-5.177116029579103E+000;-7.207996084856286E-001;
8.227500000000000E+007;-5.328035111870078E+000;-2.423077951664510E+000;
8.231000000000000E+007;-5.421011763379696E+000;-1.115766425315918E+000;
8.234500000000000E+007;-5.510565002610171E+000;-3.907229003052629E+000;
8.238000000000000E+007;-5.625750517326938E+000;-3.473986494151762E+000;
8.241500000000000E+007;-5.806523852838448E+000;-6.558621093380237E+000;
8.245000000000000E+007;-5.948722317212439E+000;-6.890005364944067E+000;
8.248500000000000E+007;-6.120465464359534E+000;-7.618536509031399E+000;
8.252000000000000E+007;-6.331265121896171E+000;-8.187050901822314E+000;
8.255500000000000E+007;-6.453750227811299E+000;-1.133433187331898E+001;
8.259000000000000E+007;-6.753979928401264E+000;-9.815782684239496E+000;
8.262500000000000E+007;-6.902893408975146E+000;-1.090877332063646E+001;
8.266000000000000E+007;-7.078146421121150E+000;-1.296892109445779E+001;
8.269500000000000E+007;-7.296205705946020E+000;-1.516921390325943E+001;
8.273000000000000E+007;-7.518579493609593E+000;-1.560161357634589E+001;
8.276500000000000E+007;-7.810842253053869E+000;-1.962331788036226E+001;
8.280000000000000E+007;-8.084624527727064E+000;-1.801698964256502E+001;
8.283500000000000E+007;-8.325317543373282E+000;-1.966501472305571E+001;
8.287000000000000E+007;-8.691724854710046E+000;-2.148866772965322E+001;
8.290500000000000E+007;-9.198774455226770E+000;-2.203577155350449E+001;
8.294000000000000E+007;-9.482145938393717E+000;-2.375719199664399E+001;
8.297500000000000E+007;-9.762386659658068E+000;-2.613055587481266E+001;
8.301000000000000E+007;-1.029900630932288E+001;-2.674988776771227E+001;
8.304500000000000E+007;-1.078690036853589E+001;-2.683005995145630E+001;
8.308000000000000E+007;-1.117814752193589E+001;-3.052062484918152E+001;
8.311500000000000E+007;-1.174081894713680E+001;-3.136951220600005E+001;
8.315000000000000E+007;-1.243681131861012E+001;-3.183687105718478E+001;
8.318500000000000E+007;-1.295339681479297E+001;-3.433405759008979E+001;
8.322000000000000E+007;-1.373425358961863E+001;-3.546650954289027E+001;
8.325500000000000E+007;-1.470954704728934E+001;-3.720340558373505E+001;
8.329000000000000E+007;-1.558816896328645E+001;-3.597952103337058E+001;
8.332500000000000E+007;-1.656320714153073E+001;-3.934271374590839E+001;
8.336000000000000E+007;-1.794953605384688E+001;-4.112479501730894E+001;
8.339500000000000E+007;-1.920479232779560E+001;-4.039074160849875E+001;
8.343000000000000E+007;-2.100921351045540E+001;-4.146611284074844E+001;
8.346500000000000E+007;-2.344912041931059E+001;-4.117238879964031E+001;
8.350000000000000E+007;-2.581913193417332E+001;-3.720437635499208E+001;
8.353500000000000E+007;-3.110390168598572E+001;-3.480668334107027E+001;
8.357000000000000E+007;-3.643724441683339E+001;-1.381107195866838E+001;
8.360500000000000E+007;-3.333053908292043E+001;8.845967873577078E+001;
8.364000000000000E+007;-2.955114848306160E+001;1.022670703949018E+002;
8.367500000000000E+007;-2.471041119970988E+001;1.100721549938521E+002;
8.371000000000000E+007;-2.175973284052808E+001;1.074202948686868E+002;
8.374500000000000E+007;-2.030314427566022E+001;1.098145590217190E+002;
8.378000000000000E+007;-1.859703265665086E+001;1.089335057568711E+002;
8.381500000000000E+007;-1.710352617006480E+001;1.093280884511826E+002;
8.385000000000000E+007;-1.605525838990318E+001;1.049980434485941E+002;
8.388500000000000E+007;-1.504040189871872E+001;1.070187727099488E+002;
8.392000000000000E+007;-1.391367179325891E+001;1.033322410048187E+002;
8.395500000000000E+007;-1.329215597439054E+001;1.019539512490131E+002;
8.399000000000000E+007;-1.256454727185646E+001;1.008331344118776E+002;
8.402500000000000E+007;-1.196490490762048E+001;9.780204973391660E+001;
8.406000000000000E+007;-1.132895592206861E+001;9.832532193439477E+001;
8.409500000000000E+007;-1.082000427094858E+001;9.711470413071761E+001;
8.413000000000000E+007;-1.021120925865385E+001;9.557265020397861E+001;
8.416500000000000E+007;-9.762648042071746E+000;9.232679854455249E+001;
8.420000000000000E+007;-9.481577931193893E+000;9.358589001028197E+001;
8.423500000000000E+007;-9.016694677868905E+000;9.005773853848892E+001;
8.427000000000000E+007;-8.516718897400120E+000;8.742403599257166E+001;
8.430500000000000E+007;-8.173457503024814E+000;8.893066385499562E+001;
8.434000000000000E+007;-7.926706774639851E+000;8.563269232616865E+001;
8.437500000000000E+007;-7.609714985909964E+000;8.538182062780244E+001;
8.441000000000000E+007;-7.474010711618970E+000;8.447027298959517E+001;
8.444500000000000E+007;-7.110804625601312E+000;8.334870040821119E+001;
8.448000000000000E+007;-6.886671645178390E+000;8.193217054983920E+001;
8.451500000000000E+007;-6.627559414314173E+000;8.011362739458647E+001;
8.455000000000000E+007;-6.360841529162469E+000;7.901547611089612E+001;
8.458500000000000E+007;-6.222605729489706E+000;7.642542526510403E+001;
8.462000000000000E+007;-5.965444887320372E+000;7.546585715447183E+001;
8.465500000000000E+007;-5.880957536735395E+000;7.499537938371091E+001;
8.469000000000000E+007;-5.657934607319957E+000;7.376848372206254E+001;
8.472500000000000E+007;-5.566231894675391E+000;7.326155904734694E+001;
8.476000000000000E+007;-5.340011332562424E+000;7.178475143026465E+001;
8.479500000000000E+007;-5.248067563044007E+000;7.136902952123107E+001;
8.483000000000000E+007;-5.158842195499817E+000;6.987766936050703E+001;
8.486500000000000E+007;-4.945042616799953E+000;6.694122504444354E+001;
8.490000000000000E+007;-4.806569001559507E+000;6.609798382762403E+001;
8.493500000000000E+007;-4.653857024669594E+000;6.426179459041455E+001;
8.497000000000000E+007;-4.652112451747560E+000;6.437839754007543E+001;
8.500500000000000E+007;-4.441486628505587E+000;6.105105879395082E+001;
8.504000000000000E+007;-4.409631814706954E+000;6.164942473593950E+001;
8.507500000000000E+007;-4.307925365748141E+000;6.101195129559516E+001;
8.511000000000000E+007;-4.234227987633844E+000;5.993103611708283E+001;
8.514500000000000E+007;-4.136530282204197E+000;5.842015366560404E+001;
8.518000000000000E+007;-4.151761025162408E+000;5.924492276011753E+001;
8.521500000000000E+007;-3.950128931982338E+000;5.613546781269238E+001;
8.525000000000000E+007;-3.896604258786357E+000;5.677938353139235E+001;
8.528500000000000E+007;-3.824816146661401E+000;5.441957964651696E+001;
8.532000000000000E+007;-3.826681552696710E+000;5.484456611949227E+001;
8.535500000000000E+007;-3.765733374091701E+000;5.437854039343730E+001;
8.539000000000000E+007;-3.696048135326660E+000;5.318480603430875E+001;
8.542500000000000E+007;-3.641515122393257E+000;5.105596783849241E+001;
8.546000000000000E+007;-3.578530752295149E+000;5.103599986208567E+001;
8.549500000000000E+007;-3.533172979550962E+000;5.093447859630138E+001;
8.553000000000000E+007;-3.476571135090473E+000;4.886361570269061E+001;
8.556500000000000E+007;-3.399040825406826E+000;4.836721611429993E+001;
8.560000000000000E+007;-3.383814427298165E+000;4.816478542601601E+001;
8.563500000000000E+007;-3.337561765045403E+000;4.591634329650300E+001;
8.567000000000000E+007;-3.300393833099205E+000;4.571056517824223E+001;
8.570500000000000E+007;-3.305526899905332E+000;4.660003020267692E+001;
8.574000000000000E+007;-3.254303880651147E+000;4.484067400518961E+001;
8.577500000000000E+007;-3.178885396084334E+000;4.343058804572032E+001;
8.581000000000000E+007;-3.237942746380284E+000;4.474559780847068E+001;
8.584500000000000E+007;-3.166302012744521E+000;4.366935131915354E+001;
8.588000000000000E+007;-3.059064515689900E+000;4.146822833462518E+001;
8.591500000000000E+007;-3.075474540510135E+000;4.090632715061572E+001;
8.595000000000000E+007;-3.075866813216473E+000;4.008792514491659E+001;
8.598500000000000E+007;-3.030720937328211E+000;4.046727006599504E+001;
8.602000000000000E+007;-3.046532293164789E+000;3.958814600144795E+001;
8.605500000000000E+007;-3.021179019805341E+000;3.999054892719172E+001;
8.609000000000000E+007;-2.996290985775210E+000;3.833044114204899E+001;
8.612500000000000E+007;-2.954943283545235E+000;3.782902775298076E+001;
8.616000000000000E+007;-2.962020293345777E+000;3.773733847427388E+001;
8.619500000000000E+007;-2.893873379222397E+000;3.575839699008595E+001;
8.623000000000000E+007;-2.879238830772098E+000;3.568811924543970E+001;
8.626500000000000E+007;-2.843670593708784E+000;3.414034025112401E+001;
8.630000000000000E+007;-2.850479838453893E+000;3.401908532468988E+001;
8.633500000000000E+007;-2.768604091846180E+000;3.302324914127887E+001;
8.637000000000000E+007;-2.768126594640178E+000;3.148579354358401E+001;
8.640500000000000E+007;-2.796497561836505E+000;3.313074281801210E+001;
8.644000000000000E+007;-2.874240850640576E+000;3.337458706127396E+001;
8.647500000000000E+007;-2.803752104931757E+000;3.221977254450233E+001;
8.651000000000000E+007;-2.752962721692328E+000;3.077117434146162E+001;
8.654500000000000E+007;-2.782393225972575E+000;3.011053934025135E+001;
8.658000000000000E+007;-2.729588576522846E+000;3.005425629940814E+001;
8.661500000000000E+007;-2.728537662517451E+000;2.916617038280177E+001;
8.665000000000000E+007;-2.766364466566837E+000;2.949642900827050E+001;
8.668500000000000E+007;-2.653529475368196E+000;2.785666774673205E+001;
8.672000000000000E+007;-2.720217324491997E+000;2.703130004454462E+001;
8.675500000000000E+007;-2.666691786144056E+000;2.602589222716621E+001;
8.679000000000000E+007;-2.689441426829949E+000;2.702070257412315E+001;
8.682500000000000E+007;-2.659153346188136E+000;2.516148214731927E+001;
8.686000000000000E+007;-2.684011290156711E+000;2.610328973666280E+001;
8.689500000000000E+007;-2.708217155143690E+000;2.658557290190685E+001;
8.693000000000000E+007;-2.641374970370169E+000;2.461123824880210E+001;
8.696500000000000E+007;-2.638930740980394E+000;2.292274669860176E+001;
8.700000000000000E+007;-2.659363820468136E+000;2.376257157653430E+001;
