# Version 1.00
#
freq[Hz];db:Trc1_S11;ang:Trc1_S11;
8.000000000000000E+007;-2.523502614248954E+000;4.236185917970747E+001;
8.003500000000000E+007;-2.491528240093175E+000;4.261679067451669E+001;
8.007000000000000E+007;-2.513270293974135E+000;4.182122653584199E+001;
8.010500000000000E+007;-2.461336555088873E+000;4.118126089817248E+001;
8.014000000000000E+007;-2.510384824810073E+000;4.145634534583009E+001;
8.017500000000000E+007;-2.555738834244981E+000;4.088526534010141E+001;
8.021000000000000E+007;-2.573738407455377E+000;4.092713653493437E+001;
8.024500000000000E+007;-2.590296934116452E+000;3.995352506257801E+001;
8.028000000000000E+007;-2.556424459083137E+000;3.934030041321462E+001;
8.031500000000000E+007;-2.627020490225617E+000;3.794096454036727E+001;
8.035000000000000E+007;-2.596425102162651E+000;3.848270182825679E+001;
8.038500000000000E+007;-2.617385762364902E+000;3.803116160576974E+001;
8.042000000000000E+007;-2.674830075623565E+000;3.792086440276378E+001;
8.045500000000000E+007;-2.650339216527748E+000;3.722596791324460E+001;
8.049000000000000E+007;-2.655729163354774E+000;3.597765810215572E+001;
8.052500000000000E+007;-2.667971753184284E+000;3.591321628235828E+001;
8.056000000000000E+007;-2.730182497045600E+000;3.677034152183264E+001;
8.059500000000000E+007;-2.693437734471469E+000;3.378623269450152E+001;
8.063000000000000E+007;-2.732242971348855E+000;3.499344058123826E+001;
8.066500000000000E+007;-2.727957914318287E+000;3.357486590594206E+001;
8.070000000000000E+007;-2.730172758723353E+000;3.302079711522651E+001;
8.073500000000000E+007;-2.798460924374748E+000;3.328106858340138E+001;
8.077000000000000E+007;-2.854552281021342E+000;3.347214519265633E+001;
8.080500000000000E+007;-2.807946137300633E+000;3.298133283551400E+001;
8.084000000000000E+007;-2.873689123673983E+000;3.346441573099241E+001;
8.087500000000000E+007;-2.814581957918811E+000;2.932861704813777E+001;
8.091000000000000E+007;-2.896395829706208E+000;3.064409736092861E+001;
8.094500000000000E+007;-2.935882301408012E+000;3.094776148864794E+001;
8.098000000000000E+007;-2.875479917813004E+000;2.802418366267325E+001;
8.101500000000000E+007;-2.919706127679825E+000;2.755467063495327E+001;
8.105000000000000E+007;-2.957146774076882E+000;2.800927646771039E+001;
8.108500000000000E+007;-2.988644888050069E+000;2.731193087316904E+001;
8.112000000000000E+007;-2.952903429229371E+000;2.554769429567035E+001;
8.115500000000000E+007;-3.047216987593987E+000;2.565091786808343E+001;
8.119000000000000E+007;-3.039326534857357E+000;2.466056842403552E+001;
8.122500000000000E+007;-3.059178052591751E+000;2.475727154136107E+001;
8.126000000000000E+007;-3.169673910955789E+000;2.528023968367752E+001;
8.129500000000000E+007;-3.137301662036573E+000;2.411823459685436E+001;
8.133000000000000E+007;-3.145455105587193E+000;2.335266188472593E+001;
8.136500000000000E+007;-3.120396267233997E+000;2.130599050397461E+001;
8.140000000000000E+007;-3.212225984975646E+000;2.216672976340029E+001;
8.143500000000000E+007;-3.318597471332935E+000;2.220959626936567E+001;
8.147000000000000E+007;-3.326402606695702E+000;2.149087498609379E+001;
8.150500000000000E+007;-3.374559930714776E+000;2.127159903543207E+001;
8.154000000000000E+007;-3.389893948884077E+000;1.968321389478563E+001;
8.157500000000000E+007;-3.473053444809147E+000;1.971881364709403E+001;
8.161000000000000E+007;-3.419854585846385E+000;1.787222309120612E+001;
8.164500000000000E+007;-3.462917952229219E+000;1.639922572759559E+001;
8.168000000000000E+007;-3.587894113726844E+000;1.832366518938273E+001;
8.171500000000000E+007;-3.654328002025827E+000;1.740312947301829E+001;
8.175000000000000E+007;-3.677847733954617E+000;1.596816432486540E+001;
8.178500000000000E+007;-3.672567683923787E+000;1.467264134638539E+001;
8.182000000000000E+007;-3.714357947697940E+000;1.307354124312601E+001;
8.185500000000000E+007;-3.773956573676510E+000;1.268343314252576E+001;
8.189000000000000E+007;-3.785096446779737E+000;1.168692078499694E+001;
8.192500000000000E+007;-3.922510318820842E+000;1.211148747187774E+001;
8.196000000000000E+007;-4.005252052004906E+000;1.228401989188875E+001;
8.199500000000000E+007;-4.024086789647586E+000;1.101880006142400E+001;
8.203000000000000E+007;-4.074683207535309E+000;1.004178160694205E+001;
8.206500000000000E+007;-4.214062282676635E+000;9.411041130545124E+000;
8.210000000000000E+007;-4.230192480606502E+000;7.124254636292160E+000;
8.213500000000000E+007;-4.283460070797888E+000;5.959005151559679E+000;
8.217000000000000E+007;-4.351518420919230E+000;5.367626840333874E+000;
8.220500000000000E+007;-4.442595700089744E+000;6.838708925625842E+000;
8.224000000000000E+007;-4.558722501937059E+000;4.565364306863794E+000;
8.227500000000000E+007;-4.632327422325621E+000;3.656584421926608E+000;
8.231000000000000E+007;-4.660270711937845E+000;1.829271935394073E+000;
8.234500000000000E+007;-4.825917510477604E+000;2.495170660127717E+000;
8.238000000000000E+007;-5.008499042978073E+000;2.878943112903601E+000;
8.241500000000000E+007;-5.080598004659399E+000;1.364116548055895E+000;
8.245000000000000E+007;-5.132579011729557E+000;-7.967719368696045E-001;
8.248500000000000E+007;-5.237759603464703E+000;-2.220260947435910E+000;
8.252000000000000E+007;-5.421241007736772E+000;-1.673814075552583E+000;
8.255500000000000E+007;-5.487672052599821E+000;-2.758113028009960E+000;
8.259000000000000E+007;-5.688202256231488E+000;-3.106866974382240E+000;
8.262500000000000E+007;-5.802306130317473E+000;-6.602194985455125E+000;
8.266000000000000E+007;-5.956779974406518E+000;-7.134497726645395E+000;
8.269500000000000E+007;-6.168332927156818E+000;-8.925923515836081E+000;
8.273000000000000E+007;-6.332548029468164E+000;-8.097562082686729E+000;
8.276500000000000E+007;-6.438239449839431E+000;-9.414027615260837E+000;
8.280000000000000E+007;-6.627420284619387E+000;-1.169815112389097E+001;
8.283500000000000E+007;-6.903910464128038E+000;-1.323860134392874E+001;
8.287000000000000E+007;-7.010121306745131E+000;-1.431276548322865E+001;
8.290500000000000E+007;-7.315977540882148E+000;-1.528287947491482E+001;
8.294000000000000E+007;-7.602177729862940E+000;-1.618629900828489E+001;
8.297500000000000E+007;-7.803224980589664E+000;-1.761376312298914E+001;
8.301000000000000E+007;-8.112647254847067E+000;-1.960352383154479E+001;
8.304500000000000E+007;-8.377355212797610E+000;-1.988175127459406E+001;
8.308000000000000E+007;-8.771781918139929E+000;-2.096552432332751E+001;
8.311500000000000E+007;-9.127332958095680E+000;-2.246629785153237E+001;
8.315000000000000E+007;-9.472523607430743E+000;-2.335597129515287E+001;
8.318500000000000E+007;-9.782375723668290E+000;-2.628320076053283E+001;
8.322000000000000E+007;-1.026726726827228E+001;-2.566651305946239E+001;
8.325500000000000E+007;-1.067198462115544E+001;-2.869267708484847E+001;
8.329000000000000E+007;-1.125779597579938E+001;-2.959620879807714E+001;
8.332500000000000E+007;-1.172549619481026E+001;-3.066783559664490E+001;
8.336000000000000E+007;-1.235664099056391E+001;-3.408518308645424E+001;
8.339500000000000E+007;-1.311069692363410E+001;-3.492919578028261E+001;
8.343000000000000E+007;-1.372467713834487E+001;-3.564183403727771E+001;
8.346500000000000E+007;-1.471713155976971E+001;-3.823237223060939E+001;
8.350000000000000E+007;-1.539209276559327E+001;-3.814271994168152E+001;
8.353500000000000E+007;-1.667273314216987E+001;-3.896709818703244E+001;
8.357000000000000E+007;-1.797680142590087E+001;-3.921999013415314E+001;
8.360500000000000E+007;-1.960120564351434E+001;-3.926537067677673E+001;
8.364000000000000E+007;-2.115584962612463E+001;-4.127160225287751E+001;
8.367500000000000E+007;-2.368581974268920E+001;-4.082072459597442E+001;
8.371000000000000E+007;-2.600454092690790E+001;-3.392273725240323E+001;
8.374500000000000E+007;-3.174494525918867E+001;-2.725327092791664E+001;
8.378000000000000E+007;-3.750490197242321E+001;1.501789329798828E+001;
8.381500000000000E+007;-3.484608473025980E+001;8.568908227335074E+001;
8.385000000000000E+007;-2.790206873842723E+001;1.023770888162701E+002;
8.388500000000000E+007;-2.490800431695693E+001;1.048093701965687E+002;
8.392000000000000E+007;-2.203891815248130E+001;1.085523776744883E+002;
8.395500000000000E+007;-1.994900569033506E+001;1.079474129720357E+002;
8.399000000000000E+007;-1.813906910820888E+001;1.048012969662500E+002;
8.402500000000000E+007;-1.728623918264418E+001;1.053468353406035E+002;
8.406000000000000E+007;-1.609433355634172E+001;1.090760947953993E+002;
8.409500000000000E+007;-1.499077809899150E+001;1.042658817624731E+002;
8.413000000000000E+007;-1.381523228528284E+001;1.026123459308712E+002;
8.416500000000000E+007;-1.319855331572555E+001;1.005740293565036E+002;
8.420000000000000E+007;-1.227561106189457E+001;9.850477753929536E+001;
8.423500000000000E+007;-1.174462951601320E+001;9.906957001876639E+001;
8.427000000000000E+007;-1.119458266217252E+001;9.861134966776643E+001;
8.430500000000000E+007;-1.058370712597682E+001;9.501636792030649E+001;
8.434000000000000E+007;-1.018005249905410E+001;9.565595523144292E+001;
8.437500000000000E+007;-9.679016503355689E+000;9.252142845742628E+001;
8.441000000000000E+007;-9.350514259460269E+000;9.090937495740842E+001;
8.444500000000000E+007;-8.867208485481537E+000;9.086980454657947E+001;
8.448000000000000E+007;-8.500889911816591E+000;8.851199219811934E+001;
8.451500000000000E+007;-8.184840426206737E+000;8.700109011335960E+001;
8.455000000000000E+007;-7.835331165672542E+000;8.553206022985768E+001;
8.458500000000000E+007;-7.519144632942800E+000;8.322805061617255E+001;
8.462000000000000E+007;-7.317070780889762E+000;8.361155574810657E+001;
8.465500000000000E+007;-7.052454041963099E+000;8.210050880070311E+001;
8.469000000000000E+007;-6.788221597302005E+000;8.136360510118864E+001;
8.472500000000000E+007;-6.640817503481016E+000;7.954636119892538E+001;
8.476000000000000E+007;-6.373569027928913E+000;7.938500216134557E+001;
8.479500000000000E+007;-6.115118046509966E+000;7.560564845305719E+001;
8.483000000000000E+007;-5.973765118800480E+000;7.402717332228966E+001;
8.486500000000000E+007;-5.816856023226864E+000;7.394836086145432E+001;
8.490000000000000E+007;-5.571274687194008E+000;7.112425349412116E+001;
8.493500000000000E+007;-5.508191493652576E+000;7.030314173653082E+001;
8.497000000000000E+007;-5.316551707626078E+000;6.920347496268207E+001;
8.500500000000000E+007;-5.125981258479042E+000;6.829366700339362E+001;
8.504000000000000E+007;-5.056291204022959E+000;6.804669618142400E+001;
8.507500000000000E+007;-4.987707487675695E+000;6.773053482148912E+001;
8.511000000000000E+007;-4.805678176920499E+000;6.496726699392066E+001;
8.514500000000000E+007;-4.709884722407738E+000;6.440079336616935E+001;
8.518000000000000E+007;-4.613177563204802E+000;6.389363821066268E+001;
8.521500000000000E+007;-4.561000643022571E+000;6.324536531921584E+001;
8.525000000000000E+007;-4.386186108535296E+000;6.134173481088062E+001;
8.528500000000000E+007;-4.299432247319905E+000;6.035180747444615E+001;
8.532000000000000E+007;-4.246401150288709E+000;6.008317186376360E+001;
8.535500000000000E+007;-4.160713030381728E+000;5.948713886259209E+001;
8.539000000000000E+007;-4.114429239975561E+000;5.778846356081904E+001;
8.542500000000000E+007;-3.993775265603219E+000;5.632878950407500E+001;
8.546000000000000E+007;-3.967991293306632E+000;5.615522890487068E+001;
8.549500000000000E+007;-3.841947021733640E+000;5.461946396993719E+001;
8.553000000000000E+007;-3.786599970537513E+000;5.370336001570964E+001;
8.556500000000000E+007;-3.696681408966161E+000;5.186988499142351E+001;
8.560000000000000E+007;-3.698578521648925E+000;5.189607519947926E+001;
8.563500000000000E+007;-3.661185067267729E+000;5.180333672347290E+001;
8.567000000000000E+007;-3.587092427093186E+000;5.152017748351943E+001;
8.570500000000000E+007;-3.515524513285227E+000;4.829909006948460E+001;
8.574000000000000E+007;-3.464086878196842E+000;4.916322653231711E+001;
8.577500000000000E+007;-3.469765992162974E+000;4.903120783112384E+001;
8.581000000000000E+007;-3.435077389054935E+000;4.719311243136581E+001;
8.584500000000000E+007;-3.396570006310408E+000;4.804155369484069E+001;
8.588000000000000E+007;-3.274295596545610E+000;4.479887648375560E+001;
8.591500000000000E+007;-3.278485328772181E+000;4.519754102161241E+001;
8.595000000000000E+007;-3.212556345833159E+000;4.368332547243922E+001;
8.598500000000000E+007;-3.196198370016543E+000;4.315460132453388E+001;
8.602000000000000E+007;-3.166859689828633E+000;4.207251184247769E+001;
8.605500000000000E+007;-3.139945743385325E+000;4.140175690715640E+001;
8.609000000000000E+007;-3.081734793784746E+000;4.025990509876660E+001;
8.612500000000000E+007;-3.092630733389876E+000;4.070022577305658E+001;
8.616000000000000E+007;-3.018493353355259E+000;4.006547373209924E+001;
8.619500000000000E+007;-3.038926936036969E+000;4.061846714124054E+001;
8.623000000000000E+007;-2.985663789051258E+000;3.902891378345700E+001;
8.626500000000000E+007;-3.030967367974398E+000;3.948561766655453E+001;
8.630000000000000E+007;-2.989475386532960E+000;3.802675318488675E+001;
8.633500000000000E+007;-2.940152767411259E+000;3.560610128814086E+001;
8.637000000000000E+007;-2.914615495943127E+000;3.536287858559188E+001;
8.640500000000000E+007;-2.887583546655128E+000;3.524714263209356E+001;
8.644000000000000E+007;-2.931737525427746E+000;3.477410116268429E+001;
8.647500000000000E+007;-2.855080224319188E+000;3.447847860171007E+001;
8.651000000000000E+007;-2.830440367938738E+000;3.354139140841095E+001;
8.654500000000000E+007;-2.849316574470356E+000;3.321614712574797E+001;
8.658000000000000E+007;-2.817742167385056E+000;3.272807795182026E+001;
8.661500000000000E+007;-2.832518001626494E+000;3.253289699923916E+001;
8.665000000000000E+007;-2.784302123312652E+000;3.189339958015235E+001;
8.668500000000000E+007;-2.710129523548780E+000;2.984231400687350E+001;
8.672000000000000E+007;-2.751421548262144E+000;2.903865449127916E+001;
8.675500000000000E+007;-2.687821355087375E+000;2.745142267969175E+001;
8.679000000000000E+007;-2.794499358573038E+000;2.950000487830121E+001;
8.682500000000000E+007;-2.712396866898180E+000;2.837723175632903E+001;
8.686000000000000E+007;-2.716160722360619E+000;2.824375884102121E+001;
8.689500000000000E+007;-2.754134447143220E+000;2.908407575560680E+001;
8.693000000000000E+007;-2.759539076643895E+000;2.692146838639551E+001;
8.696500000000000E+007;-2.686637010510284E+000;2.671137879582911E+001;
8.700000000000000E+007;-2.747783444704617E+000;2.625940655132753E+001;
