# Version 1.00
#
freq[Hz];db:Trc1_S11;ang:Trc1_S11;
8.000000000000000E+007;-2.936439474313533E+000;3.098963784414929E+001;
8.003500000000000E+007;-2.983728879546749E+000;3.137405436780125E+001;
8.007000000000000E+007;-3.015408284145273E+000;3.166486811403355E+001;
8.010500000000000E+007;-3.009241065001041E+000;3.009903335780273E+001;
8.014000000000000E+007;-3.062369260810454E+000;3.040959229806775E+001;
8.017500000000000E+007;-3.108552114724478E+000;3.018016372182726E+001;
8.021000000000000E+007;-3.116144009657849E+000;2.950604983624302E+001;
8.024500000000000E+007;-3.066758230568393E+000;2.701218113702474E+001;
8.028000000000000E+007;-3.134173128929737E+000;2.795275397717528E+001;
8.031500000000000E+007;-3.105319900138851E+000;2.541965359978265E+001;
8.035000000000000E+007;-3.151484523607384E+000;2.517781897164184E+001;
8.038500000000000E+007;-3.235313238017565E+000;2.533845013159936E+001;
8.042000000000000E+007;-3.233649001486058E+000;2.533373714447489E+001;
8.045500000000000E+007;-3.286186448401947E+000;2.498960235893205E+001;
8.049000000000000E+007;-3.389770954671696E+000;2.430144362611495E+001;
8.052500000000000E+007;-3.318487670209438E+000;2.328211169441016E+001;
8.056000000000000E+007;-3.397215997351564E+000;2.210641232183517E+001;
8.059500000000000E+007;-3.457499326576157E+000;2.194329724307688E+001;
8.063000000000000E+007;-3.513911895278173E+000;2.107212774235882E+001;
8.066500000000000E+007;-3.526225131831752E+000;2.038363568134370E+001;
8.070000000000000E+007;-3.535062710221284E+000;1.929439892892865E+001;
8.073500000000000E+007;-3.540197905553189E+000;1.774070645674753E+001;
8.077000000000000E+007;-3.552601898071707E+000;1.633817559130739E+001;
8.080500000000000E+007;-3.731938134648592E+000;1.782714924443712E+001;
8.084000000000000E+007;-3.685490151682684E+000;1.602832068812649E+001;
8.087500000000000E+007;-3.770103509019791E+000;1.644186081726032E+001;
8.091000000000000E+007;-3.856064527425337E+000;1.648955036552793E+001;
8.094500000000000E+007;-3.839505586604386E+000;1.466848568895729E+001;
8.098000000000000E+007;-3.972788205621660E+000;1.568952553196293E+001;
8.101500000000000E+007;-3.994177478111697E+000;1.301740072262413E+001;
8.105000000000000E+007;-4.082328838460434E+000;1.289185383999264E+001;
8.108500000000000E+007;-4.139662393695655E+000;1.335863886610609E+001;
8.112000000000000E+007;-4.202209150461458E+000;1.068956084737355E+001;
8.115500000000000E+007;-4.204087575750201E+000;9.386426036298854E+000;
8.119000000000000E+007;-4.329256294756625E+000;8.872773063437560E+000;
8.122500000000000E+007;-4.406025819812047E+000;8.746211530250793E+000;
8.126000000000000E+007;-4.482039077823253E+000;7.693351827715631E+000;
8.129500000000000E+007;-4.567098274065200E+000;6.691062777697950E+000;
8.133000000000000E+007;-4.706517078579523E+000;6.172832929868461E+000;
8.136500000000000E+007;-4.768115617381344E+000;6.161364575029648E+000;
8.140000000000000E+007;-4.846552552789785E+000;5.078777333217230E+000;
8.143500000000000E+007;-4.988127316012868E+000;5.336385538422072E+000;
8.147000000000000E+007;-5.027455238772362E+000;1.952164986612837E+000;
8.150500000000000E+007;-5.130958743548900E+000;7.633760424114815E-001;
8.154000000000000E+007;-5.273776456279053E+000;3.933859503293588E-001;
8.157500000000000E+007;-5.370428569853939E+000;-1.083091212505211E+000;
8.161000000000000E+007;-5.450088776146896E+000;-1.720982779659120E+000;
8.164500000000000E+007;-5.618259360884126E+000;-3.363383682033576E+000;
8.168000000000000E+007;-5.722202450652921E+000;-4.638906631732611E+000;
8.171500000000000E+007;-5.842472565641500E+000;-5.935062697964797E+000;
8.175000000000000E+007;-6.145267561302386E+000;-4.915238345700499E+000;
8.178500000000000E+007;-6.274652135423488E+000;-6.344163260882834E+000;
8.182000000000000E+007;-6.415483523106892E+000;-7.622527332129667E+000;
8.185500000000000E+007;-6.592505346130301E+000;-7.596261910917053E+000;
8.189000000000000E+007;-6.852800465991539E+000;-9.534370767349795E+000;
8.192500000000000E+007;-6.935228160060035E+000;-1.176633571502078E+001;
8.196000000000000E+007;-7.251344431621933E+000;-1.291731323052940E+001;
8.199500000000000E+007;-7.434506455560686E+000;-1.510141625925186E+001;
8.203000000000000E+007;-7.689867675892577E+000;-1.493947766213914E+001;
8.206500000000000E+007;-7.899524387964926E+000;-1.651021246064686E+001;
8.210000000000000E+007;-8.268842195124810E+000;-1.735473163596043E+001;
8.213500000000000E+007;-8.546001556018053E+000;-1.930685972434226E+001;
8.217000000000000E+007;-8.825191252093379E+000;-1.950665009629935E+001;
8.220500000000000E+007;-9.234417117129761E+000;-2.281889670091528E+001;
8.224000000000000E+007;-9.537457109284084E+000;-2.419108787860890E+001;
8.227500000000000E+007;-9.920986830823438E+000;-2.382390740040996E+001;
8.231000000000000E+007;-1.041174894927081E+001;-2.625865927053094E+001;
8.234500000000000E+007;-1.092144761382606E+001;-2.703159253223447E+001;
8.238000000000000E+007;-1.126979790552890E+001;-2.963332789993135E+001;
8.241500000000000E+007;-1.189403133912182E+001;-3.057446753560606E+001;
8.245000000000000E+007;-1.255109897548132E+001;-3.145116118613840E+001;
8.248500000000000E+007;-1.331443978184608E+001;-3.338316889565407E+001;
8.252000000000000E+007;-1.390915950954757E+001;-3.453784433171097E+001;
8.255500000000000E+007;-1.486968292178020E+001;-3.461934873634321E+001;
8.259000000000000E+007;-1.565901416048330E+001;-3.630765297889871E+001;
8.262500000000000E+007;-1.659194473952164E+001;-3.800921383182374E+001;
8.266000000000000E+007;-1.793182558290393E+001;-3.927180627460135E+001;
8.269500000000000E+007;-1.948771456878407E+001;-4.247879221673058E+001;
8.273000000000000E+007;-2.094512332355540E+001;-4.299707748744493E+001;
8.276500000000000E+007;-2.350676653038624E+001;-4.161517183675497E+001;
8.280000000000000E+007;-2.696692681348781E+001;-3.946605200114935E+001;
8.283500000000000E+007;-3.229947403601118E+001;-4.801109671458855E+001;
8.287000000000000E+007;-4.141233828019323E+001;-2.551447094327131E+001;
8.290500000000000E+007;-3.485883587312514E+001;9.320329846920116E+001;
8.294000000000000E+007;-2.863412982283827E+001;1.054424021939097E+002;
8.297500000000000E+007;-2.450107838680169E+001;1.125178388999262E+002;
8.301000000000000E+007;-2.211097279989459E+001;1.119466932112351E+002;
8.304500000000000E+007;-2.024170212721649E+001;1.110646993476068E+002;
8.308000000000000E+007;-1.883159406340592E+001;1.130719397533612E+002;
8.311500000000000E+007;-1.742288560082263E+001;1.099119081600110E+002;
8.315000000000000E+007;-1.591292337319840E+001;1.101057881230084E+002;
8.318500000000000E+007;-1.497303656435368E+001;1.063210694852325E+002;
8.322000000000000E+007;-1.404431835052095E+001;1.063784573442092E+002;
8.325500000000000E+007;-1.328422505666471E+001;1.047506392742435E+002;
8.329000000000000E+007;-1.252176226369564E+001;1.024530121279982E+002;
8.332500000000000E+007;-1.198635307378065E+001;1.021985255848280E+002;
8.336000000000000E+007;-1.113703653700552E+001;9.927518088743500E+001;
8.339500000000000E+007;-1.085583612247111E+001;9.917479003133749E+001;
8.343000000000000E+007;-1.029147822569792E+001;9.498377986779305E+001;
8.346500000000000E+007;-9.773702560693398E+000;9.628376570986058E+001;
8.350000000000000E+007;-9.408010987855942E+000;9.477758872336646E+001;
8.353500000000000E+007;-9.045332497090415E+000;9.299125675341266E+001;
8.357000000000000E+007;-8.628320401223698E+000;9.109673266211335E+001;
8.360500000000000E+007;-8.330606808722811E+000;9.015887241102332E+001;
8.364000000000000E+007;-7.976678664138243E+000;8.798922820118423E+001;
8.367500000000000E+007;-7.623917324003039E+000;8.562557720266682E+001;
8.371000000000000E+007;-7.360204939283502E+000;8.500443098648644E+001;
8.374500000000000E+007;-7.158568438506006E+000;8.465100355232991E+001;
8.378000000000000E+007;-6.783577663124699E+000;8.160893048491508E+001;
8.381500000000000E+007;-6.625589416262715E+000;8.023926026799543E+001;
8.385000000000000E+007;-6.411381825165405E+000;7.948894063752246E+001;
8.388500000000000E+007;-6.272623809850286E+000;7.916519237845215E+001;
8.392000000000000E+007;-5.979855384720994E+000;7.734772184635304E+001;
8.395500000000000E+007;-5.943067105579517E+000;7.610572434306258E+001;
8.399000000000000E+007;-5.689342399205096E+000;7.433416820868635E+001;
8.402500000000000E+007;-5.519743561746457E+000;7.468598911125220E+001;
8.406000000000000E+007;-5.351455684514619E+000;7.084380315382188E+001;
8.409500000000000E+007;-5.294669100585425E+000;7.178402543534260E+001;
8.413000000000000E+007;-5.132980120421274E+000;7.141320101276864E+001;
8.416500000000000E+007;-4.953754526463397E+000;6.869394701665335E+001;
8.420000000000000E+007;-4.916846014545408E+000;6.816332965284407E+001;
8.423500000000000E+007;-4.794169828948115E+000;6.810891262425606E+001;
8.427000000000000E+007;-4.690526241990413E+000;6.776085386812790E+001;
8.430500000000000E+007;-4.578685129683652E+000;6.493793572821149E+001;
8.434000000000000E+007;-4.464764335457954E+000;6.385937644789077E+001;
8.437500000000000E+007;-4.270965975591450E+000;6.153038143857197E+001;
8.441000000000000E+007;-4.305854246713611E+000;6.184311783021545E+001;
8.444500000000000E+007;-4.205868239173261E+000;6.152044843669250E+001;
8.448000000000000E+007;-4.164502020105155E+000;6.190499577341895E+001;
8.451500000000000E+007;-4.058836331213510E+000;5.891019664143931E+001;
8.455000000000000E+007;-3.949793425822935E+000;5.697603076579224E+001;
8.458500000000000E+007;-3.822147155493774E+000;5.474549420498936E+001;
8.462000000000000E+007;-3.788218994357318E+000;5.585594134880336E+001;
8.465500000000000E+007;-3.768516758664059E+000;5.509106475179219E+001;
8.469000000000000E+007;-3.715603557221893E+000;5.509397048706895E+001;
8.472500000000000E+007;-3.644928185587746E+000;5.245189320655304E+001;
8.476000000000000E+007;-3.659788157305034E+000;5.421368824548829E+001;
8.479500000000000E+007;-3.598605418368799E+000;5.302070794265848E+001;
8.483000000000000E+007;-3.511783047747953E+000;5.126202623584273E+001;
8.486500000000000E+007;-3.464921301341685E+000;5.007358751828333E+001;
8.490000000000000E+007;-3.394419292172979E+000;4.877663273515096E+001;
8.493500000000000E+007;-3.399176067328327E+000;4.823489077444604E+001;
8.497000000000000E+007;-3.303392087123960E+000;4.731703041066711E+001;
8.500500000000000E+007;-3.291402989903165E+000;4.601115910941860E+001;
8.504000000000000E+007;-3.290704179546297E+000;4.675421164627411E+001;
8.507500000000000E+007;-3.181508488041135E+000;4.349901905439941E+001;
8.511000000000000E+007;-3.235512798552011E+000;4.581512618865258E+001;
8.514500000000000E+007;-3.176289328605225E+000;4.312123836117772E+001;
8.518000000000000E+007;-3.088982187107802E+000;4.288868386173059E+001;
8.521500000000000E+007;-3.110810517727946E+000;4.309553106811434E+001;
8.525000000000000E+007;-3.083495915938153E+000;4.125878642635687E+001;
8.528500000000000E+007;-3.072294519187121E+000;4.188972943099180E+001;
8.532000000000000E+007;-2.990490195783815E+000;4.038677609770847E+001;
8.535500000000000E+007;-3.016204850023835E+000;3.934879923345536E+001;
8.539000000000000E+007;-2.969490003109688E+000;3.847234996284871E+001;
8.542500000000000E+007;-2.992665508020904E+000;3.958401777065046E+001;
8.546000000000000E+007;-2.880288909963619E+000;3.737101603327042E+001;
8.549500000000000E+007;-2.956007440569213E+000;3.835083690810451E+001;
8.553000000000000E+007;-2.900779757441268E+000;3.653373261608965E+001;
8.556500000000000E+007;-2.910005796711953E+000;3.694784562902898E+001;
8.560000000000000E+007;-2.863418562819847E+000;3.614082401747429E+001;
8.563500000000000E+007;-2.868615324921827E+000;3.633020843693469E+001;
8.567000000000000E+007;-2.876619356998761E+000;3.464502197698798E+001;
8.570500000000000E+007;-2.755089407715837E+000;3.336951633605349E+001;
8.574000000000000E+007;-2.834384550338320E+000;3.314445703932153E+001;
8.577500000000000E+007;-2.818400419443072E+000;3.289307884860470E+001;
8.581000000000000E+007;-2.842467838103456E+000;3.280843583662918E+001;
8.584500000000000E+007;-2.750878209252571E+000;3.079621590910998E+001;
8.588000000000000E+007;-2.764242391161276E+000;3.058386184734682E+001;
8.591500000000000E+007;-2.737911482654166E+000;3.076296665964425E+001;
8.595000000000000E+007;-2.768232881236659E+000;3.037730858101662E+001;
8.598500000000000E+007;-2.677238243934789E+000;2.874721047887739E+001;
8.602000000000000E+007;-2.740162036752980E+000;2.952543242670877E+001;
8.605500000000000E+007;-2.706179525540750E+000;2.931039639729426E+001;
8.609000000000000E+007;-2.617748244591752E+000;2.724919239010524E+001;
8.612500000000000E+007;-2.733999396598640E+000;2.939350906306731E+001;
8.616000000000000E+007;-2.700985169160674E+000;2.692788313138525E+001;
8.619500000000000E+007;-2.702155463130648E+000;2.644720552591443E+001;
8.623000000000000E+007;-2.702018704656918E+000;2.699832267366587E+001;
8.626500000000000E+007;-2.661957383951285E+000;2.545358618266081E+001;
8.630000000000000E+007;-2.724522770007297E+000;2.563936794541313E+001;
8.633500000000000E+007;-2.607762618838915E+000;2.525679172788421E+001;
8.637000000000000E+007;-2.594205090312103E+000;2.299705100135240E+001;
8.640500000000000E+007;-2.632838630314221E+000;2.407000381439346E+001;
8.644000000000000E+007;-2.661946855704538E+000;2.287429803019552E+001;
8.647500000000000E+007;-2.632682986762549E+000;2.247920730609044E+001;
8.651000000000000E+007;-2.579176206658991E+000;2.128081358882006E+001;
8.654500000000000E+007;-2.591762504606955E+000;2.140027615334668E+001;
8.658000000000000E+007;-2.559807993116416E+000;1.884906130047489E+001;
8.661500000000000E+007;-2.608442631235947E+000;2.096367464548416E+001;
8.665000000000000E+007;-2.565266337460766E+000;1.921537118821665E+001;
8.668500000000000E+007;-2.608708924721964E+000;1.991619129783402E+001;
8.672000000000000E+007;-2.555335788481816E+000;1.716659039663314E+001;
8.675500000000000E+007;-2.567165826182950E+000;1.879504104142249E+001;
8.679000000000000E+007;-2.608865447702530E+000;1.834788394106391E+001;
8.682500000000000E+007;-2.525237550113195E+000;1.523889192606074E+001;
8.686000000000000E+007;-2.598898763762712E+000;1.775797074331669E+001;
8.689500000000000E+007;-2.556201314657467E+000;1.569137182725028E+001;
8.693000000000000E+007;-2.579745703655307E+000;1.663043008477463E+001;
8.696500000000000E+007;-2.584813068551156E+000;1.677887833055364E+001;
8.700000000000000E+007;-2.569941818981537E+000;1.485210621128750E+001;
