# Version 1.00
#
freq[Hz];db:Trc1_S11;ang:Trc1_S11;
8.100000000000000E+007;-1.679560694303300E+000;-1.656253149642491E+002;
8.103500000000000E+007;-1.693900553629953E+000;-1.659791961283451E+002;
8.107000000000000E+007;-1.783971491322791E+000;-1.680760359249133E+002;
8.110500000000000E+007;-1.788234205848783E+000;-1.691391866286660E+002;
8.114000000000000E+007;-1.826584931432264E+000;-1.683440421010448E+002;
8.117500000000000E+007;-1.964568561120276E+000;-1.711561054383569E+002;
8.121000000000000E+007;-2.054998382746615E+000;-1.725191030363549E+002;
8.124500000000000E+007;-2.148981094267107E+000;-1.732800524981902E+002;
8.128000000000000E+007;-2.266659847336394E+000;-1.759584866878007E+002;
8.131500000000000E+007;-2.340468425404106E+000;-1.756070117696006E+002;
8.135000000000000E+007;-2.467606503627805E+000;-1.772330705225688E+002;
8.138500000000000E+007;-2.592887882523587E+000;-1.784988567408892E+002;
8.142000000000000E+007;-2.732586612122176E+000;-1.790262172678009E+002;
8.145500000000000E+007;-2.945027233678983E+000;1.786529556604839E+002;
8.149000000000000E+007;-3.093539609852220E+000;1.775346631499046E+002;
8.152500000000000E+007;-3.368131119947132E+000;1.746224022367824E+002;
8.156000000000000E+007;-3.586981045746323E+000;1.742206682283558E+002;
8.159500000000000E+007;-3.927406905876571E+000;1.703283822316591E+002;
8.163000000000000E+007;-4.230487849799966E+000;1.682910956008269E+002;
8.166500000000000E+007;-4.593218560565583E+000;1.658637043550679E+002;
8.170000000000000E+007;-5.042222035840315E+000;1.633598418724251E+002;
8.173500000000000E+007;-5.534015886324020E+000;1.605330036735727E+002;
8.177000000000000E+007;-6.103258473933042E+000;1.591111118130366E+002;
8.180500000000000E+007;-6.820499994889979E+000;1.559586655313995E+002;
8.184000000000000E+007;-7.634817423735443E+000;1.524131503733288E+002;
8.187500000000000E+007;-8.570322931763222E+000;1.505831686975346E+002;
8.191000000000000E+007;-9.800322634771229E+000;1.466841693202551E+002;
8.194500000000000E+007;-1.140685749571077E+001;1.402349557710759E+002;
8.198000000000000E+007;-1.326042581968494E+001;1.414032401211796E+002;
8.201500000000000E+007;-1.598096838638777E+001;1.371413724017461E+002;
8.205000000000000E+007;-1.978534889185046E+001;1.348000161309203E+002;
8.208500000000000E+007;-2.789893033230143E+001;1.322397146796984E+002;
8.212000000000000E+007;-3.416445424274848E+001;-8.495242861500739E+001;
8.215500000000000E+007;-2.230080001192403E+001;-6.656652682361057E+001;
8.219000000000000E+007;-1.708273300839686E+001;-6.918956531658493E+001;
8.222500000000000E+007;-1.438395768668905E+001;-7.219045739847945E+001;
8.226000000000000E+007;-1.205954712396038E+001;-7.451480693118509E+001;
8.229500000000000E+007;-1.047859955941143E+001;-7.818899307659056E+001;
8.233000000000000E+007;-9.153958451153278E+000;-8.221188962668684E+001;
8.236500000000000E+007;-8.133562026028859E+000;-8.488078347401077E+001;
8.240000000000000E+007;-7.135811746192289E+000;-8.758934004357137E+001;
8.243500000000000E+007;-6.449214081401857E+000;-9.036775924782560E+001;
8.247000000000000E+007;-5.789157443635032E+000;-9.275868702724178E+001;
8.250500000000000E+007;-5.241874816614790E+000;-9.511012217320715E+001;
8.254000000000000E+007;-4.755858439608763E+000;-9.739202172761830E+001;
8.257500000000000E+007;-4.487064024340956E+000;-1.009292488519659E+002;
8.261000000000000E+007;-4.079855730021374E+000;-1.029506253842478E+002;
8.264500000000000E+007;-3.810693328728530E+000;-1.070860741011798E+002;
8.268000000000000E+007;-3.520062402515745E+000;-1.076895616607348E+002;
8.271500000000000E+007;-3.273617358131899E+000;-1.093568402607357E+002;
8.275000000000000E+007;-3.058638111596108E+000;-1.096934382650342E+002;
8.278500000000000E+007;-2.860653389610838E+000;-1.122261651777803E+002;
8.282000000000000E+007;-2.718449682578025E+000;-1.133261158011705E+002;
8.285500000000000E+007;-2.589208647751407E+000;-1.149008565982624E+002;
8.289000000000000E+007;-2.439549043274274E+000;-1.174257198750095E+002;
8.292500000000000E+007;-2.285949802115435E+000;-1.172035662417733E+002;
8.296000000000000E+007;-2.217412140540915E+000;-1.201531818415616E+002;
8.299500000000000E+007;-2.164564913899708E+000;-1.219022348332377E+002;
8.303000000000000E+007;-2.056846502463165E+000;-1.230558369667931E+002;
8.306500000000000E+007;-1.959398607365576E+000;-1.227697790822241E+002;
8.310000000000000E+007;-1.874795900280662E+000;-1.238105022491726E+002;
8.313500000000000E+007;-1.884004761084352E+000;-1.258101509232628E+002;
8.317000000000000E+007;-1.687937306814428E+000;-1.256618736557539E+002;
8.320500000000000E+007;-1.674275006551090E+000;-1.262963944848207E+002;
8.324000000000000E+007;-1.632824710424117E+000;-1.266302818207051E+002;
8.327500000000000E+007;-1.626507216896195E+000;-1.296044741877281E+002;
8.331000000000000E+007;-1.537305432613234E+000;-1.285680715070656E+002;
8.334500000000000E+007;-1.530063211474345E+000;-1.301159692046411E+002;
8.338000000000000E+007;-1.485603193152690E+000;-1.306722228758920E+002;
8.341500000000000E+007;-1.479397971810616E+000;-1.320439180105123E+002;
8.345000000000000E+007;-1.412000330385085E+000;-1.327354224783380E+002;
8.348500000000000E+007;-1.429862046596819E+000;-1.335320271032834E+002;
8.352000000000000E+007;-1.355718942021650E+000;-1.328394036847649E+002;
8.355500000000000E+007;-1.344838464273955E+000;-1.344698396987284E+002;
8.359000000000000E+007;-1.326210060428866E+000;-1.348880638900458E+002;
8.362500000000000E+007;-1.374322789041184E+000;-1.369275006531772E+002;
8.366000000000000E+007;-1.235637376779710E+000;-1.354369246477291E+002;
8.369500000000000E+007;-1.300766158767196E+000;-1.378255684210682E+002;
8.373000000000000E+007;-1.201026008697641E+000;-1.362217256356881E+002;
8.376500000000000E+007;-1.219028866969351E+000;-1.372725962017854E+002;
8.380000000000000E+007;-1.142813186892019E+000;-1.379499899307825E+002;
8.383500000000000E+007;-1.205572304775836E+000;-1.393702834472957E+002;
8.387000000000000E+007;-1.188695870685819E+000;-1.406592724635669E+002;
8.390500000000000E+007;-1.148860449503902E+000;-1.392958785626948E+002;
8.394000000000000E+007;-1.094325551668433E+000;-1.391370900145859E+002;
8.397500000000000E+007;-1.087000216334926E+000;-1.396912701380629E+002;
8.401000000000000E+007;-1.087467067125749E+000;-1.403143886175918E+002;
8.404500000000000E+007;-1.055690418710354E+000;-1.404153495404021E+002;
8.408000000000000E+007;-1.065733891669503E+000;-1.410107038781165E+002;
8.411500000000000E+007;-1.081786265401435E+000;-1.415650743941744E+002;
8.415000000000000E+007;-1.041585547776483E+000;-1.415838455863935E+002;
8.418500000000000E+007;-1.034107104133000E+000;-1.418101993834817E+002;
8.422000000000000E+007;-1.029529749664579E+000;-1.432930202016646E+002;
8.425500000000000E+007;-9.867765210939243E-001;-1.413902086898384E+002;
8.429000000000000E+007;-1.047610190940397E+000;-1.448226599810361E+002;
8.432500000000000E+007;-1.044202905880848E+000;-1.458554461866681E+002;
8.436000000000000E+007;-9.665625983950620E-001;-1.437039978886399E+002;
8.439500000000000E+007;-1.032549514826575E+000;-1.453339418697599E+002;
8.443000000000000E+007;-1.044651090948474E+000;-1.467338930758301E+002;
8.446500000000000E+007;-1.033985189382171E+000;-1.456557691151849E+002;
8.450000000000000E+007;-1.015644247373281E+000;-1.464329723576729E+002;
8.453500000000000E+007;-1.021386621127615E+000;-1.470025809943155E+002;
8.457000000000000E+007;-9.861729418418098E-001;-1.476149259523313E+002;
8.460500000000000E+007;-9.277057180420241E-001;-1.462154311471665E+002;
8.464000000000000E+007;-1.014002025430363E+000;-1.487110015645160E+002;
8.467500000000000E+007;-9.454963176883408E-001;-1.483342775935607E+002;
8.471000000000000E+007;-9.213510279687230E-001;-1.480752716743929E+002;
8.474500000000000E+007;-9.548945336655478E-001;-1.487986971021842E+002;
8.478000000000000E+007;-9.145472656140041E-001;-1.477513552534406E+002;
8.481500000000000E+007;-1.008756436864473E+000;-1.508023563673473E+002;
8.485000000000000E+007;-9.760845196232629E-001;-1.502167727033819E+002;
8.488500000000000E+007;-9.524606873496327E-001;-1.499007081731753E+002;
8.492000000000000E+007;-9.441625182973181E-001;-1.503861706543949E+002;
8.495500000000000E+007;-8.805453180393852E-001;-1.492252749568864E+002;
8.499000000000000E+007;-9.159881474966402E-001;-1.507292847154583E+002;
8.502500000000000E+007;-9.546571554553691E-001;-1.514690628218890E+002;
8.506000000000000E+007;-8.996595466960263E-001;-1.500846591792747E+002;
8.509500000000000E+007;-9.073921109975534E-001;-1.524303285024518E+002;
8.513000000000000E+007;-8.657593667246939E-001;-1.502055942332245E+002;
8.516500000000000E+007;-9.121583103660483E-001;-1.519957445752143E+002;
8.520000000000000E+007;-9.348544297611763E-001;-1.525476897686555E+002;
8.523500000000000E+007;-9.105082807237027E-001;-1.524955803741881E+002;
8.527000000000000E+007;-8.913407449620567E-001;-1.527952602592632E+002;
8.530500000000000E+007;-8.561620010012974E-001;-1.526938587181916E+002;
8.534000000000000E+007;-9.015289855130951E-001;-1.536017099237473E+002;
8.537500000000000E+007;-8.724616868869358E-001;-1.524647259910900E+002;
8.541000000000000E+007;-9.214694023758235E-001;-1.542445411098034E+002;
8.544500000000000E+007;-8.961639996071414E-001;-1.545845373642981E+002;
8.548000000000000E+007;-8.486653473984493E-001;-1.537215456669801E+002;
8.551500000000000E+007;-8.844865531932420E-001;-1.545256266868338E+002;
8.555000000000000E+007;-9.051286625306714E-001;-1.552747049426433E+002;
8.558500000000000E+007;-8.461355094996593E-001;-1.546327588034507E+002;
8.562000000000000E+007;-8.498106907873972E-001;-1.541110272990449E+002;
8.565500000000000E+007;-8.818347263655689E-001;-1.563294207635582E+002;
8.569000000000000E+007;-9.070139185107260E-001;-1.562503556284869E+002;
8.572500000000000E+007;-9.050928415956542E-001;-1.576449012293390E+002;
8.576000000000000E+007;-8.477706911576914E-001;-1.557200934521654E+002;
8.579500000000000E+007;-8.634838420366106E-001;-1.575680003976946E+002;
8.583000000000000E+007;-9.321537419506473E-001;-1.588059733175712E+002;
8.586500000000000E+007;-8.258480128415510E-001;-1.570198694249664E+002;
8.590000000000000E+007;-9.103112252530075E-001;-1.587332304464620E+002;
8.593500000000000E+007;-8.912942260574618E-001;-1.580629283650695E+002;
8.597000000000000E+007;-8.612287990637509E-001;-1.583556111793092E+002;
8.600500000000000E+007;-9.209625945194437E-001;-1.596274886595429E+002;
8.604000000000000E+007;-8.568053739690683E-001;-1.596693325889116E+002;
8.607500000000000E+007;-8.438648546052447E-001;-1.588284697552722E+002;
8.611000000000000E+007;-8.987399533766702E-001;-1.600448939118944E+002;
8.614500000000000E+007;-8.609582295851099E-001;-1.592731849455075E+002;
8.618000000000000E+007;-8.603436042735561E-001;-1.595791130971324E+002;
8.621500000000000E+007;-8.289980778805994E-001;-1.588644270079679E+002;
8.625000000000000E+007;-8.452125943899821E-001;-1.591182426156809E+002;
8.628500000000000E+007;-8.222706898785223E-001;-1.591605141749096E+002;
8.632000000000000E+007;-8.819571497807582E-001;-1.620875427585099E+002;
8.635500000000000E+007;-9.424431682403754E-001;-1.631412422239049E+002;
8.639000000000000E+007;-7.935706027249488E-001;-1.592645822569062E+002;
8.642500000000000E+007;-8.352922276995556E-001;-1.613195581124398E+002;
8.646000000000000E+007;-8.607917131210752E-001;-1.612337747996569E+002;
8.649500000000000E+007;-8.776778097329497E-001;-1.625775244534070E+002;
8.653000000000000E+007;-8.153880433712671E-001;-1.612572315222741E+002;
8.656500000000000E+007;-8.534159917344596E-001;-1.620576830946395E+002;
8.660000000000000E+007;-8.675319446729122E-001;-1.629825930624873E+002;
8.663500000000000E+007;-8.463076449092678E-001;-1.624582201389550E+002;
8.667000000000000E+007;-8.225426820008910E-001;-1.631008190453130E+002;
8.670500000000000E+007;-8.166635451842413E-001;-1.619766124082486E+002;
8.674000000000000E+007;-8.606385294447077E-001;-1.642557733006651E+002;
8.677500000000000E+007;-8.437486576914224E-001;-1.638289846029592E+002;
8.681000000000000E+007;-8.422442579872470E-001;-1.633824399779234E+002;
8.684500000000000E+007;-8.362507287098362E-001;-1.637390323554733E+002;
8.688000000000000E+007;-8.690247702619325E-001;-1.639065483195931E+002;
8.691500000000000E+007;-8.240862874689612E-001;-1.627302662387821E+002;
8.695000000000000E+007;-8.954629608813425E-001;-1.654273433007395E+002;
8.698500000000000E+007;-8.686863356454629E-001;-1.640517386892350E+002;
8.702000000000000E+007;-8.481435970918528E-001;-1.656857969766189E+002;
8.705500000000000E+007;-7.930304750844636E-001;-1.641058190922328E+002;
8.709000000000000E+007;-7.969495074383201E-001;-1.645838230685593E+002;
8.712500000000000E+007;-8.412964899977934E-001;-1.661471116685122E+002;
8.716000000000000E+007;-8.504648458103187E-001;-1.670962852158800E+002;
8.719500000000000E+007;-9.045283916222929E-001;-1.671405438940478E+002;
8.723000000000000E+007;-8.307176441042895E-001;-1.662763746542559E+002;
8.726500000000000E+007;-8.070844738412401E-001;-1.666392354424023E+002;
8.730000000000000E+007;-8.119162855754950E-001;-1.660533483799000E+002;
8.733500000000000E+007;-8.353549767874846E-001;-1.667231090777818E+002;
8.737000000000000E+007;-8.720805891599841E-001;-1.686481528763292E+002;
8.740500000000000E+007;-8.516648511326057E-001;-1.676692922184208E+002;
8.744000000000000E+007;-8.163532491628914E-001;-1.669635411939615E+002;
8.747500000000000E+007;-8.553741081809481E-001;-1.682455458191957E+002;
8.751000000000000E+007;-8.265182437949968E-001;-1.689254244639663E+002;
8.754500000000000E+007;-8.179321103426707E-001;-1.683585760973099E+002;
8.758000000000000E+007;-8.293978784244731E-001;-1.691386701401796E+002;
8.761500000000000E+007;-7.905459946996188E-001;-1.673802614211405E+002;
8.765000000000000E+007;-8.443019129001528E-001;-1.685342735972328E+002;
8.768500000000000E+007;-8.451955533491535E-001;-1.693834121524589E+002;
8.772000000000000E+007;-7.765871993296701E-001;-1.675780479748988E+002;
8.775500000000000E+007;-8.010456566124613E-001;-1.695275925716517E+002;
8.779000000000000E+007;-8.157364983086005E-001;-1.692234808979390E+002;
8.782500000000000E+007;-8.393390537908946E-001;-1.710832514605915E+002;
8.786000000000000E+007;-8.250797398473857E-001;-1.699686062435920E+002;
8.789500000000000E+007;-8.202348722440880E-001;-1.708422187880267E+002;
8.793000000000000E+007;-8.366112547260486E-001;-1.703054407580894E+002;
8.796500000000000E+007;-8.197588869531197E-001;-1.701605687829310E+002;
8.800000000000000E+007;-8.477648721942548E-001;-1.715605635426961E+002;
