# Version 1.00
#
freq[Hz];db:Trc1_S11;ang:Trc1_S11;
8.100000000000000E+007;-1.184351149180561E+000;-1.565356565529411E+002;
8.103500000000000E+007;-1.267732972054507E+000;-1.592465707298885E+002;
8.107000000000000E+007;-1.258240624357513E+000;-1.594407186062389E+002;
8.110500000000000E+007;-1.254381399666885E+000;-1.605296001421541E+002;
8.114000000000000E+007;-1.329765999169339E+000;-1.620006088798218E+002;
8.117500000000000E+007;-1.321119437020631E+000;-1.605094942835495E+002;
8.121000000000000E+007;-1.354032686760315E+000;-1.624978401842494E+002;
8.124500000000000E+007;-1.408897418610510E+000;-1.633202774269894E+002;
8.128000000000000E+007;-1.409028434269228E+000;-1.631458212519206E+002;
8.131500000000000E+007;-1.443381143569579E+000;-1.645066333647966E+002;
8.135000000000000E+007;-1.512698486669901E+000;-1.651318119447654E+002;
8.138500000000000E+007;-1.559305392197721E+000;-1.672676115597552E+002;
8.142000000000000E+007;-1.513144367287234E+000;-1.650641640217296E+002;
8.145500000000000E+007;-1.527618054905334E+000;-1.647621720758323E+002;
8.149000000000000E+007;-1.635898353941647E+000;-1.677234797177560E+002;
8.152500000000000E+007;-1.697082020273439E+000;-1.683988699229506E+002;
8.156000000000000E+007;-1.807256559186358E+000;-1.703165982407815E+002;
8.159500000000000E+007;-1.800503352447135E+000;-1.700581252983449E+002;
8.163000000000000E+007;-1.928228394115660E+000;-1.716774165289550E+002;
8.166500000000000E+007;-1.942032928428064E+000;-1.712178442654926E+002;
8.170000000000000E+007;-2.076265541061923E+000;-1.741207865837818E+002;
8.173500000000000E+007;-2.177812685074983E+000;-1.748510327545581E+002;
8.177000000000000E+007;-2.275807999928919E+000;-1.767624683542466E+002;
8.180500000000000E+007;-2.443353247980254E+000;-1.795675834252564E+002;
8.184000000000000E+007;-2.584447174983230E+000;-1.798083278381739E+002;
8.187500000000000E+007;-2.668431908997510E+000;-1.799485585935005E+002;
8.191000000000000E+007;-2.841286455666126E+000;1.792378321159028E+002;
8.194500000000000E+007;-3.065088076036518E+000;1.760529649818762E+002;
8.198000000000000E+007;-3.250583831111038E+000;1.734024615267926E+002;
8.201500000000000E+007;-3.499517899973751E+000;1.717868034519160E+002;
8.205000000000000E+007;-3.792058936195218E+000;1.689210750615218E+002;
8.208500000000000E+007;-4.120409071268496E+000;1.671703944792697E+002;
8.212000000000000E+007;-4.365623732488922E+000;1.671937577566384E+002;
8.215500000000000E+007;-4.816994137146257E+000;1.638120858084463E+002;
8.219000000000000E+007;-5.296109004640669E+000;1.627315371830746E+002;
8.222500000000000E+007;-5.889205412183029E+000;1.590862570148638E+002;
8.226000000000000E+007;-6.432683448974058E+000;1.560120133627129E+002;
8.229500000000000E+007;-7.270448929286781E+000;1.539003591280444E+002;
8.233000000000000E+007;-8.172194015907275E+000;1.518476293320053E+002;
8.236500000000000E+007;-9.315180898157108E+000;1.485889978247855E+002;
8.240000000000000E+007;-1.079880133072387E+001;1.456307809772919E+002;
8.243500000000000E+007;-1.253989923070803E+001;1.429849052708645E+002;
8.247000000000000E+007;-1.471766752597796E+001;1.398866722732783E+002;
8.250500000000000E+007;-1.802936522782619E+001;1.431515848410486E+002;
8.254000000000000E+007;-2.373209796017978E+001;1.453126269978205E+002;
8.257500000000000E+007;-3.189006545004195E+001;-1.502697596412848E+002;
8.261000000000000E+007;-2.358227094962451E+001;-8.494625955465054E+001;
8.264500000000000E+007;-1.840141175655200E+001;-7.872740876257073E+001;
8.268000000000000E+007;-1.471930808159254E+001;-7.821501654318588E+001;
8.271500000000000E+007;-1.254962901513897E+001;-8.111124104130640E+001;
8.275000000000000E+007;-1.077839804705471E+001;-8.291712567547978E+001;
8.278500000000000E+007;-9.432981989659860E+000;-8.484619778752813E+001;
8.282000000000000E+007;-8.231701486990232E+000;-8.873411985238235E+001;
8.285500000000000E+007;-7.280486388415065E+000;-9.132445644647999E+001;
8.289000000000000E+007;-6.594937759941711E+000;-9.470255615567967E+001;
8.292500000000000E+007;-5.886794489907048E+000;-9.634297095507583E+001;
8.296000000000000E+007;-5.202885302811697E+000;-9.844771990976565E+001;
8.299500000000000E+007;-4.886908473386924E+000;-1.028878858397711E+002;
8.303000000000000E+007;-4.418267744608575E+000;-1.036240324367343E+002;
8.306500000000000E+007;-4.094402796271987E+000;-1.062864205651986E+002;
8.310000000000000E+007;-3.749566242828060E+000;-1.077990837612625E+002;
8.313500000000000E+007;-3.436068699965468E+000;-1.100856863839678E+002;
8.317000000000000E+007;-3.263317559898088E+000;-1.117627695620289E+002;
8.320500000000000E+007;-3.105224589929067E+000;-1.157618112049881E+002;
8.324000000000000E+007;-2.948847499844404E+000;-1.160465567241915E+002;
8.327500000000000E+007;-2.709625008575070E+000;-1.164484734108186E+002;
8.331000000000000E+007;-2.532261443368818E+000;-1.180140683806530E+002;
8.334500000000000E+007;-2.411006753829518E+000;-1.198812231361711E+002;
8.338000000000000E+007;-2.304364986090904E+000;-1.207488423222027E+002;
8.341500000000000E+007;-2.177659530701156E+000;-1.211898495817038E+002;
8.345000000000000E+007;-2.091675850677597E+000;-1.223755089233970E+002;
8.348500000000000E+007;-2.049089163378803E+000;-1.251672335803059E+002;
8.352000000000000E+007;-1.927084649736584E+000;-1.250032538977255E+002;
8.355500000000000E+007;-1.846166342031825E+000;-1.253827390731352E+002;
8.359000000000000E+007;-1.836203030811866E+000;-1.272894966582276E+002;
8.362500000000000E+007;-1.723005075282758E+000;-1.278442388829057E+002;
8.366000000000000E+007;-1.716541491091164E+000;-1.292643569867553E+002;
8.369500000000000E+007;-1.604743868764846E+000;-1.288883872727102E+002;
8.373000000000000E+007;-1.582735117885075E+000;-1.308188723070968E+002;
8.376500000000000E+007;-1.574152358965940E+000;-1.320858761367976E+002;
8.380000000000000E+007;-1.572577702921392E+000;-1.344847369126505E+002;
8.383500000000000E+007;-1.437619857412535E+000;-1.326543244106014E+002;
8.387000000000000E+007;-1.412360964952276E+000;-1.340495883900538E+002;
8.390500000000000E+007;-1.366622712341599E+000;-1.332349546366773E+002;
8.394000000000000E+007;-1.319676211190429E+000;-1.346234908992121E+002;
8.397500000000000E+007;-1.408332251592857E+000;-1.371706956949318E+002;
8.401000000000000E+007;-1.344901803321417E+000;-1.365409212168378E+002;
8.404500000000000E+007;-1.283485558130177E+000;-1.362311334537990E+002;
8.408000000000000E+007;-1.283150446705020E+000;-1.379869653811051E+002;
8.411500000000000E+007;-1.275327693955953E+000;-1.389166223460169E+002;
8.415000000000000E+007;-1.180913645626629E+000;-1.380180939223736E+002;
8.418500000000000E+007;-1.207316581227258E+000;-1.395185841924339E+002;
8.422000000000000E+007;-1.218377087618728E+000;-1.397754482413518E+002;
8.425500000000000E+007;-1.148469363388054E+000;-1.390164972478139E+002;
8.429000000000000E+007;-1.188233913701569E+000;-1.402403166009327E+002;
8.432500000000000E+007;-1.185180633797186E+000;-1.420737060034381E+002;
8.436000000000000E+007;-1.186482707514334E+000;-1.426760078628770E+002;
8.439500000000000E+007;-1.155826360800855E+000;-1.425504607072164E+002;
8.443000000000000E+007;-1.124522231908896E+000;-1.426311287285083E+002;
8.446500000000000E+007;-1.136581199593620E+000;-1.438767103169460E+002;
8.450000000000000E+007;-1.089095482505220E+000;-1.440367053928888E+002;
8.453500000000000E+007;-1.064557195039134E+000;-1.442860381365023E+002;
8.457000000000000E+007;-1.043007410869623E+000;-1.427833952340575E+002;
8.460500000000000E+007;-1.129644030935520E+000;-1.463564408632218E+002;
8.464000000000000E+007;-1.064370233333522E+000;-1.457693192722068E+002;
8.467500000000000E+007;-1.052825618480317E+000;-1.462610207902959E+002;
8.471000000000000E+007;-1.064373239363161E+000;-1.463587209630485E+002;
8.474500000000000E+007;-1.112685664087555E+000;-1.486620726778570E+002;
8.478000000000000E+007;-1.055560514203131E+000;-1.470090433140147E+002;
8.481500000000000E+007;-1.057688355105634E+000;-1.477408254133032E+002;
8.485000000000000E+007;-1.045626475608203E+000;-1.475792464693365E+002;
8.488500000000000E+007;-9.708000933397857E-001;-1.477173115446839E+002;
8.492000000000000E+007;-9.295771669839471E-001;-1.465089020446217E+002;
8.495500000000000E+007;-9.990566379333119E-001;-1.488612681352323E+002;
8.499000000000000E+007;-9.653265071804634E-001;-1.487294972481315E+002;
8.502500000000000E+007;-9.778659157028299E-001;-1.492879675224538E+002;
8.506000000000000E+007;-9.497048385976699E-001;-1.489579529486819E+002;
8.509500000000000E+007;-9.914324630727538E-001;-1.506961989783115E+002;
8.513000000000000E+007;-9.809849645492702E-001;-1.514630669500880E+002;
8.516500000000000E+007;-9.647825083620705E-001;-1.508322601890781E+002;
8.520000000000000E+007;-9.358492432503960E-001;-1.500982409423496E+002;
8.523500000000000E+007;-9.402728727699330E-001;-1.513651544810991E+002;
8.527000000000000E+007;-9.620209023967056E-001;-1.521783012208412E+002;
8.530500000000000E+007;-9.679684523809549E-001;-1.527372303513231E+002;
8.534000000000000E+007;-9.608267850176475E-001;-1.527748733619501E+002;
8.537500000000000E+007;-9.804567798106302E-001;-1.537839267718113E+002;
8.541000000000000E+007;-9.381512301598131E-001;-1.529808085716070E+002;
8.544500000000000E+007;-9.671795559922017E-001;-1.538542731645551E+002;
8.548000000000000E+007;-9.694285804212703E-001;-1.558687673697546E+002;
8.551500000000000E+007;-9.270272980741731E-001;-1.542291364713983E+002;
8.555000000000000E+007;-8.829931338048519E-001;-1.533735038109105E+002;
8.558500000000000E+007;-9.067690944111020E-001;-1.540203769865400E+002;
8.562000000000000E+007;-8.967998765864792E-001;-1.551250695195884E+002;
8.565500000000000E+007;-9.559439146276105E-001;-1.561153800585695E+002;
8.569000000000000E+007;-9.037989281101531E-001;-1.549788232336133E+002;
8.572500000000000E+007;-8.548539947007802E-001;-1.543888200216124E+002;
8.576000000000000E+007;-9.396496126510574E-001;-1.564744413682831E+002;
8.579500000000000E+007;-9.439278570995908E-001;-1.559850777183424E+002;
8.583000000000000E+007;-9.117799044682143E-001;-1.563215401164889E+002;
8.586500000000000E+007;-9.318158133032701E-001;-1.562547816086108E+002;
8.590000000000000E+007;-9.200193383104161E-001;-1.565339521530364E+002;
8.593500000000000E+007;-9.327550542485105E-001;-1.572398240063163E+002;
8.597000000000000E+007;-9.274323188988082E-001;-1.588473859085806E+002;
8.600500000000000E+007;-8.773838866663097E-001;-1.567386841971612E+002;
8.604000000000000E+007;-8.479045926382356E-001;-1.571360505346556E+002;
8.607500000000000E+007;-8.641521609641532E-001;-1.567547134212068E+002;
8.611000000000000E+007;-9.108467763821684E-001;-1.592339083820826E+002;
8.614500000000000E+007;-8.753968681616885E-001;-1.579646604835521E+002;
8.618000000000000E+007;-8.640567822928774E-001;-1.585304367046124E+002;
8.621500000000000E+007;-8.722917616899150E-001;-1.594268204622308E+002;
8.625000000000000E+007;-8.592012467204306E-001;-1.594548876683261E+002;
8.628500000000000E+007;-8.223739865651798E-001;-1.585698074511892E+002;
8.632000000000000E+007;-8.949836206566344E-001;-1.610420249036428E+002;
8.635500000000000E+007;-8.302349555466132E-001;-1.582313020052533E+002;
8.639000000000000E+007;-8.274179073385126E-001;-1.589952031963557E+002;
8.642500000000000E+007;-8.120019420823986E-001;-1.592108219945797E+002;
8.646000000000000E+007;-8.422796051818093E-001;-1.608710225578629E+002;
8.649500000000000E+007;-8.966831729309683E-001;-1.612141147974855E+002;
8.653000000000000E+007;-8.748674847784467E-001;-1.612500655099673E+002;
8.656500000000000E+007;-8.348182332727916E-001;-1.608775385346549E+002;
8.660000000000000E+007;-8.481792331845872E-001;-1.614098407223067E+002;
8.663500000000000E+007;-8.648034281797106E-001;-1.626724739446772E+002;
8.667000000000000E+007;-8.823260726290155E-001;-1.632295059833746E+002;
8.670500000000000E+007;-9.011263438103901E-001;-1.635268790358803E+002;
8.674000000000000E+007;-8.525057779379984E-001;-1.629120941435264E+002;
8.677500000000000E+007;-8.374805034249260E-001;-1.618048661225326E+002;
8.681000000000000E+007;-8.400893031522903E-001;-1.629780221500109E+002;
8.684500000000000E+007;-8.898226519845969E-001;-1.630718846130103E+002;
8.688000000000000E+007;-8.569570286922772E-001;-1.639973858121025E+002;
8.691500000000000E+007;-8.868606134093570E-001;-1.643358655494621E+002;
8.695000000000000E+007;-8.128768650214033E-001;-1.635459733593153E+002;
8.698500000000000E+007;-8.708937208739435E-001;-1.642319373363344E+002;
8.702000000000000E+007;-8.639718565742033E-001;-1.658429476213628E+002;
8.705500000000000E+007;-8.701342427232314E-001;-1.646050320768235E+002;
8.709000000000000E+007;-8.647019891780252E-001;-1.657581743804481E+002;
8.712500000000000E+007;-8.421980078393417E-001;-1.660448348683677E+002;
8.716000000000000E+007;-8.303288570201656E-001;-1.649985454345317E+002;
8.719500000000000E+007;-8.724253150939559E-001;-1.662573354354132E+002;
8.723000000000000E+007;-8.951959633014449E-001;-1.659472218666850E+002;
8.726500000000000E+007;-8.595171530824485E-001;-1.663833164542182E+002;
8.730000000000000E+007;-8.723618383536457E-001;-1.674592353791886E+002;
8.733500000000000E+007;-8.693716702625093E-001;-1.667512502942554E+002;
8.737000000000000E+007;-8.584326667023614E-001;-1.677270893163486E+002;
8.740500000000000E+007;-8.793580715149499E-001;-1.672964337914486E+002;
8.744000000000000E+007;-8.628835826687777E-001;-1.675867655863499E+002;
8.747500000000000E+007;-8.031125170204452E-001;-1.668830256803399E+002;
8.751000000000000E+007;-8.169724070156854E-001;-1.672048606390358E+002;
8.754500000000000E+007;-8.383037139352678E-001;-1.682213078785521E+002;
8.758000000000000E+007;-8.729783764379661E-001;-1.684145479958769E+002;
8.761500000000000E+007;-8.201508601226135E-001;-1.675992142096915E+002;
8.765000000000000E+007;-8.497200083444011E-001;-1.685918887565363E+002;
8.768500000000000E+007;-8.692889451459793E-001;-1.687034669596406E+002;
8.772000000000000E+007;-8.813595953439698E-001;-1.685389280069273E+002;
8.775500000000000E+007;-8.638639002687053E-001;-1.699974695046789E+002;
8.779000000000000E+007;-8.477775364576297E-001;-1.702504919739768E+002;
8.782500000000000E+007;-8.726297134028788E-001;-1.704523577020543E+002;
8.786000000000000E+007;-8.481232138519950E-001;-1.698400360033175E+002;
8.789500000000000E+007;-8.339895439603771E-001;-1.685632895508168E+002;
8.793000000000000E+007;-8.080125033042210E-001;-1.694318311133692E+002;
8.796500000000000E+007;-8.413266784145383E-001;-1.698232111046433E+002;
8.800000000000000E+007;-8.422889675162657E-001;-1.711384481755794E+002;
