# Version 1.00
#
freq[Hz];db:Trc1_S11;ang:Trc1_S11;
8.100000000000000E+007;-1.056271775244198E+000;-1.533951474206649E+002;
8.103500000000000E+007;-1.103302796419763E+000;-1.559411163661059E+002;
8.107000000000000E+007;-1.102502794358839E+000;-1.569265613089155E+002;
8.110500000000000E+007;-1.129634415874940E+000;-1.569233476199300E+002;
8.114000000000000E+007;-1.127501598988356E+000;-1.566722291571846E+002;
8.117500000000000E+007;-1.131514511266613E+000;-1.568220554695184E+002;
8.121000000000000E+007;-1.204202256813133E+000;-1.593739438782945E+002;
8.124500000000000E+007;-1.154141625819124E+000;-1.584589535960338E+002;
8.128000000000000E+007;-1.209519553588898E+000;-1.595375585930702E+002;
8.131500000000000E+007;-1.268377219694763E+000;-1.605920444405888E+002;
8.135000000000000E+007;-1.202797851054958E+000;-1.587121470087034E+002;
8.138500000000000E+007;-1.207077541183506E+000;-1.598659915555718E+002;
8.142000000000000E+007;-1.233736394987080E+000;-1.609209154827688E+002;
8.145500000000000E+007;-1.242508187816709E+000;-1.602629575161465E+002;
8.149000000000000E+007;-1.364327911739455E+000;-1.634595170702669E+002;
8.152500000000000E+007;-1.377423026629102E+000;-1.644556304046912E+002;
8.156000000000000E+007;-1.473550998385249E+000;-1.658805191530454E+002;
8.159500000000000E+007;-1.428651839886497E+000;-1.650023988858359E+002;
8.163000000000000E+007;-1.502407379469584E+000;-1.665056257456476E+002;
8.166500000000000E+007;-1.455049807278804E+000;-1.659784326335626E+002;
8.170000000000000E+007;-1.589455042401366E+000;-1.685540263617352E+002;
8.173500000000000E+007;-1.583656252538424E+000;-1.675236471410683E+002;
8.177000000000000E+007;-1.663306853111761E+000;-1.700766373788989E+002;
8.180500000000000E+007;-1.663918022188251E+000;-1.682823104240260E+002;
8.184000000000000E+007;-1.711444832869804E+000;-1.705256457337575E+002;
8.187500000000000E+007;-1.801607782250954E+000;-1.722766545066828E+002;
8.191000000000000E+007;-1.913745110801236E+000;-1.733162683235224E+002;
8.194500000000000E+007;-1.965698741645297E+000;-1.736227416485717E+002;
8.198000000000000E+007;-2.055123434011825E+000;-1.749904171705375E+002;
8.201500000000000E+007;-2.094375248603129E+000;-1.752024131610655E+002;
8.205000000000000E+007;-2.215523376644421E+000;-1.774039267018289E+002;
8.208500000000000E+007;-2.328986527639144E+000;-1.772279691566021E+002;
8.212000000000000E+007;-2.420958448843849E+000;-1.790381625886458E+002;
8.215500000000000E+007;-2.607037921543572E+000;1.781635715064254E+002;
8.219000000000000E+007;-2.671652207545917E+000;1.790937508936060E+002;
8.222500000000000E+007;-2.899332098366000E+000;1.760958434361753E+002;
8.226000000000000E+007;-3.053987311882540E+000;1.763819320517732E+002;
8.229500000000000E+007;-3.311308051756783E+000;1.729405993506709E+002;
8.233000000000000E+007;-3.522425467912186E+000;1.719998005430876E+002;
8.236500000000000E+007;-3.842817042789462E+000;1.691025329637200E+002;
8.240000000000000E+007;-4.127063798763800E+000;1.664501272101464E+002;
8.243500000000000E+007;-4.557145911423984E+000;1.638565270640528E+002;
8.247000000000000E+007;-5.004627122126236E+000;1.622633664150603E+002;
8.250500000000000E+007;-5.432271850241304E+000;1.603316058186016E+002;
8.254000000000000E+007;-5.988022798711945E+000;1.557174450700882E+002;
8.257500000000000E+007;-6.704963631634689E+000;1.552219957007946E+002;
8.261000000000000E+007;-7.497705352886160E+000;1.518314670967664E+002;
8.264500000000000E+007;-8.491308120187998E+000;1.498838296105594E+002;
8.268000000000000E+007;-9.717743229962306E+000;1.467767554618914E+002;
8.271500000000000E+007;-1.118915227882560E+001;1.454293905666794E+002;
8.275000000000000E+007;-1.306501328437228E+001;1.428094342143401E+002;
8.278500000000000E+007;-1.571441168392518E+001;1.408473054734675E+002;
8.282000000000000E+007;-1.953745952540972E+001;1.401639577746830E+002;
8.285500000000000E+007;-2.663035228654163E+001;1.606039517300377E+002;
8.289000000000000E+007;-2.883997217388365E+001;-1.163644347799744E+002;
8.292500000000000E+007;-2.110425041718626E+001;-8.285300979927277E+001;
8.296000000000000E+007;-1.677828792506987E+001;-8.022808868967699E+001;
8.299500000000000E+007;-1.410404581949509E+001;-8.161528863600775E+001;
8.303000000000000E+007;-1.189816577584286E+001;-8.368122932657056E+001;
8.306500000000000E+007;-1.004458211679693E+001;-8.524565264601402E+001;
8.310000000000000E+007;-8.971007685122000E+000;-8.979059474370568E+001;
8.313500000000000E+007;-7.803050927344714E+000;-9.028411479820613E+001;
8.317000000000000E+007;-6.963123669760805E+000;-9.232907854052012E+001;
8.320500000000000E+007;-6.268684689708360E+000;-9.710065707473541E+001;
8.324000000000000E+007;-5.695202923252774E+000;-9.882810153573209E+001;
8.327500000000000E+007;-5.183530323843567E+000;-1.033731913100334E+002;
8.331000000000000E+007;-4.671783628315126E+000;-1.045228719416297E+002;
8.334500000000000E+007;-4.332726897803480E+000;-1.056895467770714E+002;
8.338000000000000E+007;-4.020216132711133E+000;-1.111194266445386E+002;
8.341500000000000E+007;-3.743523734617527E+000;-1.114099610463457E+002;
8.345000000000000E+007;-3.443237180975272E+000;-1.124252384006460E+002;
8.348500000000000E+007;-3.156295126811227E+000;-1.135566339183751E+002;
8.352000000000000E+007;-2.972429918059619E+000;-1.152732838826065E+002;
8.355500000000000E+007;-2.810343849442587E+000;-1.173514381649323E+002;
8.359000000000000E+007;-2.640004925567956E+000;-1.189047595204110E+002;
8.362500000000000E+007;-2.461449234279715E+000;-1.195204279726780E+002;
8.366000000000000E+007;-2.426358574866086E+000;-1.219046573666964E+002;
8.369500000000000E+007;-2.230828116033911E+000;-1.222310577100995E+002;
8.373000000000000E+007;-2.099361533962285E+000;-1.228890249230891E+002;
8.376500000000000E+007;-2.089056401564122E+000;-1.259671228401575E+002;
8.380000000000000E+007;-2.030811609337274E+000;-1.275268731731214E+002;
8.383500000000000E+007;-1.878799357406686E+000;-1.266948279915506E+002;
8.387000000000000E+007;-1.858119212016156E+000;-1.276403871034986E+002;
8.390500000000000E+007;-1.782459464854985E+000;-1.283517779021033E+002;
8.394000000000000E+007;-1.790557766128588E+000;-1.324574304113150E+002;
8.397500000000000E+007;-1.699194603646606E+000;-1.316552421872848E+002;
8.401000000000000E+007;-1.615509233863665E+000;-1.315802024774766E+002;
8.404500000000000E+007;-1.572987278883283E+000;-1.316278096874705E+002;
8.408000000000000E+007;-1.478079519582469E+000;-1.322151665921786E+002;
8.411500000000000E+007;-1.478131949392756E+000;-1.331436159587416E+002;
8.415000000000000E+007;-1.474967154340556E+000;-1.352094663174542E+002;
8.418500000000000E+007;-1.425799676778674E+000;-1.353803301210032E+002;
8.422000000000000E+007;-1.430216091480376E+000;-1.369131279060463E+002;
8.425500000000000E+007;-1.396959941041067E+000;-1.370040825331504E+002;
8.429000000000000E+007;-1.301370607626903E+000;-1.361861607458729E+002;
8.432500000000000E+007;-1.309772434834432E+000;-1.376910371278424E+002;
8.436000000000000E+007;-1.279909878719923E+000;-1.391547325209268E+002;
8.439500000000000E+007;-1.220020604058772E+000;-1.383220899925814E+002;
8.443000000000000E+007;-1.286333649742719E+000;-1.405806795538346E+002;
8.446500000000000E+007;-1.208502555637952E+000;-1.403808800730568E+002;
8.450000000000000E+007;-1.249593401071568E+000;-1.407708198194558E+002;
8.453500000000000E+007;-1.244828917692104E+000;-1.425201030159570E+002;
8.457000000000000E+007;-1.146756106325040E+000;-1.420260336051262E+002;
8.460500000000000E+007;-1.170035820808702E+000;-1.420892005486608E+002;
8.464000000000000E+007;-1.157285500672929E+000;-1.425857580227657E+002;
8.467500000000000E+007;-1.128203395809415E+000;-1.441211021665961E+002;
8.471000000000000E+007;-1.168273825965272E+000;-1.447411061502496E+002;
8.474500000000000E+007;-1.145571826077934E+000;-1.443552799436221E+002;
8.478000000000000E+007;-1.099267746632410E+000;-1.458047286009650E+002;
8.481500000000000E+007;-1.084384490990208E+000;-1.457709517654473E+002;
8.485000000000000E+007;-1.066840862058471E+000;-1.462305389184632E+002;
8.488500000000000E+007;-1.083750470593866E+000;-1.467237243620278E+002;
8.492000000000000E+007;-1.079909157900363E+000;-1.467758987141295E+002;
8.495500000000000E+007;-1.074590833716617E+000;-1.471854188183154E+002;
8.499000000000000E+007;-1.050110462251185E+000;-1.467175853675737E+002;
8.502500000000000E+007;-1.061142550314115E+000;-1.486237031766224E+002;
8.506000000000000E+007;-9.787343642712957E-001;-1.470889535940126E+002;
8.509500000000000E+007;-1.024710319860970E+000;-1.485210545566423E+002;
8.513000000000000E+007;-1.042673689923626E+000;-1.493576098950078E+002;
8.516500000000000E+007;-1.032833241297916E+000;-1.493713352244095E+002;
8.520000000000000E+007;-1.001656218206605E+000;-1.500434562365672E+002;
8.523500000000000E+007;-9.797592553230905E-001;-1.498722904773619E+002;
8.527000000000000E+007;-9.611848313763931E-001;-1.500050154301351E+002;
8.530500000000000E+007;-9.711318857722689E-001;-1.499035624771181E+002;
8.534000000000000E+007;-9.481337839942935E-001;-1.497608537125685E+002;
8.537500000000000E+007;-9.652877026707565E-001;-1.519192784631217E+002;
8.541000000000000E+007;-9.527239035993130E-001;-1.509470476126892E+002;
8.544500000000000E+007;-9.640661690823088E-001;-1.518905462779760E+002;
8.548000000000000E+007;-9.294327864081179E-001;-1.514875407331789E+002;
8.551500000000000E+007;-9.377444090771673E-001;-1.514073590814791E+002;
8.555000000000000E+007;-9.336440387442400E-001;-1.527396152991714E+002;
8.558500000000000E+007;-9.637975906317171E-001;-1.535059079618423E+002;
8.562000000000000E+007;-9.688168727374129E-001;-1.532724931239081E+002;
8.565500000000000E+007;-9.569471115146251E-001;-1.536493805865159E+002;
8.569000000000000E+007;-9.159108178621388E-001;-1.537008059793733E+002;
8.572500000000000E+007;-9.530673368701007E-001;-1.549030187778512E+002;
8.576000000000000E+007;-9.314955800357996E-001;-1.549126293722536E+002;
8.579500000000000E+007;-9.234524873475249E-001;-1.547659041351210E+002;
8.583000000000000E+007;-9.137900726733310E-001;-1.558441597819367E+002;
8.586500000000000E+007;-1.007961975704642E+000;-1.568535917167690E+002;
8.590000000000000E+007;-9.275678054336564E-001;-1.551763254069598E+002;
8.593500000000000E+007;-9.135965421471943E-001;-1.546647808821874E+002;
8.597000000000000E+007;-8.690218430571696E-001;-1.555034434452854E+002;
8.600500000000000E+007;-9.387516033540939E-001;-1.569512665132062E+002;
8.604000000000000E+007;-9.443414822967026E-001;-1.571599221033655E+002;
8.607500000000000E+007;-9.034106919954899E-001;-1.572904487458724E+002;
8.611000000000000E+007;-8.533093592045334E-001;-1.561308721468974E+002;
8.614500000000000E+007;-9.118661098370758E-001;-1.568164544618860E+002;
8.618000000000000E+007;-8.774286217229391E-001;-1.575539533099125E+002;
8.621500000000000E+007;-9.323448730622492E-001;-1.585271179831858E+002;
8.625000000000000E+007;-8.583686449384849E-001;-1.587027283829826E+002;
8.628500000000000E+007;-9.185268143528677E-001;-1.590762198961157E+002;
8.632000000000000E+007;-8.476408118932122E-001;-1.572342807198631E+002;
8.635500000000000E+007;-9.265722743997338E-001;-1.599657287449080E+002;
8.639000000000000E+007;-9.075895144679571E-001;-1.595115725393464E+002;
8.642500000000000E+007;-9.083492628366667E-001;-1.597142689442142E+002;
8.646000000000000E+007;-8.997429084731297E-001;-1.607848064428591E+002;
8.649500000000000E+007;-9.054711989376671E-001;-1.607005308765683E+002;
8.653000000000000E+007;-8.681260398616879E-001;-1.606262881808070E+002;
8.656500000000000E+007;-8.854781331809314E-001;-1.605238780228692E+002;
8.660000000000000E+007;-9.285345698332969E-001;-1.627863180269974E+002;
8.663500000000000E+007;-9.266811077874414E-001;-1.630698353548716E+002;
8.667000000000000E+007;-9.383404603147688E-001;-1.632107311888439E+002;
8.670500000000000E+007;-8.275974831544026E-001;-1.604591027653719E+002;
8.674000000000000E+007;-9.128258205117635E-001;-1.622096750131475E+002;
8.677500000000000E+007;-8.249260665570204E-001;-1.614617144595993E+002;
8.681000000000000E+007;-8.753500310600350E-001;-1.625585968544103E+002;
8.684500000000000E+007;-8.682297912835436E-001;-1.633753817461781E+002;
8.688000000000000E+007;-8.628922178872375E-001;-1.626135886544216E+002;
8.691500000000000E+007;-8.457368429220801E-001;-1.625457369558767E+002;
8.695000000000000E+007;-8.800936818908455E-001;-1.635703905105658E+002;
8.698500000000000E+007;-8.785177632761306E-001;-1.642371855997301E+002;
8.702000000000000E+007;-8.586975549787990E-001;-1.644951242539124E+002;
8.705500000000000E+007;-8.906898254672462E-001;-1.653627999271244E+002;
8.709000000000000E+007;-8.742523613227047E-001;-1.646428809285715E+002;
8.712500000000000E+007;-8.845565969922768E-001;-1.653784196872474E+002;
8.716000000000000E+007;-8.943306866354870E-001;-1.655599931850265E+002;
8.719500000000000E+007;-8.801236599215611E-001;-1.651418741548489E+002;
8.723000000000000E+007;-8.598744125518416E-001;-1.650981560842762E+002;
8.726500000000000E+007;-8.597095397556809E-001;-1.654423248773001E+002;
8.730000000000000E+007;-8.963111164167608E-001;-1.672932178168183E+002;
8.733500000000000E+007;-8.154026385899258E-001;-1.647267277811005E+002;
8.737000000000000E+007;-8.844291582543690E-001;-1.666579528179616E+002;
8.740500000000000E+007;-8.247247564834056E-001;-1.662883312586796E+002;
8.744000000000000E+007;-8.713289779821448E-001;-1.667478428816810E+002;
8.747500000000000E+007;-8.485529314827336E-001;-1.678299590488614E+002;
8.751000000000000E+007;-8.341751025165086E-001;-1.661397450393003E+002;
8.754500000000000E+007;-8.905345417920643E-001;-1.678908119443953E+002;
8.758000000000000E+007;-8.117202636330474E-001;-1.663551180235706E+002;
8.761500000000000E+007;-8.931709157080521E-001;-1.684333463269375E+002;
8.765000000000000E+007;-8.372842329286621E-001;-1.674620287504500E+002;
8.768500000000000E+007;-8.831158502639638E-001;-1.692784207702940E+002;
8.772000000000000E+007;-8.358124004642633E-001;-1.684384047419877E+002;
8.775500000000000E+007;-8.600151143339738E-001;-1.689046621170132E+002;
8.779000000000000E+007;-8.501093730643561E-001;-1.679091598300079E+002;
8.782500000000000E+007;-8.644047673165198E-001;-1.690680075368265E+002;
8.786000000000000E+007;-8.614894446106806E-001;-1.697311078680254E+002;
8.789500000000000E+007;-8.316573767170739E-001;-1.688290246741673E+002;
8.793000000000000E+007;-8.696231112246579E-001;-1.706640639768100E+002;
8.796500000000000E+007;-8.294879494345168E-001;-1.699109993761742E+002;
8.800000000000000E+007;-8.459454139108190E-001;-1.701181195325418E+002;
