# Version 1.00
#
freq[Hz];db:Trc1_S11;ang:Trc1_S11;
8.100000000000000E+007;-1.876160900914041E+000;-1.691863693715449E+002;
8.103500000000000E+007;-1.937881444541676E+000;-1.698837764645625E+002;
8.107000000000000E+007;-2.025476029111652E+000;-1.719205396079219E+002;
8.110500000000000E+007;-2.123832302090526E+000;-1.730024332932865E+002;
8.114000000000000E+007;-2.178106878596180E+000;-1.748500762853223E+002;
8.117500000000000E+007;-2.237075809064508E+000;-1.730719302984166E+002;
8.121000000000000E+007;-2.332259648031455E+000;-1.751491904407164E+002;
8.124500000000000E+007;-2.515028663956284E+000;-1.773884041046577E+002;
8.128000000000000E+007;-2.599772537919570E+000;-1.786011246004839E+002;
8.131500000000000E+007;-2.800215552428577E+000;1.792533472415495E+002;
8.135000000000000E+007;-2.948894315496607E+000;1.789469440632395E+002;
8.138500000000000E+007;-3.172382984889327E+000;1.762902784293291E+002;
8.142000000000000E+007;-3.409701757600785E+000;1.742711140020759E+002;
8.145500000000000E+007;-3.614534488657903E+000;1.730155631891444E+002;
8.149000000000000E+007;-3.938012745288918E+000;1.699306432247863E+002;
8.152500000000000E+007;-4.277113999636650E+000;1.673158557806849E+002;
8.156000000000000E+007;-4.563757549633362E+000;1.669890701193380E+002;
8.159500000000000E+007;-5.090253999963751E+000;1.622113289280256E+002;
8.163000000000000E+007;-5.619415191707661E+000;1.595746248368384E+002;
8.166500000000000E+007;-6.146792577626920E+000;1.585516684196446E+002;
8.170000000000000E+007;-6.818827984619200E+000;1.553300548256830E+002;
8.173500000000000E+007;-7.596327201967434E+000;1.515213857978824E+002;
8.177000000000000E+007;-8.503802687184122E+000;1.477251853819451E+002;
8.180500000000000E+007;-9.806524509753292E+000;1.449025777963843E+002;
8.184000000000000E+007;-1.118224276279072E+001;1.416070856217266E+002;
8.187500000000000E+007;-1.303224047557130E+001;1.355267870882983E+002;
8.191000000000000E+007;-1.529570193133324E+001;1.344625728207582E+002;
8.194500000000000E+007;-1.900539316076092E+001;1.238318582879726E+002;
8.198000000000000E+007;-2.491723962510719E+001;1.191892302940222E+002;
8.201500000000000E+007;-4.235344543444075E+001;2.910311902695169E+001;
8.205000000000000E+007;-2.318464690748996E+001;-5.134139402771820E+001;
8.208500000000000E+007;-1.820277905852262E+001;-6.076907551177278E+001;
8.212000000000000E+007;-1.476539890823018E+001;-6.626289757049486E+001;
8.215500000000000E+007;-1.256447981290318E+001;-6.942343540742597E+001;
8.219000000000000E+007;-1.082693026368106E+001;-7.311736517215599E+001;
8.222500000000000E+007;-9.396972375328328E+000;-7.678597379747242E+001;
8.226000000000000E+007;-8.287071688839761E+000;-8.017028345284605E+001;
8.229500000000000E+007;-7.495262743521784E+000;-8.332795284099110E+001;
8.233000000000000E+007;-6.716867797539042E+000;-8.717801395545810E+001;
8.236500000000000E+007;-5.981570791222334E+000;-8.935174602213613E+001;
8.240000000000000E+007;-5.491906669888193E+000;-9.436840547528544E+001;
8.243500000000000E+007;-4.914741599200733E+000;-9.557424949584365E+001;
8.247000000000000E+007;-4.548516871657721E+000;-9.790587386388138E+001;
8.250500000000000E+007;-4.204588236763944E+000;-1.004665106192647E+002;
8.254000000000000E+007;-3.825134820631860E+000;-1.006209155114567E+002;
8.257500000000000E+007;-3.584885905265485E+000;-1.040611529525339E+002;
8.261000000000000E+007;-3.361317121743977E+000;-1.069964695962227E+002;
8.264500000000000E+007;-3.109183315823761E+000;-1.081006259966695E+002;
8.268000000000000E+007;-2.971433327841783E+000;-1.094415339892216E+002;
8.271500000000000E+007;-2.776154223442193E+000;-1.126558841044479E+002;
8.275000000000000E+007;-2.712572290748727E+000;-1.142373754354850E+002;
8.278500000000000E+007;-2.528421701104874E+000;-1.144454396357907E+002;
8.282000000000000E+007;-2.384299503784407E+000;-1.156079430698656E+002;
8.285500000000000E+007;-2.287642288473860E+000;-1.172854020214992E+002;
8.289000000000000E+007;-2.169820140620415E+000;-1.176552316829523E+002;
8.292500000000000E+007;-2.061743079357493E+000;-1.181071042149816E+002;
8.296000000000000E+007;-2.016604506013265E+000;-1.213251429420241E+002;
8.299500000000000E+007;-1.868006226321620E+000;-1.218161089641040E+002;
8.303000000000000E+007;-1.831009289966998E+000;-1.228362241752245E+002;
8.306500000000000E+007;-1.822260493945187E+000;-1.242761620729499E+002;
8.310000000000000E+007;-1.812867795329267E+000;-1.262754840630012E+002;
8.313500000000000E+007;-1.719559572307337E+000;-1.263811179688371E+002;
8.317000000000000E+007;-1.558725035039185E+000;-1.256357548960462E+002;
8.320500000000000E+007;-1.628927499919269E+000;-1.287980855733901E+002;
8.324000000000000E+007;-1.532059598972080E+000;-1.280927860421613E+002;
8.327500000000000E+007;-1.544551152774781E+000;-1.305517765379935E+002;
8.331000000000000E+007;-1.483851187001421E+000;-1.297462640442690E+002;
8.334500000000000E+007;-1.414637007656062E+000;-1.297433976847382E+002;
8.338000000000000E+007;-1.388850516348402E+000;-1.309270546903187E+002;
8.341500000000000E+007;-1.376407107235514E+000;-1.323398505392392E+002;
8.345000000000000E+007;-1.349027667207578E+000;-1.329663998294418E+002;
8.348500000000000E+007;-1.327124524889833E+000;-1.333788383012474E+002;
8.352000000000000E+007;-1.324419903640949E+000;-1.346689470937534E+002;
8.355500000000000E+007;-1.264731107610877E+000;-1.334440930528871E+002;
8.359000000000000E+007;-1.298194176643239E+000;-1.367803462700902E+002;
8.362500000000000E+007;-1.238434860996407E+000;-1.351283343256330E+002;
8.366000000000000E+007;-1.279447777743177E+000;-1.380150562852152E+002;
8.369500000000000E+007;-1.239423241521810E+000;-1.373345556909371E+002;
8.373000000000000E+007;-1.247810150731949E+000;-1.382666726802432E+002;
8.376500000000000E+007;-1.175168428662759E+000;-1.372434913059233E+002;
8.380000000000000E+007;-1.112965996031802E+000;-1.370258894711585E+002;
8.383500000000000E+007;-1.162666155547266E+000;-1.385126474309159E+002;
8.387000000000000E+007;-1.184959058844280E+000;-1.399789438014898E+002;
8.390500000000000E+007;-1.110377760685368E+000;-1.398627934507541E+002;
8.394000000000000E+007;-1.092434284303126E+000;-1.394862842182614E+002;
8.397500000000000E+007;-1.089374206138938E+000;-1.403732990056285E+002;
8.401000000000000E+007;-1.070443654164468E+000;-1.397019502056914E+002;
8.404500000000000E+007;-1.044298483017862E+000;-1.408904978484248E+002;
8.408000000000000E+007;-1.069553513230189E+000;-1.423051732594403E+002;
8.411500000000000E+007;-1.034908777938527E+000;-1.415652301487161E+002;
8.415000000000000E+007;-1.055659881503880E+000;-1.433540759573777E+002;
8.418500000000000E+007;-1.111900710809589E+000;-1.437114155907057E+002;
8.422000000000000E+007;-1.046492939073751E+000;-1.432839924375553E+002;
8.425500000000000E+007;-9.928119731162002E-001;-1.429492479835645E+002;
8.429000000000000E+007;-1.017649080394411E+000;-1.440786785404979E+002;
8.432500000000000E+007;-1.004766517918078E+000;-1.447511970762064E+002;
8.436000000000000E+007;-1.050547958406361E+000;-1.452170872323916E+002;
8.439500000000000E+007;-1.018097861242443E+000;-1.452437226441010E+002;
8.443000000000000E+007;-9.615133578979355E-001;-1.447402437174866E+002;
8.446500000000000E+007;-9.920457190132797E-001;-1.469558644227391E+002;
8.450000000000000E+007;-9.161716884250816E-001;-1.448526549575443E+002;
8.453500000000000E+007;-9.715369623633084E-001;-1.471832895175377E+002;
8.457000000000000E+007;-1.024194385426656E+000;-1.489320944776781E+002;
8.460500000000000E+007;-9.923506362726946E-001;-1.474879941374854E+002;
8.464000000000000E+007;-9.433681586021893E-001;-1.472343247608340E+002;
8.467500000000000E+007;-9.553875762552647E-001;-1.471940620500731E+002;
8.471000000000000E+007;-9.522027319682916E-001;-1.482789143743833E+002;
8.474500000000000E+007;-9.756555803291170E-001;-1.497811851742422E+002;
8.478000000000000E+007;-9.605758391501168E-001;-1.485645320927392E+002;
8.481500000000000E+007;-9.917365990298236E-001;-1.506477657385113E+002;
8.485000000000000E+007;-9.107285201483990E-001;-1.492073279889615E+002;
8.488500000000000E+007;-8.990614308686307E-001;-1.482634745198905E+002;
8.492000000000000E+007;-9.598890656285147E-001;-1.504166895973405E+002;
8.495500000000000E+007;-9.278161290744478E-001;-1.502014974996046E+002;
8.499000000000000E+007;-9.378672252639843E-001;-1.502958254894477E+002;
8.502500000000000E+007;-9.318219644784362E-001;-1.511872151086164E+002;
8.506000000000000E+007;-8.655273973511881E-001;-1.504920434800119E+002;
8.509500000000000E+007;-8.938355141918671E-001;-1.506535072549742E+002;
8.513000000000000E+007;-9.393462099128618E-001;-1.526611142009139E+002;
8.516500000000000E+007;-8.916156477809594E-001;-1.523272349301936E+002;
8.520000000000000E+007;-9.047037503305129E-001;-1.527989926094373E+002;
8.523500000000000E+007;-9.033807969170498E-001;-1.528856739893238E+002;
8.527000000000000E+007;-9.175700302103996E-001;-1.530193207607974E+002;
8.530500000000000E+007;-9.347937398648045E-001;-1.537369127119405E+002;
8.534000000000000E+007;-8.997960454548559E-001;-1.540875078627856E+002;
8.537500000000000E+007;-8.548699461047549E-001;-1.531957958401191E+002;
8.541000000000000E+007;-9.426254594154770E-001;-1.550502590062514E+002;
8.544500000000000E+007;-8.392893808226888E-001;-1.525644237718830E+002;
8.548000000000000E+007;-8.894210651702820E-001;-1.551801548816407E+002;
8.551500000000000E+007;-8.992033853155569E-001;-1.545671387511117E+002;
8.555000000000000E+007;-9.254391005462853E-001;-1.564313840271709E+002;
8.558500000000000E+007;-9.059769429587069E-001;-1.557569083278921E+002;
8.562000000000000E+007;-9.241168176807324E-001;-1.562775371194190E+002;
8.565500000000000E+007;-8.903237474637837E-001;-1.559602229329718E+002;
8.569000000000000E+007;-9.186130824156200E-001;-1.564160578331222E+002;
8.572500000000000E+007;-8.162345893303717E-001;-1.552852866961820E+002;
8.576000000000000E+007;-9.124529685902101E-001;-1.577230422830890E+002;
8.579500000000000E+007;-8.907543926321334E-001;-1.576272558892825E+002;
8.583000000000000E+007;-8.919964395789746E-001;-1.576253282261850E+002;
8.586500000000000E+007;-9.011862421092938E-001;-1.579942145154102E+002;
8.590000000000000E+007;-8.587312285441479E-001;-1.565459597721269E+002;
8.593500000000000E+007;-8.639464168922498E-001;-1.575983165426783E+002;
8.597000000000000E+007;-9.299438559083864E-001;-1.590224106270142E+002;
8.600500000000000E+007;-8.687812614713836E-001;-1.580120274738394E+002;
8.604000000000000E+007;-8.831495862846810E-001;-1.593710312069008E+002;
8.607500000000000E+007;-9.329663290307910E-001;-1.597757240765874E+002;
8.611000000000000E+007;-8.756622960790611E-001;-1.603576164826404E+002;
8.614500000000000E+007;-8.650229150582027E-001;-1.591385246640504E+002;
8.618000000000000E+007;-8.776261985635513E-001;-1.591995062732733E+002;
8.621500000000000E+007;-8.208864033890650E-001;-1.585027264079752E+002;
8.625000000000000E+007;-8.295662425853437E-001;-1.587668091774033E+002;
8.628500000000000E+007;-8.645648211779841E-001;-1.596100347306320E+002;
8.632000000000000E+007;-8.144274206065504E-001;-1.594192594587428E+002;
8.635500000000000E+007;-8.941225199867987E-001;-1.612846187464256E+002;
8.639000000000000E+007;-8.267190242323063E-001;-1.600787376720624E+002;
8.642500000000000E+007;-7.737380696066741E-001;-1.585229842696392E+002;
8.646000000000000E+007;-8.494372286366819E-001;-1.609521263100471E+002;
8.649500000000000E+007;-8.981972055481887E-001;-1.626766726489719E+002;
8.653000000000000E+007;-8.566080728581828E-001;-1.618859770349539E+002;
8.656500000000000E+007;-8.337816211958401E-001;-1.607126853185719E+002;
8.660000000000000E+007;-9.225679057235889E-001;-1.640618446007105E+002;
8.663500000000000E+007;-8.750100038620921E-001;-1.636999910340507E+002;
8.667000000000000E+007;-8.414940885503733E-001;-1.627492829414941E+002;
8.670500000000000E+007;-8.321588238579473E-001;-1.626568048998042E+002;
8.674000000000000E+007;-8.150707228378807E-001;-1.627710795570538E+002;
8.677500000000000E+007;-8.497072561991219E-001;-1.633647262675299E+002;
8.681000000000000E+007;-8.531125460654245E-001;-1.645788977672316E+002;
8.684500000000000E+007;-8.208889190893843E-001;-1.638804863355575E+002;
8.688000000000000E+007;-8.859600281592819E-001;-1.646842924672805E+002;
8.691500000000000E+007;-8.806452306805247E-001;-1.653126119014065E+002;
8.695000000000000E+007;-8.587547283107324E-001;-1.655012526439450E+002;
8.698500000000000E+007;-8.755147878973441E-001;-1.651863884969774E+002;
8.702000000000000E+007;-7.976363803603224E-001;-1.642707657949200E+002;
8.705500000000000E+007;-8.355602577583209E-001;-1.649373799156742E+002;
8.709000000000000E+007;-8.762122312478252E-001;-1.656652721945241E+002;
8.712500000000000E+007;-8.625451756435999E-001;-1.662266689271256E+002;
8.716000000000000E+007;-8.173714118641405E-001;-1.654848757313562E+002;
8.719500000000000E+007;-7.957929957346012E-001;-1.649260937300365E+002;
8.723000000000000E+007;-8.412047924860554E-001;-1.661856934536212E+002;
8.726500000000000E+007;-8.627043680937797E-001;-1.671727160723477E+002;
8.730000000000000E+007;-7.850736136661360E-001;-1.647329874153107E+002;
8.733500000000000E+007;-8.297975819013400E-001;-1.654812287670999E+002;
8.737000000000000E+007;-8.561446721852480E-001;-1.670310187004933E+002;
8.740500000000000E+007;-8.279413963525474E-001;-1.686702832218746E+002;
8.744000000000000E+007;-8.585746294999621E-001;-1.689911082681599E+002;
8.747500000000000E+007;-8.368355317059253E-001;-1.676975353073973E+002;
8.751000000000000E+007;-8.316482269803655E-001;-1.669466023438470E+002;
8.754500000000000E+007;-8.563435494652074E-001;-1.687520448795745E+002;
8.758000000000000E+007;-8.422819345147304E-001;-1.679866987631297E+002;
8.761500000000000E+007;-8.295759801169538E-001;-1.676684897764079E+002;
8.765000000000000E+007;-8.132608715549676E-001;-1.680106312396881E+002;
8.768500000000000E+007;-8.486271002025491E-001;-1.688877227934254E+002;
8.772000000000000E+007;-8.280862673750962E-001;-1.694981938274550E+002;
8.775500000000000E+007;-8.183052106012959E-001;-1.688659988848549E+002;
8.779000000000000E+007;-7.782884958694828E-001;-1.686114348610239E+002;
8.782500000000000E+007;-8.405455011937059E-001;-1.699798590894012E+002;
8.786000000000000E+007;-8.040534725207116E-001;-1.701813238480920E+002;
8.789500000000000E+007;-8.205536827876442E-001;-1.699572225307634E+002;
8.793000000000000E+007;-8.442837013347402E-001;-1.703138441394000E+002;
8.796500000000000E+007;-8.082759785983592E-001;-1.699349448307735E+002;
8.800000000000000E+007;-8.722744750830065E-001;-1.722773187123026E+002;
