# Version 1.00
#
freq[Hz];db:Trc1_S11;ang:Trc1_S11;
8.100000000000000E+007;-9.057432742044831E-001;-1.474174115949284E+002;
8.103500000000000E+007;-8.574528466605301E-001;-1.474284265667383E+002;
8.107000000000000E+007;-8.843388731251021E-001;-1.480660414476951E+002;
8.110500000000000E+007;-8.704040618593639E-001;-1.468393088688975E+002;
8.114000000000000E+007;-8.888636956083409E-001;-1.483431305259373E+002;
8.117500000000000E+007;-8.337123754104031E-001;-1.477459107890787E+002;
8.121000000000000E+007;-9.106790350115310E-001;-1.494139814651276E+002;
8.124500000000000E+007;-8.825403965161132E-001;-1.482799051438431E+002;
8.128000000000000E+007;-8.601562752368600E-001;-1.487312222894638E+002;
8.131500000000000E+007;-9.348899548933225E-001;-1.499258538262898E+002;
8.135000000000000E+007;-8.729588365821532E-001;-1.492614761948391E+002;
8.138500000000000E+007;-8.882480381731471E-001;-1.498321587611798E+002;
8.142000000000000E+007;-9.197238619911008E-001;-1.504716079525779E+002;
8.145500000000000E+007;-8.811771093991683E-001;-1.501087589782768E+002;
8.149000000000000E+007;-9.237932630519103E-001;-1.520768617550276E+002;
8.152500000000000E+007;-9.171639252478270E-001;-1.512875879219466E+002;
8.156000000000000E+007;-8.829643057196276E-001;-1.497866899063423E+002;
8.159500000000000E+007;-8.970287352469252E-001;-1.507229786781588E+002;
8.163000000000000E+007;-8.931536756657175E-001;-1.511248120931873E+002;
8.166500000000000E+007;-9.417484363966066E-001;-1.532141811148640E+002;
8.170000000000000E+007;-9.354990691216002E-001;-1.517373647314787E+002;
8.173500000000000E+007;-9.164636045972158E-001;-1.536795057884825E+002;
8.177000000000000E+007;-9.117734569746215E-001;-1.524396233282754E+002;
8.180500000000000E+007;-8.588374723384077E-001;-1.518871140635203E+002;
8.184000000000000E+007;-1.014151130228609E+000;-1.560257171781683E+002;
8.187500000000000E+007;-9.343653060640429E-001;-1.535259989112542E+002;
8.191000000000000E+007;-9.402892193506099E-001;-1.540203803178095E+002;
8.194500000000000E+007;-9.458977964222818E-001;-1.536226130385305E+002;
8.198000000000000E+007;-9.993751151625121E-001;-1.564835028677302E+002;
8.201500000000000E+007;-1.012700843958269E+000;-1.570448249060444E+002;
8.205000000000000E+007;-9.716821407574704E-001;-1.559156468998480E+002;
8.208500000000000E+007;-9.597351200486121E-001;-1.553910490363221E+002;
8.212000000000000E+007;-9.277606498267648E-001;-1.558146505947294E+002;
8.215500000000000E+007;-9.395561825022916E-001;-1.555211447631260E+002;
8.219000000000000E+007;-9.843684057942319E-001;-1.566846363101135E+002;
8.222500000000000E+007;-9.725280096490745E-001;-1.565133862061416E+002;
8.226000000000000E+007;-1.019548059689352E+000;-1.585527112606003E+002;
8.229500000000000E+007;-1.027487345475336E+000;-1.584876117697904E+002;
8.233000000000000E+007;-9.831569531245566E-001;-1.573817374641484E+002;
8.236500000000000E+007;-1.030848617723853E+000;-1.582501161031901E+002;
8.240000000000000E+007;-9.821167418070006E-001;-1.574470091117828E+002;
8.243500000000000E+007;-1.099712946529603E+000;-1.621466243508954E+002;
8.247000000000000E+007;-1.055112250315153E+000;-1.602588372639570E+002;
8.250500000000000E+007;-1.030579645544531E+000;-1.602878416781535E+002;
8.254000000000000E+007;-1.105066586169543E+000;-1.620036781628526E+002;
8.257500000000000E+007;-1.122899224403026E+000;-1.620688548131799E+002;
8.261000000000000E+007;-1.134815189364323E+000;-1.619545243567612E+002;
8.264500000000000E+007;-1.136635836917034E+000;-1.645417909981674E+002;
8.268000000000000E+007;-1.129033234608434E+000;-1.622405151811135E+002;
8.271500000000000E+007;-1.155371639611784E+000;-1.632269696339687E+002;
8.275000000000000E+007;-1.203845005185358E+000;-1.645945485062127E+002;
8.278500000000000E+007;-1.157530989500412E+000;-1.643102108317037E+002;
8.282000000000000E+007;-1.214345980573591E+000;-1.659518629639844E+002;
8.285500000000000E+007;-1.206089293371610E+000;-1.646004408596162E+002;
8.289000000000000E+007;-1.250939558060019E+000;-1.668987203950423E+002;
8.292500000000000E+007;-1.261271743244107E+000;-1.668525914125180E+002;
8.296000000000000E+007;-1.318729708857392E+000;-1.671222035249915E+002;
8.299500000000000E+007;-1.307543341972960E+000;-1.678081621175149E+002;
8.303000000000000E+007;-1.361105497257434E+000;-1.689652203739351E+002;
8.306500000000000E+007;-1.310431099861184E+000;-1.678880627414145E+002;
8.310000000000000E+007;-1.413598453871837E+000;-1.710900235926603E+002;
8.313500000000000E+007;-1.391029204944063E+000;-1.696248506550402E+002;
8.317000000000000E+007;-1.554725230446115E+000;-1.738509075856649E+002;
8.320500000000000E+007;-1.489242107376128E+000;-1.723105291812597E+002;
8.324000000000000E+007;-1.573611713579425E+000;-1.741603706687872E+002;
8.327500000000000E+007;-1.541915652526110E+000;-1.736090144463216E+002;
8.331000000000000E+007;-1.668294377824347E+000;-1.750858409191011E+002;
8.334500000000000E+007;-1.659452917008857E+000;-1.747749326430828E+002;
8.338000000000000E+007;-1.780399207086873E+000;-1.760755069392912E+002;
8.341500000000000E+007;-1.848303139977224E+000;-1.777493221411861E+002;
8.345000000000000E+007;-1.854269038262898E+000;-1.778085874294206E+002;
8.348500000000000E+007;-1.971071595094900E+000;1.797647216057973E+002;
8.352000000000000E+007;-2.060032254719092E+000;1.788635262970855E+002;
8.355500000000000E+007;-2.166619741474979E+000;1.770649161870207E+002;
8.359000000000000E+007;-2.209483057121316E+000;1.780694759582983E+002;
8.362500000000000E+007;-2.314243986086478E+000;1.761716237734811E+002;
8.366000000000000E+007;-2.408811031016048E+000;1.764661201065249E+002;
8.369500000000000E+007;-2.555983714089835E+000;1.748772605909516E+002;
8.373000000000000E+007;-2.741587318356038E+000;1.714538818042678E+002;
8.376500000000000E+007;-2.850998335447033E+000;1.715948862018479E+002;
8.380000000000000E+007;-3.105135672045936E+000;1.688974994821867E+002;
8.383500000000000E+007;-3.335098177469348E+000;1.657272853051861E+002;
8.387000000000000E+007;-3.564108795271892E+000;1.645646144258126E+002;
8.390500000000000E+007;-3.792684095458658E+000;1.642679230059973E+002;
8.394000000000000E+007;-4.113200697445078E+000;1.615385139235486E+002;
8.397500000000000E+007;-4.549995198137026E+000;1.594005454208628E+002;
8.401000000000000E+007;-4.877584286034534E+000;1.576004721146016E+002;
8.404500000000000E+007;-5.367492212769519E+000;1.544283259647326E+002;
8.408000000000000E+007;-5.989518707673101E+000;1.519287156283023E+002;
8.411500000000000E+007;-6.615962400642176E+000;1.494431191854250E+002;
8.415000000000000E+007;-7.386102609919934E+000;1.479708938511082E+002;
8.418500000000000E+007;-8.318017110018722E+000;1.452994844900073E+002;
8.422000000000000E+007;-9.415179953608121E+000;1.411165494627620E+002;
8.425500000000000E+007;-1.089487584661843E+001;1.404779943581161E+002;
8.429000000000000E+007;-1.263876141895512E+001;1.385504009315656E+002;
8.432500000000000E+007;-1.494150008412575E+001;1.370476929864717E+002;
8.436000000000000E+007;-1.834356372487397E+001;1.405005206492608E+002;
8.439500000000000E+007;-2.352430432885243E+001;1.513442837738439E+002;
8.443000000000000E+007;-2.858974170836801E+001;-1.501985417504280E+002;
8.446500000000000E+007;-2.263565843790190E+001;-1.017768474996190E+002;
8.450000000000000E+007;-1.753176797929045E+001;-9.291640844427485E+001;
8.453500000000000E+007;-1.455616990095550E+001;-8.980482826153987E+001;
8.457000000000000E+007;-1.214083367359310E+001;-9.113675560267707E+001;
8.460500000000000E+007;-1.055548518774674E+001;-9.352779281310058E+001;
8.464000000000000E+007;-9.141193443182848E+000;-9.470020532752415E+001;
8.467500000000000E+007;-8.211234062303138E+000;-9.894928036734778E+001;
8.471000000000000E+007;-7.207255542237790E+000;-9.904561746601149E+001;
8.474500000000000E+007;-6.440262504805491E+000;-1.022959817205059E+002;
8.478000000000000E+007;-5.809587187296651E+000;-1.048090514696155E+002;
8.481500000000000E+007;-5.338392551667305E+000;-1.076275042095097E+002;
8.485000000000000E+007;-4.803909073070452E+000;-1.105405002332159E+002;
8.488500000000000E+007;-4.430811671322348E+000;-1.130219217394696E+002;
8.492000000000000E+007;-4.079543378290446E+000;-1.141198717132434E+002;
8.495500000000000E+007;-3.785089742810893E+000;-1.167753836104865E+002;
8.499000000000000E+007;-3.539490152598135E+000;-1.197205072023741E+002;
8.502500000000000E+007;-3.241677483494660E+000;-1.205282400540468E+002;
8.506000000000000E+007;-3.086516363310449E+000;-1.229420303690088E+002;
8.509500000000000E+007;-2.925835174804264E+000;-1.240687421289800E+002;
8.513000000000000E+007;-2.716136020240595E+000;-1.242160391725022E+002;
8.516500000000000E+007;-2.619025469861097E+000;-1.268648922528368E+002;
8.520000000000000E+007;-2.396876319214389E+000;-1.279871798296738E+002;
8.523500000000000E+007;-2.347990273086070E+000;-1.296781950064616E+002;
8.527000000000000E+007;-2.220168538184419E+000;-1.303790226902545E+002;
8.530500000000000E+007;-2.108549108145680E+000;-1.310049985205444E+002;
8.534000000000000E+007;-2.027587700744681E+000;-1.317953732457613E+002;
8.537500000000000E+007;-1.902067368536396E+000;-1.328375110301485E+002;
8.541000000000000E+007;-1.902932302266570E+000;-1.357140214021444E+002;
8.544500000000000E+007;-1.822288942334029E+000;-1.365531722666759E+002;
8.548000000000000E+007;-1.655752698078428E+000;-1.338901106040972E+002;
8.551500000000000E+007;-1.711911781053545E+000;-1.372018920855051E+002;
8.555000000000000E+007;-1.653809737482928E+000;-1.395730946095698E+002;
8.558500000000000E+007;-1.660879612292964E+000;-1.404647827838885E+002;
8.562000000000000E+007;-1.531334148755243E+000;-1.383342458634752E+002;
8.565500000000000E+007;-1.519178760895245E+000;-1.408742460654503E+002;
8.569000000000000E+007;-1.488436352067798E+000;-1.400935549244780E+002;
8.572500000000000E+007;-1.464270323869603E+000;-1.413960412456574E+002;
8.576000000000000E+007;-1.441140659473136E+000;-1.427148604544194E+002;
8.579500000000000E+007;-1.365857438759687E+000;-1.424617144068754E+002;
8.583000000000000E+007;-1.400196704780258E+000;-1.451665710552632E+002;
8.586500000000000E+007;-1.377888851119782E+000;-1.442217199387500E+002;
8.590000000000000E+007;-1.300633792347624E+000;-1.444014307454611E+002;
8.593500000000000E+007;-1.328763218397066E+000;-1.466417147729123E+002;
8.597000000000000E+007;-1.284638904189460E+000;-1.463668923924657E+002;
8.600500000000000E+007;-1.294241426830135E+000;-1.475581572943195E+002;
8.604000000000000E+007;-1.268612482523493E+000;-1.478599926384621E+002;
8.607500000000000E+007;-1.217363810748293E+000;-1.481349702159357E+002;
8.611000000000000E+007;-1.202037621145611E+000;-1.485312306507578E+002;
8.614500000000000E+007;-1.183426716552855E+000;-1.491681770298926E+002;
8.618000000000000E+007;-1.190164066329420E+000;-1.505631262388162E+002;
8.621500000000000E+007;-1.156205938598018E+000;-1.495239384925316E+002;
8.625000000000000E+007;-1.182547303805658E+000;-1.498965630696514E+002;
8.628500000000000E+007;-1.136161407428863E+000;-1.499569956862365E+002;
8.632000000000000E+007;-1.080041412466231E+000;-1.505923029001357E+002;
8.635500000000000E+007;-1.133358304845089E+000;-1.506045641837543E+002;
8.639000000000000E+007;-1.096745344275464E+000;-1.515187627790886E+002;
8.642500000000000E+007;-1.029421781412364E+000;-1.508587431432857E+002;
8.646000000000000E+007;-1.085367594492396E+000;-1.526231965238559E+002;
8.649500000000000E+007;-1.053697168187612E+000;-1.533527358435358E+002;
8.653000000000000E+007;-1.056215322778460E+000;-1.533186356613291E+002;
8.656500000000000E+007;-1.048172885246274E+000;-1.540030046051524E+002;
8.660000000000000E+007;-9.938721515743217E-001;-1.525216039143547E+002;
8.663500000000000E+007;-1.065334935851322E+000;-1.538604771881610E+002;
8.667000000000000E+007;-1.050473263263293E+000;-1.546685319148133E+002;
8.670500000000000E+007;-1.037769865310775E+000;-1.567191100971913E+002;
8.674000000000000E+007;-9.998843079819315E-001;-1.551179773600854E+002;
8.677500000000000E+007;-1.085014339661504E+000;-1.580925013869979E+002;
8.681000000000000E+007;-9.854387054956383E-001;-1.556725275761951E+002;
8.684500000000000E+007;-9.241305860280972E-001;-1.548896285684963E+002;
8.688000000000000E+007;-9.996439703809650E-001;-1.564093395054417E+002;
8.691500000000000E+007;-9.437663184309532E-001;-1.559614995263003E+002;
8.695000000000000E+007;-9.561757451139855E-001;-1.569947024079993E+002;
8.698500000000000E+007;-9.697570266734825E-001;-1.580599732033158E+002;
8.702000000000000E+007;-9.967759631091278E-001;-1.582458406055283E+002;
8.705500000000000E+007;-9.556935288522853E-001;-1.587120407119309E+002;
8.709000000000000E+007;-9.232985791401989E-001;-1.576948677267167E+002;
8.712500000000000E+007;-9.530523845915447E-001;-1.586864543361432E+002;
8.716000000000000E+007;-9.720918913300691E-001;-1.592681224305182E+002;
8.719500000000000E+007;-9.593129978981706E-001;-1.593054135680677E+002;
8.723000000000000E+007;-8.961591847781792E-001;-1.592849268839471E+002;
8.726500000000000E+007;-9.320518400959257E-001;-1.597841419218599E+002;
8.730000000000000E+007;-9.684810643223654E-001;-1.617623159873174E+002;
8.733500000000000E+007;-9.208342471730507E-001;-1.605683650597888E+002;
8.737000000000000E+007;-9.344563378621401E-001;-1.616455254833173E+002;
8.740500000000000E+007;-9.850746182770559E-001;-1.616967861654078E+002;
8.744000000000000E+007;-9.205079912187621E-001;-1.626461510138791E+002;
8.747500000000000E+007;-9.079458960154048E-001;-1.612037976481214E+002;
8.751000000000000E+007;-9.560789698644977E-001;-1.628452314530997E+002;
8.754500000000000E+007;-8.980932529846295E-001;-1.619613985316230E+002;
8.758000000000000E+007;-9.557062060019090E-001;-1.643612144449451E+002;
8.761500000000000E+007;-8.622947437339781E-001;-1.621617000853231E+002;
8.765000000000000E+007;-8.618716360268494E-001;-1.624875004091923E+002;
8.768500000000000E+007;-8.945805943877787E-001;-1.631824033049000E+002;
8.772000000000000E+007;-9.246468010627430E-001;-1.639834661993593E+002;
8.775500000000000E+007;-8.936545237123075E-001;-1.636470909429907E+002;
8.779000000000000E+007;-9.019674583259555E-001;-1.645319307202918E+002;
8.782500000000000E+007;-9.027053784561566E-001;-1.651462217674096E+002;
8.786000000000000E+007;-9.344130777297661E-001;-1.666142752522370E+002;
8.789500000000000E+007;-9.208664944315967E-001;-1.658522015367505E+002;
8.793000000000000E+007;-8.397166673637820E-001;-1.634335985842783E+002;
8.796500000000000E+007;-8.960000951112749E-001;-1.660763685533101E+002;
8.800000000000000E+007;-8.992803691852621E-001;-1.659953942139451E+002;
