# Version 1.00
#
freq[Hz];db:Trc1_S11;ang:Trc1_S11;
8.100000000000000E+007;-8.761888038000766E-001;-1.465231549612319E+002;
8.103500000000000E+007;-8.241759131559368E-001;-1.451515463507042E+002;
8.107000000000000E+007;-8.665005704840375E-001;-1.467360145199664E+002;
8.110500000000000E+007;-8.357921140164134E-001;-1.457186864521999E+002;
8.114000000000000E+007;-9.174651746579023E-001;-1.480527082404391E+002;
8.117500000000000E+007;-8.705744261656006E-001;-1.476775079253149E+002;
8.121000000000000E+007;-8.617469462268667E-001;-1.480931032326745E+002;
8.124500000000000E+007;-8.390576395727186E-001;-1.473006974865030E+002;
8.128000000000000E+007;-8.767214305215779E-001;-1.480132788626907E+002;
8.131500000000000E+007;-8.927860090567682E-001;-1.495749196236679E+002;
8.135000000000000E+007;-8.063614133439769E-001;-1.480431593136016E+002;
8.138500000000000E+007;-9.343234543186991E-001;-1.508246386408833E+002;
8.142000000000000E+007;-9.241905431897743E-001;-1.500316942496773E+002;
8.145500000000000E+007;-8.874836103649854E-001;-1.507047389630907E+002;
8.149000000000000E+007;-9.031619921198226E-001;-1.502219748950245E+002;
8.152500000000000E+007;-8.879757500703550E-001;-1.510346663223208E+002;
8.156000000000000E+007;-8.851078318239537E-001;-1.505621556924658E+002;
8.159500000000000E+007;-9.409420776847461E-001;-1.522730389041390E+002;
8.163000000000000E+007;-8.834077316346576E-001;-1.512599194844481E+002;
8.166500000000000E+007;-9.027607271607069E-001;-1.515381185433874E+002;
8.170000000000000E+007;-9.648145521670430E-001;-1.533787622245044E+002;
8.173500000000000E+007;-9.043483304304112E-001;-1.514745381675556E+002;
8.177000000000000E+007;-9.065741115555162E-001;-1.517188726742014E+002;
8.180500000000000E+007;-9.160750350475706E-001;-1.530298237913797E+002;
8.184000000000000E+007;-9.457266756153315E-001;-1.537897456299767E+002;
8.187500000000000E+007;-9.228656175236158E-001;-1.526661092646112E+002;
8.191000000000000E+007;-9.355291200085957E-001;-1.538388311545585E+002;
8.194500000000000E+007;-9.769804807493666E-001;-1.552839548406327E+002;
8.198000000000000E+007;-9.477437064639440E-001;-1.552076128370186E+002;
8.201500000000000E+007;-9.750317370678131E-001;-1.555885781218375E+002;
8.205000000000000E+007;-9.356570362564298E-001;-1.545035644751656E+002;
8.208500000000000E+007;-9.854849175559539E-001;-1.555021833327371E+002;
8.212000000000000E+007;-9.822524642662343E-001;-1.564139273966839E+002;
8.215500000000000E+007;-1.015970365584454E+000;-1.569138557459876E+002;
8.219000000000000E+007;-1.009792362648216E+000;-1.575830385661124E+002;
8.222500000000000E+007;-9.899994331462655E-001;-1.561889335470172E+002;
8.226000000000000E+007;-1.005312442654231E+000;-1.580463192112587E+002;
8.229500000000000E+007;-1.019644113743394E+000;-1.584202089478278E+002;
8.233000000000000E+007;-1.048096259484894E+000;-1.585435631528633E+002;
8.236500000000000E+007;-1.049910062059612E+000;-1.587903093545804E+002;
8.240000000000000E+007;-9.860956926181497E-001;-1.579099187055211E+002;
8.243500000000000E+007;-1.021505182292948E+000;-1.590853534553606E+002;
8.247000000000000E+007;-1.045315331101002E+000;-1.595219587960824E+002;
8.250500000000000E+007;-1.053135723333851E+000;-1.600351785495806E+002;
8.254000000000000E+007;-1.065623531968792E+000;-1.609899659593586E+002;
8.257500000000000E+007;-1.051048941923858E+000;-1.602609742044415E+002;
8.261000000000000E+007;-1.105069775740173E+000;-1.618651795150982E+002;
8.264500000000000E+007;-1.130980075332304E+000;-1.626184800417124E+002;
8.268000000000000E+007;-1.140922308473360E+000;-1.627601651186473E+002;
8.271500000000000E+007;-1.137483935699698E+000;-1.642507590433884E+002;
8.275000000000000E+007;-1.154976734254055E+000;-1.641697409307178E+002;
8.278500000000000E+007;-1.168148957936705E+000;-1.633926622136480E+002;
8.282000000000000E+007;-1.181824829634324E+000;-1.633857759947645E+002;
8.285500000000000E+007;-1.136297012967189E+000;-1.640910236838632E+002;
8.289000000000000E+007;-1.257426549618915E+000;-1.659324840084725E+002;
8.292500000000000E+007;-1.208794716311981E+000;-1.660341194882815E+002;
8.296000000000000E+007;-1.185160641563568E+000;-1.653139467690789E+002;
8.299500000000000E+007;-1.277743187459850E+000;-1.678998195180959E+002;
8.303000000000000E+007;-1.317970964410631E+000;-1.691165283658267E+002;
8.306500000000000E+007;-1.309634005598385E+000;-1.678575444538474E+002;
8.310000000000000E+007;-1.352116162837223E+000;-1.704313334451748E+002;
8.313500000000000E+007;-1.355058099612379E+000;-1.697528127630489E+002;
8.317000000000000E+007;-1.355650896471013E+000;-1.692933957270842E+002;
8.320500000000000E+007;-1.424221553296834E+000;-1.710127909735520E+002;
8.324000000000000E+007;-1.428356080937186E+000;-1.712281653936204E+002;
8.327500000000000E+007;-1.473345054712371E+000;-1.723396853254444E+002;
8.331000000000000E+007;-1.544344693456855E+000;-1.740812085441165E+002;
8.334500000000000E+007;-1.557487620897088E+000;-1.727626978807938E+002;
8.338000000000000E+007;-1.558643322537059E+000;-1.734677953323021E+002;
8.341500000000000E+007;-1.679927452996133E+000;-1.753147254621654E+002;
8.345000000000000E+007;-1.713340383303938E+000;-1.764697591106638E+002;
8.348500000000000E+007;-1.747470075786278E+000;-1.761950993404760E+002;
8.352000000000000E+007;-1.895363289034151E+000;-1.787414941396381E+002;
8.355500000000000E+007;-1.898090977529782E+000;-1.782472853894451E+002;
8.359000000000000E+007;-1.966389496494896E+000;1.799877013239008E+002;
8.362500000000000E+007;-2.102171644512890E+000;1.776877784292258E+002;
8.366000000000000E+007;-2.162117080218295E+000;1.767360890916980E+002;
8.369500000000000E+007;-2.243033754989840E+000;1.760865104168301E+002;
8.373000000000000E+007;-2.379930909997195E+000;1.739791304228421E+002;
8.376500000000000E+007;-2.446671886985087E+000;1.751629466170399E+002;
8.380000000000000E+007;-2.616155581612691E+000;1.735905820589239E+002;
8.383500000000000E+007;-2.822092072741037E+000;1.700170252336102E+002;
8.387000000000000E+007;-2.913722315685040E+000;1.704435864176527E+002;
8.390500000000000E+007;-3.145660028592886E+000;1.679222337704863E+002;
8.394000000000000E+007;-3.368483234466460E+000;1.648632605217458E+002;
8.397500000000000E+007;-3.608275442903797E+000;1.644517480364322E+002;
8.401000000000000E+007;-3.914493012631534E+000;1.633183247590334E+002;
8.404500000000000E+007;-4.203135418786179E+000;1.608604527045720E+002;
8.408000000000000E+007;-4.650378439924133E+000;1.582000358573962E+002;
8.411500000000000E+007;-5.078930341320190E+000;1.550566744984554E+002;
8.415000000000000E+007;-5.505921956198484E+000;1.531659845876724E+002;
8.418500000000000E+007;-6.069477798438789E+000;1.520102029938234E+002;
8.422000000000000E+007;-6.821849575016605E+000;1.469290926228956E+002;
8.425500000000000E+007;-7.541261650056240E+000;1.468635472192631E+002;
8.429000000000000E+007;-8.536098243471354E+000;1.426739923554176E+002;
8.432500000000000E+007;-9.675357064742308E+000;1.418588792793381E+002;
8.436000000000000E+007;-1.117898425656535E+001;1.373094514481077E+002;
8.439500000000000E+007;-1.293784936055173E+001;1.373767254153681E+002;
8.443000000000000E+007;-1.572408333671864E+001;1.356068124316029E+002;
8.446500000000000E+007;-1.896631762135607E+001;1.395929007672610E+002;
8.450000000000000E+007;-2.499441692640864E+001;1.509253987418838E+002;
8.453500000000000E+007;-3.013044708590165E+001;-1.360420903772091E+002;
8.457000000000000E+007;-2.144586622711671E+001;-9.429065036698961E+001;
8.460500000000000E+007;-1.740713271263889E+001;-8.823060470539457E+001;
8.464000000000000E+007;-1.412436256418941E+001;-8.772029520232749E+001;
8.467500000000000E+007;-1.207980937074394E+001;-8.950721173892660E+001;
8.471000000000000E+007;-1.044756045991385E+001;-9.179794390733807E+001;
8.474500000000000E+007;-9.112618963209568E+000;-9.512787226670592E+001;
8.478000000000000E+007;-8.025567519491789E+000;-9.621486623471877E+001;
8.481500000000000E+007;-7.143593551487259E+000;-1.002955934669428E+002;
8.485000000000000E+007;-6.527850605069729E+000;-1.031679502635920E+002;
8.488500000000000E+007;-5.791418863094451E+000;-1.046066240732562E+002;
8.492000000000000E+007;-5.306719253968217E+000;-1.090956082855690E+002;
8.495500000000000E+007;-4.797234921116493E+000;-1.102488020663863E+002;
8.499000000000000E+007;-4.378712935080982E+000;-1.112059299402411E+002;
8.502500000000000E+007;-4.064142889167858E+000;-1.145816840684445E+002;
8.506000000000000E+007;-3.757096172175413E+000;-1.166772428482914E+002;
8.509500000000000E+007;-3.441860632435029E+000;-1.166686335814754E+002;
8.513000000000000E+007;-3.244027393097297E+000;-1.195945764329998E+002;
8.516500000000000E+007;-3.038113731277710E+000;-1.221121109976177E+002;
8.520000000000000E+007;-2.901657649758368E+000;-1.234637059571817E+002;
8.523500000000000E+007;-2.729868684398589E+000;-1.246928764104546E+002;
8.527000000000000E+007;-2.591167745720102E+000;-1.263297711641772E+002;
8.530500000000000E+007;-2.484538061631501E+000;-1.278455310169829E+002;
8.534000000000000E+007;-2.308490960475358E+000;-1.286702673650121E+002;
8.537500000000000E+007;-2.238937642363382E+000;-1.306967217956234E+002;
8.541000000000000E+007;-2.089713404927080E+000;-1.296328151437207E+002;
8.544500000000000E+007;-2.026467815079998E+000;-1.317788111318535E+002;
8.548000000000000E+007;-1.972287972261724E+000;-1.326063999039614E+002;
8.551500000000000E+007;-1.852469985307115E+000;-1.338397068931965E+002;
8.555000000000000E+007;-1.822141389973738E+000;-1.355086530370716E+002;
8.558500000000000E+007;-1.782449451178108E+000;-1.365379315660242E+002;
8.562000000000000E+007;-1.703157761113597E+000;-1.371823837795631E+002;
8.565500000000000E+007;-1.630552642356768E+000;-1.372166097764875E+002;
8.569000000000000E+007;-1.651866813711408E+000;-1.396061710454975E+002;
8.572500000000000E+007;-1.579022796734782E+000;-1.401486649590550E+002;
8.576000000000000E+007;-1.503874391749058E+000;-1.393331275502612E+002;
8.579500000000000E+007;-1.432612582026547E+000;-1.407703568989668E+002;
8.583000000000000E+007;-1.456067294890546E+000;-1.414460087493910E+002;
8.586500000000000E+007;-1.407434958749578E+000;-1.414423986854655E+002;
8.590000000000000E+007;-1.396060427050299E+000;-1.425504780081274E+002;
8.593500000000000E+007;-1.396049149807978E+000;-1.437977569239129E+002;
8.597000000000000E+007;-1.364362095359617E+000;-1.441567477152683E+002;
8.600500000000000E+007;-1.354978206244579E+000;-1.455380243438943E+002;
8.604000000000000E+007;-1.259800181311916E+000;-1.442512055739508E+002;
8.607500000000000E+007;-1.285196953176596E+000;-1.459841107047859E+002;
8.611000000000000E+007;-1.280721216399361E+000;-1.465116159773270E+002;
8.614500000000000E+007;-1.312415348212917E+000;-1.487021571972639E+002;
8.618000000000000E+007;-1.206957511946803E+000;-1.476110991950126E+002;
8.621500000000000E+007;-1.234469002593829E+000;-1.495099898999221E+002;
8.625000000000000E+007;-1.214671857332197E+000;-1.496153749487761E+002;
8.628500000000000E+007;-1.201480647366781E+000;-1.501375593540564E+002;
8.632000000000000E+007;-1.224530785416141E+000;-1.512481265370810E+002;
8.635500000000000E+007;-1.137376345525684E+000;-1.492155879698247E+002;
8.639000000000000E+007;-1.094098960979375E+000;-1.494979635192287E+002;
8.642500000000000E+007;-1.125723324108561E+000;-1.511029368845933E+002;
8.646000000000000E+007;-1.111626050455431E+000;-1.523001265131419E+002;
8.649500000000000E+007;-1.132800026010361E+000;-1.525975245118938E+002;
8.653000000000000E+007;-1.104029244231340E+000;-1.527085422820202E+002;
8.656500000000000E+007;-1.113706910089802E+000;-1.528120821609775E+002;
8.660000000000000E+007;-1.071613493813247E+000;-1.539347297475922E+002;
8.663500000000000E+007;-1.057177077024953E+000;-1.529040511256347E+002;
8.667000000000000E+007;-1.111482083428093E+000;-1.548593622237536E+002;
8.670500000000000E+007;-1.050585916178676E+000;-1.546245650968138E+002;
8.674000000000000E+007;-1.022241563482454E+000;-1.537693378921399E+002;
8.677500000000000E+007;-1.046133776857213E+000;-1.557758275159365E+002;
8.681000000000000E+007;-9.241440665158707E-001;-1.531570685704991E+002;
8.684500000000000E+007;-1.049694516573072E+000;-1.562563793570780E+002;
8.688000000000000E+007;-9.938827938429079E-001;-1.551715802821717E+002;
8.691500000000000E+007;-9.954822920004061E-001;-1.557830884653587E+002;
8.695000000000000E+007;-1.028066107573411E+000;-1.575413177903640E+002;
8.698500000000000E+007;-1.054345874977264E+000;-1.576356706813472E+002;
8.702000000000000E+007;-9.481043389478087E-001;-1.580948822812037E+002;
8.705500000000000E+007;-9.976519763495697E-001;-1.582286697399487E+002;
8.709000000000000E+007;-9.826837849846026E-001;-1.573391041116528E+002;
8.712500000000000E+007;-1.003337852263328E+000;-1.598094393200533E+002;
8.716000000000000E+007;-1.037743630229060E+000;-1.597881464945505E+002;
8.719500000000000E+007;-9.513037691923023E-001;-1.582931312452971E+002;
8.723000000000000E+007;-9.624082406822884E-001;-1.586852754021878E+002;
8.726500000000000E+007;-9.416192345997655E-001;-1.587361925850275E+002;
8.730000000000000E+007;-9.644632922330010E-001;-1.600748193695652E+002;
8.733500000000000E+007;-9.499081783934599E-001;-1.602760911108116E+002;
8.737000000000000E+007;-9.525451275432110E-001;-1.611564492837512E+002;
8.740500000000000E+007;-9.377166183935720E-001;-1.603090163072999E+002;
8.744000000000000E+007;-9.214351929918532E-001;-1.599210585967372E+002;
8.747500000000000E+007;-9.608883895876659E-001;-1.621701131777552E+002;
8.751000000000000E+007;-9.272085904088856E-001;-1.617123261673861E+002;
8.754500000000000E+007;-8.988098652018198E-001;-1.610679107109588E+002;
8.758000000000000E+007;-9.542404937736637E-001;-1.622441069417267E+002;
8.761500000000000E+007;-9.205406254546665E-001;-1.620303661802777E+002;
8.765000000000000E+007;-8.935662482972372E-001;-1.627760338408635E+002;
8.768500000000000E+007;-8.927452011777218E-001;-1.622319720999070E+002;
8.772000000000000E+007;-8.482096858325656E-001;-1.617086659726960E+002;
8.775500000000000E+007;-9.258963419022978E-001;-1.641243471442273E+002;
8.779000000000000E+007;-9.110542406638740E-001;-1.637006516129205E+002;
8.782500000000000E+007;-9.111176496173149E-001;-1.644389368494839E+002;
8.786000000000000E+007;-8.786413790495153E-001;-1.637478372174376E+002;
8.789500000000000E+007;-9.517946033768359E-001;-1.649684254105501E+002;
8.793000000000000E+007;-8.978476931265726E-001;-1.651169357514250E+002;
8.796500000000000E+007;-9.118700589820433E-001;-1.657649733733578E+002;
8.800000000000000E+007;-9.055566897856083E-001;-1.648537084123161E+002;
