# Version 1.00
#
freq[Hz];db:Trc1_S11;ang:Trc1_S11;
8.100000000000000E+007;-8.859018977984824E-001;-1.448498192973491E+002;
8.103500000000000E+007;-8.531420618980190E-001;-1.440624029393744E+002;
8.107000000000000E+007;-8.009865224349367E-001;-1.433026500042100E+002;
8.110500000000000E+007;-7.992942811228638E-001;-1.440236326813987E+002;
8.114000000000000E+007;-7.780115808164045E-001;-1.428806773916963E+002;
8.117500000000000E+007;-8.757808363067697E-001;-1.460367970391776E+002;
8.121000000000000E+007;-8.146153859773151E-001;-1.440782736147429E+002;
8.124500000000000E+007;-8.499502250824098E-001;-1.455717589813655E+002;
8.128000000000000E+007;-8.611261600259663E-001;-1.456952367750108E+002;
8.131500000000000E+007;-8.673945330403267E-001;-1.466195053396301E+002;
8.135000000000000E+007;-8.500071905029510E-001;-1.459669568046669E+002;
8.138500000000000E+007;-8.521105391646496E-001;-1.462199362215538E+002;
8.142000000000000E+007;-9.035496353641394E-001;-1.483676862207075E+002;
8.145500000000000E+007;-8.890281600347370E-001;-1.476730060493217E+002;
8.149000000000000E+007;-8.734321697183942E-001;-1.471784049426845E+002;
8.152500000000000E+007;-9.145694087891851E-001;-1.485430185571326E+002;
8.156000000000000E+007;-8.133936124527008E-001;-1.461575206491931E+002;
8.159500000000000E+007;-8.006426389527186E-001;-1.466632008578124E+002;
8.163000000000000E+007;-8.734374144569416E-001;-1.491248835452229E+002;
8.166500000000000E+007;-8.498743583488061E-001;-1.479580736373803E+002;
8.170000000000000E+007;-8.766212214491533E-001;-1.496407863504827E+002;
8.173500000000000E+007;-8.340897374512279E-001;-1.482093498042368E+002;
8.177000000000000E+007;-8.359835755737022E-001;-1.488885514958636E+002;
8.180500000000000E+007;-8.669273003278885E-001;-1.492757197408016E+002;
8.184000000000000E+007;-9.163765507543343E-001;-1.507270487247103E+002;
8.187500000000000E+007;-8.825964758860935E-001;-1.503513581594192E+002;
8.191000000000000E+007;-7.847141340984973E-001;-1.487227823321773E+002;
8.194500000000000E+007;-8.434431854093336E-001;-1.499816520301697E+002;
8.198000000000000E+007;-8.630171167690548E-001;-1.507042478615591E+002;
8.201500000000000E+007;-8.129084666575611E-001;-1.495448966806462E+002;
8.205000000000000E+007;-8.395866103182825E-001;-1.505875909102480E+002;
8.208500000000000E+007;-9.073010015587807E-001;-1.520881977148516E+002;
8.212000000000000E+007;-8.909264398274568E-001;-1.512574351824867E+002;
8.215500000000000E+007;-9.175682397501666E-001;-1.530058814680348E+002;
8.219000000000000E+007;-8.010611109694434E-001;-1.497975152059208E+002;
8.222500000000000E+007;-8.991962236233697E-001;-1.523856950423268E+002;
8.226000000000000E+007;-8.445425995462561E-001;-1.514477744134059E+002;
8.229500000000000E+007;-8.788983422446258E-001;-1.536311062398281E+002;
8.233000000000000E+007;-8.758833669945252E-001;-1.534270637352401E+002;
8.236500000000000E+007;-8.656301088540663E-001;-1.519437582417588E+002;
8.240000000000000E+007;-8.907772388684280E-001;-1.533058047162139E+002;
8.243500000000000E+007;-9.278441770747976E-001;-1.554354949369178E+002;
8.247000000000000E+007;-9.413394385493544E-001;-1.556881096497786E+002;
8.250500000000000E+007;-8.931415520387609E-001;-1.540230345580993E+002;
8.254000000000000E+007;-9.594533612247481E-001;-1.565094034107241E+002;
8.257500000000000E+007;-9.115513830460615E-001;-1.546198755103875E+002;
8.261000000000000E+007;-9.332286686392568E-001;-1.560944816295589E+002;
8.264500000000000E+007;-9.036095547036970E-001;-1.560495224956992E+002;
8.268000000000000E+007;-9.671286496792494E-001;-1.574502396205533E+002;
8.271500000000000E+007;-9.183607946465831E-001;-1.560565807092110E+002;
8.275000000000000E+007;-9.496542170741964E-001;-1.567376604934912E+002;
8.278500000000000E+007;-9.133209276139415E-001;-1.565266500953179E+002;
8.282000000000000E+007;-9.579302160479840E-001;-1.579497371108990E+002;
8.285500000000000E+007;-9.660382662245662E-001;-1.589358757505108E+002;
8.289000000000000E+007;-1.005434088405213E+000;-1.592495464401752E+002;
8.292500000000000E+007;-9.282965551225114E-001;-1.583772317717987E+002;
8.296000000000000E+007;-9.560623908602801E-001;-1.584143832479218E+002;
8.299500000000000E+007;-9.662949317277583E-001;-1.601645618944027E+002;
8.303000000000000E+007;-9.943928247030368E-001;-1.590547090944654E+002;
8.306500000000000E+007;-9.894063668009956E-001;-1.603485868303120E+002;
8.310000000000000E+007;-9.786782578247616E-001;-1.603552065135690E+002;
8.313500000000000E+007;-9.994145738982337E-001;-1.607890826985203E+002;
8.317000000000000E+007;-9.854743552012149E-001;-1.610861288747084E+002;
8.320500000000000E+007;-1.043278156146275E+000;-1.618433228813412E+002;
8.324000000000000E+007;-1.069766723248762E+000;-1.626724511722725E+002;
8.327500000000000E+007;-1.006102919796435E+000;-1.619132744611414E+002;
8.331000000000000E+007;-1.059700605703521E+000;-1.635454352589468E+002;
8.334500000000000E+007;-1.052076653806708E+000;-1.624592305182354E+002;
8.338000000000000E+007;-1.067704897705294E+000;-1.633855651615554E+002;
8.341500000000000E+007;-1.109670425409154E+000;-1.651368243096526E+002;
8.345000000000000E+007;-1.080791857267177E+000;-1.650478549747271E+002;
8.348500000000000E+007;-1.121033334467988E+000;-1.655594337661709E+002;
8.352000000000000E+007;-1.184558748178644E+000;-1.666793193068034E+002;
8.355500000000000E+007;-1.099086091380499E+000;-1.653126755849161E+002;
8.359000000000000E+007;-1.165582540360864E+000;-1.670611236109338E+002;
8.362500000000000E+007;-1.143032743317890E+000;-1.674943022532720E+002;
8.366000000000000E+007;-1.099693759775058E+000;-1.654606748717507E+002;
8.369500000000000E+007;-1.150097195595959E+000;-1.679629441612652E+002;
8.373000000000000E+007;-1.214381264513985E+000;-1.685531587597741E+002;
8.376500000000000E+007;-1.202331367038123E+000;-1.691089437199954E+002;
8.380000000000000E+007;-1.238516284681490E+000;-1.692553801014382E+002;
8.383500000000000E+007;-1.232513572919436E+000;-1.692804702801699E+002;
8.387000000000000E+007;-1.242922260942471E+000;-1.696972386948177E+002;
8.390500000000000E+007;-1.282390125892124E+000;-1.709710433689961E+002;
8.394000000000000E+007;-1.312670563543239E+000;-1.717575302772224E+002;
8.397500000000000E+007;-1.268810503732451E+000;-1.708968879121487E+002;
8.401000000000000E+007;-1.350297246060498E+000;-1.724424861715681E+002;
8.404500000000000E+007;-1.382666349042411E+000;-1.736576013909755E+002;
8.408000000000000E+007;-1.440040321854274E+000;-1.739501025484523E+002;
8.411500000000000E+007;-1.477727025876816E+000;-1.753007909107245E+002;
8.415000000000000E+007;-1.487998625375024E+000;-1.744259938159332E+002;
8.418500000000000E+007;-1.567145638607581E+000;-1.775244199224329E+002;
8.422000000000000E+007;-1.620790749894667E+000;-1.786063337285263E+002;
8.425500000000000E+007;-1.600189235706640E+000;-1.772335852833768E+002;
8.429000000000000E+007;-1.685254789855059E+000;-1.786390919284160E+002;
8.432500000000000E+007;-1.722143163482196E+000;-1.785621509132081E+002;
8.436000000000000E+007;-1.860909016929359E+000;1.762412583450144E+002;
8.439500000000000E+007;-1.889133929098929E+000;1.766617501515189E+002;
8.443000000000000E+007;-1.883683770552052E+000;1.777455893770863E+002;
8.446500000000000E+007;-2.015258011140158E+000;1.759079616277342E+002;
8.450000000000000E+007;-2.084179863099586E+000;1.750997786271372E+002;
8.453500000000000E+007;-2.146758680947368E+000;1.748796131739529E+002;
8.457000000000000E+007;-2.329681960184442E+000;1.712660103890020E+002;
8.460500000000000E+007;-2.366118106147105E+000;1.730852615286299E+002;
8.464000000000000E+007;-2.463706893389019E+000;1.716561995765365E+002;
8.467500000000000E+007;-2.634292010010766E+000;1.700613237689209E+002;
8.471000000000000E+007;-2.761089959040953E+000;1.668247547641519E+002;
8.474500000000000E+007;-2.970505101537444E+000;1.656964177023062E+002;
8.478000000000000E+007;-3.152449317317929E+000;1.638967107412641E+002;
8.481500000000000E+007;-3.357424323418269E+000;1.628582153847874E+002;
8.485000000000000E+007;-3.630271406926305E+000;1.602699635953961E+002;
8.488500000000000E+007;-3.889437433695417E+000;1.592371309538149E+002;
8.492000000000000E+007;-4.214469232936726E+000;1.579754672694981E+002;
8.495500000000000E+007;-4.625750647021497E+000;1.540578007983470E+002;
8.499000000000000E+007;-4.972204448014398E+000;1.521607171729046E+002;
8.502500000000000E+007;-5.515057318048472E+000;1.520871017752838E+002;
8.506000000000000E+007;-6.058156813557432E+000;1.470139960430632E+002;
8.509500000000000E+007;-6.751916545101965E+000;1.449403995877651E+002;
8.513000000000000E+007;-7.563238700861102E+000;1.418530673229180E+002;
8.516500000000000E+007;-8.456109435825846E+000;1.403066548578862E+002;
8.520000000000000E+007;-9.640878722806434E+000;1.371674832470916E+002;
8.523500000000000E+007;-1.108554803639206E+001;1.347915014095591E+002;
8.527000000000000E+007;-1.284197133694343E+001;1.330802858975207E+002;
8.530500000000000E+007;-1.536386597234386E+001;1.295325227562850E+002;
8.534000000000000E+007;-1.834738709890920E+001;1.305844107764013E+002;
8.537500000000000E+007;-2.470740856903458E+001;1.435803349209445E+002;
8.541000000000000E+007;-2.949124405165838E+001;-1.426737718867087E+002;
8.544500000000000E+007;-2.259622314844747E+001;-9.842076089143443E+001;
8.548000000000000E+007;-1.784177829919068E+001;-9.151052231111640E+001;
8.551500000000000E+007;-1.455242265857643E+001;-8.907967438386828E+001;
8.555000000000000E+007;-1.247108006321298E+001;-9.320240694134732E+001;
8.558500000000000E+007;-1.074644207074190E+001;-9.570425232028877E+001;
8.562000000000000E+007;-9.335825086196730E+000;-9.736239690522496E+001;
8.565500000000000E+007;-8.234750346390500E+000;-9.971124895772222E+001;
8.569000000000000E+007;-7.404426699587245E+000;-1.037708068076146E+002;
8.572500000000000E+007;-6.615184109350897E+000;-1.047803049015004E+002;
8.576000000000000E+007;-5.972614854846991E+000;-1.096206951411728E+002;
8.579500000000000E+007;-5.310014359124406E+000;-1.101707174447008E+002;
8.583000000000000E+007;-4.887844257790602E+000;-1.128101278215262E+002;
8.586500000000000E+007;-4.531110385946095E+000;-1.162451870301835E+002;
8.590000000000000E+007;-4.150814233864409E+000;-1.163555295339723E+002;
8.593500000000000E+007;-3.816734710328413E+000;-1.187240161846071E+002;
8.597000000000000E+007;-3.521973742494045E+000;-1.199714857444790E+002;
8.600500000000000E+007;-3.366748383536568E+000;-1.217423247188726E+002;
8.604000000000000E+007;-3.116185373890394E+000;-1.239428644326790E+002;
8.607500000000000E+007;-2.988478200126570E+000;-1.269388526899962E+002;
8.611000000000000E+007;-2.766880471667971E+000;-1.274898620703580E+002;
8.614500000000000E+007;-2.613819446556782E+000;-1.289044522288255E+002;
8.618000000000000E+007;-2.489700382973575E+000;-1.300498627766940E+002;
8.621500000000000E+007;-2.379118945609425E+000;-1.321105964809852E+002;
8.625000000000000E+007;-2.233605697275959E+000;-1.328782182847141E+002;
8.628500000000000E+007;-2.181224982404590E+000;-1.339856873145371E+002;
8.632000000000000E+007;-2.106864076063127E+000;-1.357755738948445E+002;
8.635500000000000E+007;-2.014788688711194E+000;-1.363872487299088E+002;
8.639000000000000E+007;-1.959203303714795E+000;-1.389195942594976E+002;
8.642500000000000E+007;-1.844583603444251E+000;-1.381229283452820E+002;
8.646000000000000E+007;-1.802331378441106E+000;-1.387452722410381E+002;
8.649500000000000E+007;-1.709124498589676E+000;-1.398342905371871E+002;
8.653000000000000E+007;-1.696165899491779E+000;-1.408897042164512E+002;
8.656500000000000E+007;-1.596265666314240E+000;-1.410428260298417E+002;
8.660000000000000E+007;-1.589808560048333E+000;-1.416776168988137E+002;
8.663500000000000E+007;-1.567983478256248E+000;-1.438138210689812E+002;
8.667000000000000E+007;-1.493824684295622E+000;-1.441868690505134E+002;
8.670500000000000E+007;-1.493749519697874E+000;-1.449472053430028E+002;
8.674000000000000E+007;-1.453253300131818E+000;-1.452411033113171E+002;
8.677500000000000E+007;-1.413940281278095E+000;-1.458226880293126E+002;
8.681000000000000E+007;-1.430085089483767E+000;-1.473202727547056E+002;
8.684500000000000E+007;-1.349734133786585E+000;-1.470474102663764E+002;
8.688000000000000E+007;-1.345592519548188E+000;-1.482383457593114E+002;
8.691500000000000E+007;-1.322107361302449E+000;-1.502824686289048E+002;
8.695000000000000E+007;-1.295450421985242E+000;-1.493052436088699E+002;
8.698500000000000E+007;-1.216382003737768E+000;-1.486327485314173E+002;
8.702000000000000E+007;-1.298897500427730E+000;-1.520001015043776E+002;
8.705500000000000E+007;-1.266391200715054E+000;-1.515411576780581E+002;
8.709000000000000E+007;-1.209699387525985E+000;-1.510786713674414E+002;
8.712500000000000E+007;-1.252621336013663E+000;-1.537154915682208E+002;
8.716000000000000E+007;-1.142682034651983E+000;-1.510230383230050E+002;
8.719500000000000E+007;-1.180825477150591E+000;-1.533592188931725E+002;
8.723000000000000E+007;-1.184362086587751E+000;-1.537774264784678E+002;
8.726500000000000E+007;-1.172036910134099E+000;-1.534375710478813E+002;
8.730000000000000E+007;-1.156628225861810E+000;-1.538917245743170E+002;
8.733500000000000E+007;-1.092083890763821E+000;-1.539797124400987E+002;
8.737000000000000E+007;-1.130756844886511E+000;-1.559293793750864E+002;
8.740500000000000E+007;-1.153903794811305E+000;-1.567895508731282E+002;
8.744000000000000E+007;-1.111489363072946E+000;-1.564847238846725E+002;
8.747500000000000E+007;-1.072454161761397E+000;-1.559273944235573E+002;
8.751000000000000E+007;-1.034300300480815E+000;-1.563933398094708E+002;
8.754500000000000E+007;-1.032778621000875E+000;-1.568407255017658E+002;
8.758000000000000E+007;-1.040516203581214E+000;-1.567709956325161E+002;
8.761500000000000E+007;-1.057896847248897E+000;-1.586655116603920E+002;
8.765000000000000E+007;-1.008753691391679E+000;-1.575905916815979E+002;
8.768500000000000E+007;-1.044779683612197E+000;-1.588800472535675E+002;
8.772000000000000E+007;-9.950506992680137E-001;-1.588737251492561E+002;
8.775500000000000E+007;-1.004746147653869E+000;-1.584304410282781E+002;
8.779000000000000E+007;-1.059163857239176E+000;-1.602428511374029E+002;
8.782500000000000E+007;-1.004834552016903E+000;-1.594224810602653E+002;
8.786000000000000E+007;-1.057539653161093E+000;-1.609622115033420E+002;
8.789500000000000E+007;-1.034095088999248E+000;-1.615014325070889E+002;
8.793000000000000E+007;-1.010333123695142E+000;-1.613844611816450E+002;
8.796500000000000E+007;-1.025073903335745E+000;-1.623821852914182E+002;
8.800000000000000E+007;-8.927030325108565E-001;-1.586059017623233E+002;
