# Version 1.00
#
freq[Hz];db:Trc1_S11;ang:Trc1_S11;
8.100000000000000E+007;-8.972583860586475E-001;-1.432020663257349E+002;
8.103500000000000E+007;-7.829408440185307E-001;-1.424551803826521E+002;
8.107000000000000E+007;-7.799605975365196E-001;-1.406362734891089E+002;
8.110500000000000E+007;-8.340385805844609E-001;-1.420343510677996E+002;
8.114000000000000E+007;-8.480713826898133E-001;-1.438239937602108E+002;
8.117500000000000E+007;-7.968541250604900E-001;-1.424853183492078E+002;
8.121000000000000E+007;-7.639319756775106E-001;-1.416680945926914E+002;
8.124500000000000E+007;-8.183337404661223E-001;-1.432810346903963E+002;
8.128000000000000E+007;-7.765666628513647E-001;-1.423584238270523E+002;
8.131500000000000E+007;-8.654424746573988E-001;-1.453029080664913E+002;
8.135000000000000E+007;-8.184052537267510E-001;-1.430741344034772E+002;
8.138500000000000E+007;-7.569076753831046E-001;-1.436298826197330E+002;
8.142000000000000E+007;-8.608586881396493E-001;-1.446959560808732E+002;
8.145500000000000E+007;-8.216646686621353E-001;-1.449532561238158E+002;
8.149000000000000E+007;-7.827511344306365E-001;-1.434849744807308E+002;
8.152500000000000E+007;-7.875480976234839E-001;-1.444572766292225E+002;
8.156000000000000E+007;-8.605755447790481E-001;-1.457669545254823E+002;
8.159500000000000E+007;-8.378014640096595E-001;-1.463747614744858E+002;
8.163000000000000E+007;-8.558989476890154E-001;-1.475489866358869E+002;
8.166500000000000E+007;-8.504282812103008E-001;-1.460344546186769E+002;
8.170000000000000E+007;-8.853777231915120E-001;-1.468678827333531E+002;
8.173500000000000E+007;-8.095876609781311E-001;-1.460846684429197E+002;
8.177000000000000E+007;-8.042655602865315E-001;-1.461713342417770E+002;
8.180500000000000E+007;-7.687020810719546E-001;-1.456366765029008E+002;
8.184000000000000E+007;-7.822980058791796E-001;-1.457985708786194E+002;
8.187500000000000E+007;-8.603108575633628E-001;-1.479865108748379E+002;
8.191000000000000E+007;-8.853484003987795E-001;-1.490575379028100E+002;
8.194500000000000E+007;-7.971305333742552E-001;-1.466507273553539E+002;
8.198000000000000E+007;-7.992080328513779E-001;-1.475493181586601E+002;
8.201500000000000E+007;-8.305999539008339E-001;-1.483769512441967E+002;
8.205000000000000E+007;-8.437227192478249E-001;-1.493231748556550E+002;
8.208500000000000E+007;-9.070635556532951E-001;-1.504774789338882E+002;
8.212000000000000E+007;-8.413204251760623E-001;-1.487800682729733E+002;
8.215500000000000E+007;-8.066900359805364E-001;-1.479161293171259E+002;
8.219000000000000E+007;-8.867000002662721E-001;-1.505709573093563E+002;
8.222500000000000E+007;-8.272562552689021E-001;-1.495959923935374E+002;
8.226000000000000E+007;-8.511711110889403E-001;-1.492502099165784E+002;
8.229500000000000E+007;-8.678022727253196E-001;-1.516975112306660E+002;
8.233000000000000E+007;-8.781209187663289E-001;-1.508359048614117E+002;
8.236500000000000E+007;-8.908503290177838E-001;-1.518023083455778E+002;
8.240000000000000E+007;-8.884867352314251E-001;-1.516212683294408E+002;
8.243500000000000E+007;-8.438328644309046E-001;-1.507287083610391E+002;
8.247000000000000E+007;-8.768027311376766E-001;-1.522311690506294E+002;
8.250500000000000E+007;-9.215274386941454E-001;-1.531323211518957E+002;
8.254000000000000E+007;-8.494838414528043E-001;-1.517666461828648E+002;
8.257500000000000E+007;-8.622118832502346E-001;-1.526644207974129E+002;
8.261000000000000E+007;-8.525490338899640E-001;-1.523070767030540E+002;
8.264500000000000E+007;-8.887953427163572E-001;-1.534459371014367E+002;
8.268000000000000E+007;-8.459810114497335E-001;-1.521338098853992E+002;
8.271500000000000E+007;-8.290945108822997E-001;-1.528315410151057E+002;
8.275000000000000E+007;-8.667536994017091E-001;-1.530817031208275E+002;
8.278500000000000E+007;-9.041164212607596E-001;-1.547429271779262E+002;
8.282000000000000E+007;-8.865093288965121E-001;-1.551859614828350E+002;
8.285500000000000E+007;-8.815158662472324E-001;-1.551257349057474E+002;
8.289000000000000E+007;-8.902787265372472E-001;-1.546784579103548E+002;
8.292500000000000E+007;-8.460755922800094E-001;-1.539196639037519E+002;
8.296000000000000E+007;-9.265030586237723E-001;-1.564530416121530E+002;
8.299500000000000E+007;-8.734491281205677E-001;-1.549756652906870E+002;
8.303000000000000E+007;-8.761702801307152E-001;-1.556263577630149E+002;
8.306500000000000E+007;-9.086058018090156E-001;-1.568241129420671E+002;
8.310000000000000E+007;-9.143882775743352E-001;-1.562319811746381E+002;
8.313500000000000E+007;-9.215693283216262E-001;-1.573362062621654E+002;
8.317000000000000E+007;-9.433791377913532E-001;-1.581277693330312E+002;
8.320500000000000E+007;-8.995617509084569E-001;-1.568298710775777E+002;
8.324000000000000E+007;-9.032971941425030E-001;-1.576185779700635E+002;
8.327500000000000E+007;-8.776838985163193E-001;-1.571698471777807E+002;
8.331000000000000E+007;-9.290696175038109E-001;-1.586152509994101E+002;
8.334500000000000E+007;-9.705602380320461E-001;-1.599218920406329E+002;
8.338000000000000E+007;-8.649223870681977E-001;-1.581483277047236E+002;
8.341500000000000E+007;-9.155974639437050E-001;-1.590521284422360E+002;
8.345000000000000E+007;-8.768211169772788E-001;-1.585527461972901E+002;
8.348500000000000E+007;-9.030905156199531E-001;-1.587120117697589E+002;
8.352000000000000E+007;-9.586462261428759E-001;-1.607601113752629E+002;
8.355500000000000E+007;-9.083554379539470E-001;-1.598611706101231E+002;
8.359000000000000E+007;-1.008513351621653E+000;-1.634232950748553E+002;
8.362500000000000E+007;-9.755834844272119E-001;-1.617111551503663E+002;
8.366000000000000E+007;-9.515270117017910E-001;-1.609442401484837E+002;
8.369500000000000E+007;-9.476831473218336E-001;-1.612704977451497E+002;
8.373000000000000E+007;-9.657764833956053E-001;-1.620469890295228E+002;
8.376500000000000E+007;-1.004984216648916E+000;-1.632250277259458E+002;
8.380000000000000E+007;-9.569276068046565E-001;-1.619178613288654E+002;
8.383500000000000E+007;-9.833107921932049E-001;-1.628539133078569E+002;
8.387000000000000E+007;-9.890495787193028E-001;-1.633303791415171E+002;
8.390500000000000E+007;-9.899262536231703E-001;-1.637086859813768E+002;
8.394000000000000E+007;-1.031250881122418E+000;-1.638220378623103E+002;
8.397500000000000E+007;-9.965081094049889E-001;-1.634341693011385E+002;
8.401000000000000E+007;-1.063761594303790E+000;-1.664772774273645E+002;
8.404500000000000E+007;-1.003078287205651E+000;-1.640260143238241E+002;
8.408000000000000E+007;-1.110024980458864E+000;-1.678551812178294E+002;
8.411500000000000E+007;-1.066584286626152E+000;-1.666587838623846E+002;
8.415000000000000E+007;-1.033732998255422E+000;-1.652565069064180E+002;
8.418500000000000E+007;-1.088326222672706E+000;-1.674706495299515E+002;
8.422000000000000E+007;-1.068035337450795E+000;-1.671765361026990E+002;
8.425500000000000E+007;-1.095898962532910E+000;-1.676762010565574E+002;
8.429000000000000E+007;-1.063128622317458E+000;-1.675497497732164E+002;
8.432500000000000E+007;-1.076653661819623E+000;-1.678130001431913E+002;
8.436000000000000E+007;-1.133536617848407E+000;-1.687286328739910E+002;
8.439500000000000E+007;-1.141960031642544E+000;-1.703503875925866E+002;
8.443000000000000E+007;-1.152209824816663E+000;-1.704161488469102E+002;
8.446500000000000E+007;-1.144293230558190E+000;-1.703187370977226E+002;
8.450000000000000E+007;-1.168850371926467E+000;-1.700603727942494E+002;
8.453500000000000E+007;-1.208162266185764E+000;-1.717171388472126E+002;
8.457000000000000E+007;-1.229944045729519E+000;-1.715654602081442E+002;
8.460500000000000E+007;-1.263308311327242E+000;-1.735474756966374E+002;
8.464000000000000E+007;-1.252173409350798E+000;-1.730627608228841E+002;
8.467500000000000E+007;-1.232116480028424E+000;-1.725718020458080E+002;
8.471000000000000E+007;-1.319670235691631E+000;-1.744291254670768E+002;
8.474500000000000E+007;-1.315953292221654E+000;-1.749083578657896E+002;
8.478000000000000E+007;-1.337271602679586E+000;-1.754348886439279E+002;
8.481500000000000E+007;-1.394008693655375E+000;-1.757418809885424E+002;
8.485000000000000E+007;-1.430396237133208E+000;-1.774173152579437E+002;
8.488500000000000E+007;-1.466768153117263E+000;-1.772854616046154E+002;
8.492000000000000E+007;-1.503079409653146E+000;-1.783292190146956E+002;
8.495500000000000E+007;-1.519503360195068E+000;-1.796369039678803E+002;
8.499000000000000E+007;-1.561894102833784E+000;1.798709285622144E+002;
8.502500000000000E+007;-1.609064797669731E+000;1.789045873099603E+002;
8.506000000000000E+007;-1.584370509764504E+000;1.793562913281370E+002;
8.509500000000000E+007;-1.655914029639269E+000;1.786113698138911E+002;
8.513000000000000E+007;-1.695455727706570E+000;1.774823559047299E+002;
8.516500000000000E+007;-1.778916690719703E+000;1.762428484966687E+002;
8.520000000000000E+007;-1.856301510292817E+000;1.747630624646510E+002;
8.523500000000000E+007;-1.894281833108225E+000;1.753373607855761E+002;
8.527000000000000E+007;-1.928328314875254E+000;1.740041829344868E+002;
8.530500000000000E+007;-2.014548267971694E+000;1.744163652825359E+002;
8.534000000000000E+007;-2.184157719106956E+000;1.707434031362670E+002;
8.537500000000000E+007;-2.221855078908022E+000;1.700429487407781E+002;
8.541000000000000E+007;-2.339536882549641E+000;1.700849423679036E+002;
8.544500000000000E+007;-2.477327091057759E+000;1.674632413988402E+002;
8.548000000000000E+007;-2.590064864969183E+000;1.671202004060573E+002;
8.551500000000000E+007;-2.797322374930438E+000;1.636090702404608E+002;
8.555000000000000E+007;-2.894739624569643E+000;1.625036356110363E+002;
8.558500000000000E+007;-3.118407954149299E+000;1.625843402649228E+002;
8.562000000000000E+007;-3.296727484065503E+000;1.614293466988365E+002;
8.565500000000000E+007;-3.581349437785151E+000;1.595432372734640E+002;
8.569000000000000E+007;-3.854638838701392E+000;1.563900383763689E+002;
8.572500000000000E+007;-4.125327733013586E+000;1.553280875518425E+002;
8.576000000000000E+007;-4.496811734026545E+000;1.519864823373272E+002;
8.579500000000000E+007;-4.906998364560192E+000;1.500711033591197E+002;
8.583000000000000E+007;-5.390263494275084E+000;1.481475322531005E+002;
8.586500000000000E+007;-5.911986559546191E+000;1.456021648824502E+002;
8.590000000000000E+007;-6.561706325357869E+000;1.451340194752375E+002;
8.593500000000000E+007;-7.337847857156983E+000;1.407799568842211E+002;
8.597000000000000E+007;-8.280570691440429E+000;1.406326996128503E+002;
8.600500000000000E+007;-9.386171388939763E+000;1.366356881980087E+002;
8.604000000000000E+007;-1.078399650767816E+001;1.335713857080544E+002;
8.607500000000000E+007;-1.236938077036728E+001;1.328352691669587E+002;
8.611000000000000E+007;-1.478650689758511E+001;1.302737247879265E+002;
8.614500000000000E+007;-1.800014176848694E+001;1.358375882082105E+002;
8.618000000000000E+007;-2.223339624330779E+001;1.405868546551064E+002;
8.621500000000000E+007;-2.747225877818758E+001;-1.649579510905880E+002;
8.625000000000000E+007;-2.248496552134726E+001;-1.137635877612270E+002;
8.628500000000000E+007;-1.814439129220354E+001;-1.015519100175087E+002;
8.632000000000000E+007;-1.464914469008755E+001;-9.674334185392310E+001;
8.635500000000000E+007;-1.251791018753182E+001;-9.908378576713484E+001;
8.639000000000000E+007;-1.073224212296056E+001;-1.014195595141687E+002;
8.642500000000000E+007;-9.475409135422037E+000;-1.014174369649619E+002;
8.646000000000000E+007;-8.322519847952185E+000;-1.066997740506358E+002;
8.649500000000000E+007;-7.356732694865802E+000;-1.067870127806804E+002;
8.653000000000000E+007;-6.520397134936763E+000;-1.084987477395082E+002;
8.656500000000000E+007;-5.991279971976526E+000;-1.129329504033737E+002;
8.660000000000000E+007;-5.338906735993247E+000;-1.132392924263845E+002;
8.663500000000000E+007;-4.958572335541786E+000;-1.171185327858773E+002;
8.667000000000000E+007;-4.520205066612443E+000;-1.191081591210798E+002;
8.670500000000000E+007;-4.166969487139449E+000;-1.214665768341310E+002;
8.674000000000000E+007;-3.882131891103849E+000;-1.249392568146635E+002;
8.677500000000000E+007;-3.604578547980438E+000;-1.251665484716865E+002;
8.681000000000000E+007;-3.336455725825819E+000;-1.276882322434048E+002;
8.684500000000000E+007;-3.116168133370644E+000;-1.290439225541036E+002;
8.688000000000000E+007;-2.986761957735420E+000;-1.320245395178680E+002;
8.691500000000000E+007;-2.795573162135694E+000;-1.323640928926932E+002;
8.695000000000000E+007;-2.636667859110843E+000;-1.329642336821577E+002;
8.698500000000000E+007;-2.446692854769842E+000;-1.333632288565332E+002;
8.702000000000000E+007;-2.373633307570803E+000;-1.358229959902063E+002;
8.705500000000000E+007;-2.293340372222117E+000;-1.371632054901898E+002;
8.709000000000000E+007;-2.193394490427129E+000;-1.383869167991211E+002;
8.712500000000000E+007;-2.134847983028855E+000;-1.412689643842327E+002;
8.716000000000000E+007;-1.933901560413107E+000;-1.393431250636503E+002;
8.719500000000000E+007;-1.905588133569121E+000;-1.401383227584338E+002;
8.723000000000000E+007;-1.826818576786601E+000;-1.419590818687367E+002;
8.726500000000000E+007;-1.756647465742685E+000;-1.420952934090833E+002;
8.730000000000000E+007;-1.705731978607719E+000;-1.437633713747680E+002;
8.733500000000000E+007;-1.685559211874192E+000;-1.438075193840380E+002;
8.737000000000000E+007;-1.608342948622120E+000;-1.450021452583538E+002;
8.740500000000000E+007;-1.584176751632265E+000;-1.464210448400139E+002;
8.744000000000000E+007;-1.577526499738215E+000;-1.478035413022370E+002;
8.747500000000000E+007;-1.516750617165975E+000;-1.476721625172376E+002;
8.751000000000000E+007;-1.448107258784610E+000;-1.482277504967194E+002;
8.754500000000000E+007;-1.432895457717966E+000;-1.489805231130856E+002;
8.758000000000000E+007;-1.445745915085311E+000;-1.505270526188310E+002;
8.761500000000000E+007;-1.414003802924362E+000;-1.511277111809770E+002;
8.765000000000000E+007;-1.388771019641901E+000;-1.525069466415461E+002;
8.768500000000000E+007;-1.400565936801174E+000;-1.530110619275577E+002;
8.772000000000000E+007;-1.232153074979779E+000;-1.511206135829915E+002;
8.775500000000000E+007;-1.274531640405704E+000;-1.533791938929948E+002;
8.779000000000000E+007;-1.243510108279871E+000;-1.529113895656618E+002;
8.782500000000000E+007;-1.269139691106821E+000;-1.536293748276625E+002;
8.786000000000000E+007;-1.240321668570387E+000;-1.549220593540344E+002;
8.789500000000000E+007;-1.220286561662485E+000;-1.547308102015945E+002;
8.793000000000000E+007;-1.194111833551720E+000;-1.558308800450450E+002;
8.796500000000000E+007;-1.188272133776514E+000;-1.559479209046698E+002;
8.800000000000000E+007;-1.121759729354130E+000;-1.556338882127357E+002;
