# Version 1.00
#
freq[Hz];db:Trc1_S11;ang:Trc1_S11;
8.100000000000000E+007;-8.308359298338564E-001;-1.500005318458278E+002;
8.102500000000000E+007;-7.777577683459034E-001;-1.498630699537780E+002;
8.105000000000000E+007;-7.917998411865012E-001;-1.499034585299037E+002;
8.107500000000000E+007;-7.817160582403724E-001;-1.495508149708253E+002;
8.110000000000000E+007;-7.624879652425596E-001;-1.488633154352657E+002;
8.112500000000000E+007;-7.667983709727311E-001;-1.489173390129331E+002;
8.115000000000000E+007;-7.824141589114159E-001;-1.494760976204701E+002;
8.117500000000000E+007;-7.289626815368721E-001;-1.482225745759315E+002;
8.120000000000000E+007;-7.503099805616204E-001;-1.491240679707525E+002;
8.122500000000000E+007;-8.005268728327951E-001;-1.497947628047466E+002;
8.125000000000000E+007;-7.805836105427754E-001;-1.494792588718472E+002;
8.127500000000000E+007;-7.523236948860035E-001;-1.490983594803956E+002;
8.130000000000000E+007;-7.945185844763063E-001;-1.498541921611310E+002;
8.132500000000000E+007;-7.990494148447789E-001;-1.501448000739343E+002;
8.135000000000000E+007;-8.068223412753554E-001;-1.502218372906214E+002;
8.137500000000000E+007;-6.841238879842064E-001;-1.479139886759374E+002;
8.140000000000000E+007;-7.986758071582478E-001;-1.503408216723094E+002;
8.142500000000000E+007;-8.136486981230426E-001;-1.510511921515486E+002;
8.145000000000000E+007;-7.918051276755529E-001;-1.501895059703469E+002;
8.147500000000000E+007;-8.311442432985698E-001;-1.526544969887279E+002;
8.150000000000000E+007;-7.831798693480082E-001;-1.510446341812620E+002;
8.152500000000000E+007;-8.593573020353826E-001;-1.524400758708618E+002;
8.155000000000000E+007;-8.312848165790920E-001;-1.523978116991858E+002;
8.157500000000000E+007;-8.592167932645990E-001;-1.519722569782205E+002;
8.160000000000000E+007;-8.967064305156344E-001;-1.519834214740567E+002;
8.162500000000000E+007;-8.310621053084180E-001;-1.509169943499593E+002;
8.165000000000000E+007;-8.865041982587408E-001;-1.525481726587297E+002;
8.167500000000000E+007;-9.466711956706396E-001;-1.535621005588495E+002;
8.170000000000000E+007;-8.958833590629574E-001;-1.531283193423462E+002;
8.172500000000000E+007;-8.889534348491800E-001;-1.530435082165645E+002;
8.175000000000000E+007;-9.270372832451700E-001;-1.532831392571658E+002;
8.177500000000000E+007;-9.641945681428499E-001;-1.548343656235435E+002;
8.180000000000000E+007;-9.253633699328345E-001;-1.542321927260128E+002;
8.182500000000000E+007;-9.305356313373365E-001;-1.543925040789070E+002;
8.185000000000000E+007;-9.988856137218286E-001;-1.560360896788025E+002;
8.187500000000000E+007;-9.601711404089085E-001;-1.544437118294680E+002;
8.190000000000000E+007;-9.761370259206844E-001;-1.552932745609810E+002;
8.192500000000000E+007;-9.295486766229826E-001;-1.530603013676252E+002;
8.195000000000000E+007;-9.092737188993859E-001;-1.528479189817378E+002;
8.197500000000000E+007;-1.007178192218103E+000;-1.556902901647182E+002;
8.200000000000000E+007;-1.026043099462573E+000;-1.556990074881651E+002;
8.202500000000000E+007;-1.031302912514528E+000;-1.562168630097793E+002;
8.205000000000000E+007;-1.119198826631804E+000;-1.574405896385285E+002;
8.207500000000000E+007;-1.092615320659978E+000;-1.578581027606030E+002;
8.210000000000000E+007;-1.048535688426677E+000;-1.567138882289692E+002;
8.212500000000000E+007;-1.124245471778664E+000;-1.586327391479741E+002;
8.215000000000000E+007;-1.152633870843804E+000;-1.570474835902140E+002;
8.217500000000000E+007;-1.152501543480564E+000;-1.582340865869260E+002;
8.220000000000000E+007;-1.170430212462855E+000;-1.585522201308672E+002;
8.222500000000000E+007;-1.243788455759011E+000;-1.594553854440549E+002;
8.225000000000000E+007;-1.243886204222460E+000;-1.595250896631920E+002;
8.227500000000000E+007;-1.219518981017490E+000;-1.595934781758430E+002;
8.230000000000000E+007;-1.234541678214686E+000;-1.590521984717605E+002;
8.232500000000000E+007;-1.257457780131737E+000;-1.588822519513672E+002;
8.235000000000000E+007;-1.294301374135073E+000;-1.601534840695857E+002;
8.237500000000000E+007;-1.357959800823473E+000;-1.605961535859873E+002;
8.240000000000000E+007;-1.401697341970372E+000;-1.613398384299392E+002;
8.242500000000000E+007;-1.412242592234125E+000;-1.615891356760633E+002;
8.245000000000000E+007;-1.426020488059732E+000;-1.620851005579680E+002;
8.247500000000000E+007;-1.504676531580331E+000;-1.641762756683259E+002;
8.250000000000000E+007;-1.542086727172023E+000;-1.632363451045144E+002;
8.252500000000000E+007;-1.565721008136587E+000;-1.641583232772469E+002;
8.255000000000000E+007;-1.665126268266659E+000;-1.654894517593832E+002;
8.257500000000000E+007;-1.619611437236430E+000;-1.633517708886057E+002;
8.260000000000000E+007;-1.667397351048650E+000;-1.649041564083632E+002;
8.262500000000000E+007;-1.784785678117112E+000;-1.665350574028653E+002;
8.265000000000000E+007;-1.822159438889419E+000;-1.669373327333940E+002;
8.267500000000000E+007;-1.874259169117078E+000;-1.669686424087093E+002;
8.270000000000000E+007;-1.925770926715005E+000;-1.673802754973273E+002;
8.272500000000000E+007;-1.984748424907550E+000;-1.682493620000761E+002;
8.275000000000000E+007;-2.066398256520042E+000;-1.699138519664047E+002;
8.277500000000000E+007;-2.124772898943075E+000;-1.686582892572247E+002;
8.280000000000000E+007;-2.291555001142281E+000;-1.714459214964525E+002;
8.282500000000000E+007;-2.368766233912228E+000;-1.724879163779277E+002;
8.285000000000000E+007;-2.424659450041648E+000;-1.722886543119623E+002;
8.287500000000000E+007;-2.535341338046841E+000;-1.730782710809505E+002;
8.290000000000000E+007;-2.673914290961570E+000;-1.746054149661642E+002;
8.292500000000000E+007;-2.784707358752136E+000;-1.750805101115938E+002;
8.295000000000000E+007;-2.940042519176418E+000;-1.759774922567931E+002;
8.297500000000000E+007;-3.086992543347246E+000;-1.776239040700841E+002;
8.300000000000000E+007;-3.221742773138244E+000;-1.771801303208834E+002;
8.302500000000000E+007;-3.485141402263513E+000;1.789409126642978E+002;
8.305000000000000E+007;-3.612786174759087E+000;1.795757871554641E+002;
8.307500000000000E+007;-3.839536083306534E+000;1.784652442357891E+002;
8.310000000000000E+007;-4.112514438177746E+000;1.767260608505568E+002;
8.312500000000000E+007;-4.290277268423250E+000;1.770773295548436E+002;
8.315000000000000E+007;-4.677000890129149E+000;1.743583155764127E+002;
8.317500000000000E+007;-4.940548748447985E+000;1.734914748785668E+002;
8.320000000000000E+007;-5.312366415801528E+000;1.707674578660009E+002;
8.322500000000000E+007;-5.768995636672980E+000;1.694840088653330E+002;
8.325000000000000E+007;-6.176683773826528E+000;1.685532516954662E+002;
8.327500000000000E+007;-6.737163386869661E+000;1.680752662563922E+002;
8.330000000000000E+007;-7.270470843174139E+000;1.648866213976869E+002;
8.332500000000000E+007;-7.977234791676535E+000;1.629841962405494E+002;
8.335000000000000E+007;-8.676737340688955E+000;1.636976684661730E+002;
8.337500000000000E+007;-9.646698373699708E+000;1.620111486591315E+002;
8.340000000000000E+007;-1.056919715735186E+001;1.597632449871894E+002;
8.342500000000000E+007;-1.176075700750941E+001;1.621002278892060E+002;
8.345000000000000E+007;-1.307562953352300E+001;1.613344159876304E+002;
8.347500000000000E+007;-1.466716464870643E+001;1.626967893500029E+002;
8.350000000000000E+007;-1.703787888694482E+001;1.664200551127682E+002;
8.352500000000000E+007;-1.922512473173773E+001;1.735885030709869E+002;
8.355000000000000E+007;-2.182938056747677E+001;-1.679408241992311E+002;
8.357500000000000E+007;-2.330361360105629E+001;-1.369632266383605E+002;
8.360000000000000E+007;-2.148402802332755E+001;-1.072450355548208E+002;
8.362500000000000E+007;-1.879961311833541E+001;-9.210767153619354E+001;
8.365000000000000E+007;-1.664167558417942E+001;-8.527684243202330E+001;
8.367500000000000E+007;-1.445870843980834E+001;-8.146966816618817E+001;
8.370000000000000E+007;-1.292927364285748E+001;-8.023395651621019E+001;
8.372500000000000E+007;-1.143132523024332E+001;-7.997278354068459E+001;
8.375000000000000E+007;-1.032271965774799E+001;-8.227668254274099E+001;
8.377500000000000E+007;-9.337064729932907E+000;-8.271975338420828E+001;
8.380000000000000E+007;-8.529986367745881E+000;-8.325878161552878E+001;
8.382500000000000E+007;-7.772051534220873E+000;-8.365314838036719E+001;
8.385000000000000E+007;-7.128576229482574E+000;-8.494574531872391E+001;
8.387500000000000E+007;-6.559493478651244E+000;-8.801470708959299E+001;
8.390000000000000E+007;-6.154482763224348E+000;-8.859723493432483E+001;
8.392500000000000E+007;-5.709632271356911E+000;-9.140567306769451E+001;
8.395000000000000E+007;-5.236255169649759E+000;-9.097252559712037E+001;
8.397500000000000E+007;-4.952960466860128E+000;-9.339571994761981E+001;
8.400000000000000E+007;-4.635467707838673E+000;-9.480516045989891E+001;
8.402500000000000E+007;-4.263020506703139E+000;-9.560425754765930E+001;
8.405000000000000E+007;-3.983422439805201E+000;-9.630948808156737E+001;
8.407500000000000E+007;-3.805163056125624E+000;-9.766132918689443E+001;
8.410000000000000E+007;-3.523017208058799E+000;-9.925767668562807E+001;
8.412500000000000E+007;-3.394502576076789E+000;-9.995168638888531E+001;
8.415000000000000E+007;-3.245371961988781E+000;-1.012855340601617E+002;
8.417500000000000E+007;-3.031331304216180E+000;-1.006821059961595E+002;
8.420000000000000E+007;-2.858436730616840E+000;-1.029695133472231E+002;
8.422500000000000E+007;-2.785354546850247E+000;-1.041504078628453E+002;
8.425000000000000E+007;-2.600156707585890E+000;-1.040673295260577E+002;
8.427500000000000E+007;-2.553250284987579E+000;-1.074133642368854E+002;
8.430000000000000E+007;-2.394116516277277E+000;-1.071133481387060E+002;
8.432500000000000E+007;-2.383847300236881E+000;-1.078245625326756E+002;
8.435000000000000E+007;-2.228085896474968E+000;-1.082788238929955E+002;
8.437500000000000E+007;-2.168881192267268E+000;-1.098525292988176E+002;
8.440000000000000E+007;-2.087070988024680E+000;-1.105347452375115E+002;
8.442500000000000E+007;-1.961313984339717E+000;-1.111808230608394E+002;
8.445000000000000E+007;-1.940968655067884E+000;-1.145764437638294E+002;
8.447500000000000E+007;-1.889527621980026E+000;-1.135774352321523E+002;
8.450000000000000E+007;-1.816536325737521E+000;-1.138051528110806E+002;
8.452500000000000E+007;-1.733738685861244E+000;-1.130689160908968E+002;
8.455000000000000E+007;-1.686762421087324E+000;-1.142641556229065E+002;
8.457500000000000E+007;-1.667398282575397E+000;-1.149095185907309E+002;
8.460000000000000E+007;-1.616484913713559E+000;-1.153650757619049E+002;
8.462500000000000E+007;-1.598631590759936E+000;-1.160547994209973E+002;
8.465000000000000E+007;-1.505301912711294E+000;-1.164258345668207E+002;
8.467500000000000E+007;-1.523860906866011E+000;-1.173780360765798E+002;
8.470000000000000E+007;-1.472636843079591E+000;-1.180657900954647E+002;
8.472500000000000E+007;-1.418836480797281E+000;-1.186520489589551E+002;
8.475000000000000E+007;-1.352999246493082E+000;-1.184773600128882E+002;
8.477500000000000E+007;-1.334594420936259E+000;-1.189743956107222E+002;
8.480000000000000E+007;-1.356798753553024E+000;-1.201743943852299E+002;
8.482500000000000E+007;-1.289108826941945E+000;-1.191143187856675E+002;
8.485000000000000E+007;-1.261818823156691E+000;-1.194183050370124E+002;
8.487500000000000E+007;-1.234635215420392E+000;-1.208843024379848E+002;
8.490000000000000E+007;-1.201195784789656E+000;-1.198123071308985E+002;
8.492500000000000E+007;-1.224909922672592E+000;-1.221597147498256E+002;
8.495000000000000E+007;-1.149315809061853E+000;-1.207110746135505E+002;
8.497500000000000E+007;-1.140692961225301E+000;-1.214665100848609E+002;
8.500000000000000E+007;-1.127701771091162E+000;-1.220681004998649E+002;
8.502500000000000E+007;-1.155110405946961E+000;-1.221871192220769E+002;
8.505000000000000E+007;-1.113191188216031E+000;-1.235755356361040E+002;
8.507500000000000E+007;-1.071063743570081E+000;-1.220485931193624E+002;
8.510000000000000E+007;-1.002267497983121E+000;-1.208124005386768E+002;
8.512500000000000E+007;-1.070227876814425E+000;-1.230515724391773E+002;
8.515000000000000E+007;-1.072113168128984E+000;-1.236361417322005E+002;
8.517500000000000E+007;-1.045498287155444E+000;-1.242881642503019E+002;
8.520000000000000E+007;-1.037344170754274E+000;-1.246587523745294E+002;
8.522500000000000E+007;-1.059380824863969E+000;-1.251214027767115E+002;
8.525000000000000E+007;-9.290246472781897E-001;-1.232994063004859E+002;
8.527500000000000E+007;-9.651628079729211E-001;-1.245029074288923E+002;
8.530000000000000E+007;-9.861515722733705E-001;-1.255381618026273E+002;
8.532500000000000E+007;-9.281447501183542E-001;-1.240899995047295E+002;
8.535000000000000E+007;-9.969111717234409E-001;-1.268256168587258E+002;
8.537500000000000E+007;-9.700140340692647E-001;-1.257007895709942E+002;
8.540000000000000E+007;-9.394095634093208E-001;-1.272101931003072E+002;
8.542500000000000E+007;-9.255734787096622E-001;-1.258297493796680E+002;
8.545000000000000E+007;-9.368694208782346E-001;-1.265371326867158E+002;
8.547500000000000E+007;-8.773776527685938E-001;-1.250566232021220E+002;
8.550000000000000E+007;-9.143295021327623E-001;-1.276323148242784E+002;
8.552500000000000E+007;-9.512204007567319E-001;-1.281680265073546E+002;
8.555000000000000E+007;-8.738146884518973E-001;-1.265469265475310E+002;
8.557500000000000E+007;-8.895776066506025E-001;-1.268618658153704E+002;
8.560000000000000E+007;-8.282724099422594E-001;-1.269648199758058E+002;
8.562500000000000E+007;-8.248938062621717E-001;-1.263813743840854E+002;
8.565000000000000E+007;-8.676885396995263E-001;-1.271686185562810E+002;
8.567500000000000E+007;-9.028235438668348E-001;-1.288846112791723E+002;
8.570000000000000E+007;-8.328606816900274E-001;-1.282106302095630E+002;
8.572500000000000E+007;-8.149875239337743E-001;-1.275502133319107E+002;
8.575000000000000E+007;-8.410047974521613E-001;-1.285092226012763E+002;
8.577500000000000E+007;-8.392259139069819E-001;-1.280344851342174E+002;
8.580000000000000E+007;-8.167268866423969E-001;-1.295246078963181E+002;
8.582500000000000E+007;-7.491028868398643E-001;-1.269187526255696E+002;
8.585000000000000E+007;-8.613778241878738E-001;-1.294553407637841E+002;
8.587500000000000E+007;-7.786590728332368E-001;-1.279961772797915E+002;
8.590000000000000E+007;-7.816809032439532E-001;-1.291478365681321E+002;
8.592500000000000E+007;-8.143735120572997E-001;-1.297560657057131E+002;
8.595000000000000E+007;-8.120801372330653E-001;-1.297544100097088E+002;
8.597500000000000E+007;-7.377729628841102E-001;-1.282782449279675E+002;
8.600000000000000E+007;-7.926265075369500E-001;-1.294268838351013E+002;
