# Version 1.00
#
freq[Hz];re:Trc1_S11;im:Trc1_S11;
8.100000000000000E+007;-7.809816226787053E-001;-4.494792215975437E-001;
8.102500000000000E+007;-7.788977649135678E-001;-4.638971719372446E-001;
8.105000000000000E+007;-7.804877464607863E-001;-4.591612392794864E-001;
8.107500000000000E+007;-7.800116143967610E-001;-4.583114227099698E-001;
8.110000000000000E+007;-7.833592351459421E-001;-4.523902587070245E-001;
8.112500000000000E+007;-7.815538543884939E-001;-4.630204746106876E-001;
8.115000000000000E+007;-7.839031887525139E-001;-4.552795398579557E-001;
8.117500000000000E+007;-7.838901614640840E-001;-4.572900061437580E-001;
8.120000000000000E+007;-7.850963063405296E-001;-4.460890623127236E-001;
8.122500000000000E+007;-7.862241950464981E-001;-4.461915205199761E-001;
8.125000000000000E+007;-7.881001731500112E-001;-4.390463596426409E-001;
8.127500000000000E+007;-7.847177472967476E-001;-4.543018153992278E-001;
8.130000000000000E+007;-7.865145684608497E-001;-4.489816426826244E-001;
8.132500000000000E+007;-7.989980621800308E-001;-4.033367597828007E-001;
8.135000000000000E+007;-7.882359243483059E-001;-4.385020654587565E-001;
8.137500000000000E+007;-7.957233464690838E-001;-4.135348678266985E-001;
8.140000000000000E+007;-7.869415215785515E-001;-4.371089627165669E-001;
8.142500000000000E+007;-7.934947911977930E-001;-4.203454190509867E-001;
8.145000000000000E+007;-7.904946737509475E-001;-4.330789737687809E-001;
8.147500000000000E+007;-7.886831590068262E-001;-4.362603210060260E-001;
8.150000000000000E+007;-7.905623244382070E-001;-4.312157930196472E-001;
8.152500000000000E+007;-7.932291834369949E-001;-4.265739389368939E-001;
8.155000000000000E+007;-7.924143996121242E-001;-4.288115635867784E-001;
8.157500000000000E+007;-7.933816840870369E-001;-4.203175269627318E-001;
8.160000000000000E+007;-7.917680882703935E-001;-4.237269510693985E-001;
8.162500000000000E+007;-8.005328461327550E-001;-3.977207326137054E-001;
8.165000000000000E+007;-7.955270193006748E-001;-4.185401720128701E-001;
8.167500000000000E+007;-7.969763642204983E-001;-4.039981741030539E-001;
8.170000000000000E+007;-7.959395330370710E-001;-4.079754654081174E-001;
8.172500000000000E+007;-8.026789873011001E-001;-3.914540134538949E-001;
8.175000000000000E+007;-8.011870015571483E-001;-3.913514069780398E-001;
8.177500000000000E+007;-8.018364970036971E-001;-3.844801513635295E-001;
8.180000000000000E+007;-8.031188189047769E-001;-3.774226988201982E-001;
8.182500000000000E+007;-7.992062689432116E-001;-3.918956343760535E-001;
8.185000000000000E+007;-8.002007172010538E-001;-3.898999571485551E-001;
8.187500000000000E+007;-7.998592530282468E-001;-3.859262316250240E-001;
8.190000000000000E+007;-8.086486954671682E-001;-3.331036938661366E-001;
8.192500000000000E+007;-8.028641566436849E-001;-3.746472644024487E-001;
8.195000000000000E+007;-8.057446812636576E-001;-3.578882138272863E-001;
8.197500000000000E+007;-8.062964979034278E-001;-3.485481747340364E-001;
8.200000000000000E+007;-8.084597965310201E-001;-3.310956391115217E-001;
8.202500000000000E+007;-8.056360425760520E-001;-3.401200369071045E-001;
8.205000000000000E+007;-8.043609474594503E-001;-3.520194292140554E-001;
8.207500000000000E+007;-8.042639362318981E-001;-3.484400916143252E-001;
8.210000000000000E+007;-8.080207167640815E-001;-3.348549666807019E-001;
8.212500000000000E+007;-8.026069998417749E-001;-3.531865251877255E-001;
8.215000000000000E+007;-8.111741241196614E-001;-3.127896605354788E-001;
8.217500000000000E+007;-8.035035203516879E-001;-3.361543075781894E-001;
8.220000000000000E+007;-8.081908452090566E-001;-3.044362770289049E-001;
8.222500000000000E+007;-8.036342500386040E-001;-3.241295102693329E-001;
8.225000000000000E+007;-8.097941850218915E-001;-2.761673173794247E-001;
8.227500000000000E+007;-8.040371504767779E-001;-3.052930897359111E-001;
8.230000000000000E+007;-8.091884789278575E-001;-2.725276891377408E-001;
8.232500000000000E+007;-8.068788912875904E-001;-2.774617859867398E-001;
8.235000000000000E+007;-8.056794936290941E-001;-2.648066409515526E-001;
8.237500000000000E+007;-8.065121987595182E-001;-2.502843199660626E-001;
8.240000000000000E+007;-8.059219622038285E-001;-2.664728464413898E-001;
8.242500000000000E+007;-8.010948522875366E-001;-2.687652424360338E-001;
8.245000000000000E+007;-7.976877830235456E-001;-2.548551574980805E-001;
8.247500000000000E+007;-8.005828773255151E-001;-2.405092649761449E-001;
8.250000000000000E+007;-7.981837156882570E-001;-2.373763390467768E-001;
8.252500000000000E+007;-7.985643716330527E-001;-2.212259195486750E-001;
8.255000000000000E+007;-7.953387090696797E-001;-2.099756356503203E-001;
8.257500000000000E+007;-7.971158341057927E-001;-1.611963451267110E-001;
8.260000000000000E+007;-7.905219944196301E-001;-2.060138644863618E-001;
8.262500000000000E+007;-7.887700709618666E-001;-1.821996927951526E-001;
8.265000000000000E+007;-7.876729865060234E-001;-1.671676736421804E-001;
8.267500000000000E+007;-7.822369390354489E-001;-1.679289326520574E-001;
8.270000000000000E+007;-7.779929880111480E-001;-1.494588826953248E-001;
8.272500000000000E+007;-7.734195062506499E-001;-1.643986836557505E-001;
8.275000000000000E+007;-7.697722197367838E-001;-1.386856942807279E-001;
8.277500000000000E+007;-7.654239395136741E-001;-1.416871378144466E-001;
8.280000000000000E+007;-7.595846300318131E-001;-1.111268104840752E-001;
8.282500000000000E+007;-7.502712686305569E-001;-9.760472317083710E-002;
8.285000000000000E+007;-7.441906175464459E-001;-8.513414587082115E-002;
8.287500000000000E+007;-7.356527247365158E-001;-5.886381489733335E-002;
8.290000000000000E+007;-7.273781203486873E-001;-5.623385633156926E-002;
8.292500000000000E+007;-7.166423490614676E-001;-4.495230418406720E-002;
8.295000000000000E+007;-7.076625404302039E-001;-3.929636996449254E-002;
8.297500000000000E+007;-6.979678769629364E-001;-2.345398233332139E-002;
8.300000000000000E+007;-6.819244989666198E-001;-3.647068986471929E-003;
8.302500000000000E+007;-6.674196328681559E-001;9.846628375854320E-003;
8.305000000000000E+007;-6.484739678148093E-001;3.716250011431718E-002;
8.307500000000000E+007;-6.367951957387371E-001;3.982351203160488E-002;
8.310000000000000E+007;-6.156006100889411E-001;5.271765570775382E-002;
8.312500000000000E+007;-5.972565489125962E-001;6.049897095101160E-002;
8.315000000000000E+007;-5.733338034254889E-001;7.688364683285411E-002;
8.317500000000000E+007;-5.547978784321291E-001;6.905313603438432E-002;
8.320000000000000E+007;-5.234372311841208E-001;1.052632197527693E-001;
8.322500000000000E+007;-4.994158690801818E-001;1.062235183420127E-001;
8.325000000000000E+007;-4.680385315915700E-001;1.171644590400604E-001;
8.327500000000000E+007;-4.378126719387225E-001;1.246241376892072E-001;
8.330000000000000E+007;-4.085891230707397E-001;1.238384461520645E-001;
8.332500000000000E+007;-3.805431937901859E-001;1.136432294985920E-001;
8.335000000000000E+007;-3.355170492612398E-001;1.251944559085173E-001;
8.337500000000000E+007;-2.972187143019872E-001;1.240726931160759E-001;
8.340000000000000E+007;-2.649871203792018E-001;1.130308824331381E-001;
8.342500000000000E+007;-2.252763416575125E-001;1.033184684658750E-001;
8.345000000000000E+007;-1.940364615633592E-001;8.139876797119121E-002;
8.347500000000000E+007;-1.563012588626239E-001;6.633494105244840E-002;
8.350000000000000E+007;-1.177965068008509E-001;4.780515794084192E-002;
8.352500000000000E+007;-8.796495388484789E-002;2.526003699828690E-002;
8.355000000000000E+007;-5.668786083220973E-002;-6.912902892339172E-003;
8.357500000000000E+007;-2.920955411980059E-002;-3.881238953003569E-002;
8.360000000000000E+007;-5.707729830534200E-003;-7.409288439252211E-002;
8.362500000000000E+007;1.458724509771848E-002;-1.099076254179800E-001;
8.365000000000000E+007;2.937070263376048E-002;-1.472232863801426E-001;
8.367500000000000E+007;4.585174973153240E-002;-1.864122865790060E-001;
8.370000000000000E+007;5.821970224057575E-002;-2.228436669704559E-001;
8.372500000000000E+007;5.894752647156697E-002;-2.633801127874127E-001;
8.375000000000000E+007;6.176411380271310E-002;-3.022810193514932E-001;
8.377500000000000E+007;5.863769993848860E-002;-3.369377250583001E-001;
8.380000000000000E+007;5.691290218480444E-002;-3.727281709770743E-001;
8.382500000000000E+007;6.325262426461313E-002;-4.024281692254456E-001;
8.385000000000000E+007;4.735175656295703E-002;-4.366822701576740E-001;
8.387500000000000E+007;2.604612594880562E-002;-4.707824660315165E-001;
8.390000000000000E+007;2.479423099085609E-002;-4.983325172586642E-001;
8.392500000000000E+007;3.447305738513699E-003;-5.245616605589827E-001;
8.395000000000000E+007;-1.215688549625960E-002;-5.433548584278229E-001;
8.397500000000000E+007;-2.397414979669068E-002;-5.681413813744974E-001;
8.400000000000000E+007;-3.704900736011604E-002;-5.876156950647953E-001;
8.402500000000000E+007;-6.169080246056793E-002;-6.037928733668934E-001;
8.405000000000000E+007;-6.081904472020299E-002;-6.258365295665536E-001;
8.407500000000000E+007;-1.089945691321324E-001;-6.323154590542252E-001;
8.410000000000000E+007;-1.065526560339443E-001;-6.505347244439270E-001;
8.412500000000000E+007;-1.283580439458300E-001;-6.630175159045482E-001;
8.415000000000000E+007;-1.516222450677573E-001;-6.694967686941480E-001;
8.417500000000000E+007;-1.562967451097410E-001;-6.826448905123663E-001;
8.420000000000000E+007;-1.648332878223363E-001;-6.948548557224556E-001;
8.422500000000000E+007;-1.827442678746046E-001;-7.017033184647598E-001;
8.425000000000000E+007;-1.848672593534411E-001;-7.112057398050291E-001;
8.427500000000000E+007;-2.164005868124656E-001;-7.076393159259995E-001;
8.430000000000000E+007;-2.150026523925128E-001;-7.202925167997483E-001;
8.432500000000000E+007;-2.342803649528931E-001;-7.230949518498355E-001;
8.435000000000000E+007;-2.831496683074815E-001;-7.067478709612829E-001;
8.437500000000000E+007;-2.688461242559388E-001;-7.277548939923504E-001;
8.440000000000000E+007;-2.820820832284627E-001;-7.306962071975399E-001;
8.442500000000000E+007;-2.892071553856524E-001;-7.359231685753797E-001;
8.445000000000000E+007;-2.944398024280612E-001;-7.379162158983508E-001;
8.447500000000000E+007;-3.291611583662409E-001;-7.251929187340483E-001;
8.450000000000000E+007;-3.141978860020396E-001;-7.425389108131667E-001;
8.452500000000000E+007;-3.288783930162610E-001;-7.389609732945506E-001;
8.455000000000000E+007;-3.470569396056619E-001;-7.345413985947226E-001;
8.457500000000000E+007;-3.459270695767170E-001;-7.424525621407939E-001;
8.460000000000000E+007;-3.478686998533003E-001;-7.490300434362661E-001;
8.462500000000000E+007;-3.709248596506634E-001;-7.378839587355224E-001;
8.465000000000000E+007;-3.769444614858866E-001;-7.412160882134353E-001;
8.467500000000000E+007;-3.807662811541179E-001;-7.447855674105236E-001;
8.470000000000000E+007;-3.930109334557083E-001;-7.389954869661343E-001;
8.472500000000000E+007;-3.867736994334468E-001;-7.501493997091713E-001;
8.475000000000000E+007;-3.942525424585276E-001;-7.492679656408725E-001;
8.477500000000000E+007;-4.058923809095615E-001;-7.457437026491768E-001;
8.480000000000000E+007;-4.384669212841175E-001;-7.222493677641099E-001;
8.482500000000000E+007;-4.461416989559444E-001;-7.194182043624813E-001;
8.485000000000000E+007;-4.427824249841331E-001;-7.284988034939876E-001;
8.487500000000000E+007;-4.262420927262753E-001;-7.463057154367815E-001;
8.490000000000000E+007;-4.407186332358045E-001;-7.359399176079585E-001;
8.492500000000000E+007;-4.505538693401162E-001;-7.354547674210242E-001;
8.495000000000000E+007;-4.597610849686447E-001;-7.317938369947425E-001;
8.497500000000000E+007;-4.515562828679546E-001;-7.401479502047772E-001;
8.500000000000000E+007;-4.522937856953918E-001;-7.469060548665539E-001;
8.502500000000000E+007;-4.654253557833419E-001;-7.347713871541968E-001;
8.505000000000000E+007;-4.716103336788445E-001;-7.333112916411404E-001;
8.507500000000000E+007;-4.840536280545215E-001;-7.264891765013699E-001;
8.510000000000000E+007;-4.803098619202975E-001;-7.305825500842050E-001;
8.512500000000000E+007;-4.859646420058459E-001;-7.286692417780745E-001;
8.515000000000000E+007;-4.952371277320318E-001;-7.245147164816932E-001;
8.517500000000000E+007;-4.924568865970082E-001;-7.262914589732721E-001;
8.520000000000000E+007;-5.036991180782906E-001;-7.204215261213280E-001;
8.522500000000000E+007;-5.025138503450694E-001;-7.256875068299689E-001;
8.525000000000000E+007;-5.173776807678210E-001;-7.092655903529900E-001;
8.527500000000000E+007;-5.196728984060697E-001;-7.112625513276184E-001;
8.530000000000000E+007;-4.932648977886796E-001;-7.375774415626580E-001;
8.532500000000000E+007;-5.119932572742573E-001;-7.235247937797530E-001;
8.535000000000000E+007;-5.265916157540519E-001;-7.104812169318991E-001;
8.537500000000000E+007;-5.272058731310527E-001;-7.144305418793948E-001;
8.540000000000000E+007;-5.169975074609520E-001;-7.250703401527205E-001;
8.542500000000000E+007;-5.260301875970209E-001;-7.199740923785993E-001;
8.545000000000000E+007;-5.209945054449485E-001;-7.265882975594208E-001;
8.547500000000000E+007;-5.268408765160138E-001;-7.219203201892158E-001;
8.550000000000000E+007;-5.506896377953738E-001;-6.967819957370246E-001;
8.552500000000000E+007;-5.465709954126681E-001;-7.012201210155750E-001;
8.555000000000000E+007;-5.398128709933470E-001;-7.108598212346677E-001;
8.557500000000000E+007;-5.502378165352945E-001;-7.016278340345858E-001;
8.560000000000000E+007;-5.449828324722369E-001;-7.083609239608689E-001;
8.562500000000000E+007;-5.368433835744316E-001;-7.199306542085955E-001;
8.565000000000000E+007;-5.523126522775997E-001;-7.040917796826418E-001;
8.567500000000000E+007;-5.545752290700767E-001;-7.025820369729915E-001;
8.570000000000000E+007;-5.532817474171834E-001;-7.055884001459321E-001;
8.572500000000000E+007;-5.666552377547635E-001;-6.946132722294433E-001;
8.575000000000000E+007;-5.595220407969116E-001;-7.035898775150115E-001;
8.577500000000000E+007;-5.688807215780002E-001;-6.920103038868174E-001;
8.580000000000000E+007;-5.695759864958707E-001;-6.939630965017778E-001;
8.582500000000000E+007;-5.687764408336247E-001;-6.956084206923048E-001;
8.585000000000000E+007;-5.715590246091377E-001;-6.913676310632869E-001;
8.587500000000000E+007;-5.714192783274595E-001;-6.964003090665721E-001;
8.590000000000000E+007;-5.800220663808716E-001;-6.848779462737675E-001;
8.592500000000000E+007;-5.812527347559429E-001;-6.862271411024914E-001;
8.595000000000000E+007;-5.793648194479993E-001;-6.907874843519366E-001;
8.597500000000000E+007;-5.912883463403592E-001;-6.762742963340873E-001;
8.600000000000000E+007;-5.833086831653404E-001;-6.862079609668532E-001;
