# Version 1.00
#
freq[Hz];db:Trc1_S11;ang:Trc1_S11;
8.000000000000000E+007;-2.667053255958146E+000;4.473309870771603E+001;
8.003500000000000E+007;-2.640598398545695E+000;4.320186835055166E+001;
8.007000000000000E+007;-2.611491969592567E+000;4.132826910738432E+001;
8.010500000000000E+007;-2.664931123349764E+000;4.241794507324843E+001;
8.014000000000000E+007;-2.659162459433359E+000;4.079653021779209E+001;
8.017500000000000E+007;-2.713138886694466E+000;4.144342919840697E+001;
8.021000000000000E+007;-2.750401454526970E+000;3.976468789849211E+001;
8.024500000000000E+007;-2.721154272785554E+000;3.930830275901138E+001;
8.028000000000000E+007;-2.684390020006814E+000;3.820995851356580E+001;
8.031500000000000E+007;-2.762953205204848E+000;3.894235803768719E+001;
8.035000000000000E+007;-2.787930367188701E+000;3.959760992513403E+001;
8.038500000000000E+007;-2.751368526261984E+000;3.766073125537381E+001;
8.042000000000000E+007;-2.774977036319844E+000;3.659703601728713E+001;
8.045500000000000E+007;-2.817270218445993E+000;3.760900769066862E+001;
8.049000000000000E+007;-2.776247678174610E+000;3.522438873149414E+001;
8.052500000000000E+007;-2.865564218927356E+000;3.528466296593269E+001;
8.056000000000000E+007;-2.862334146450015E+000;3.565185449202334E+001;
8.059500000000000E+007;-2.878571515509148E+000;3.353763318222776E+001;
8.063000000000000E+007;-2.883062142678237E+000;3.566444627739261E+001;
8.066500000000000E+007;-2.897298368617884E+000;3.339603218370975E+001;
8.070000000000000E+007;-2.966931841660312E+000;3.366448500181443E+001;
8.073500000000000E+007;-3.010039288331301E+000;3.350619944014674E+001;
8.077000000000000E+007;-3.048587809681389E+000;3.428011090811229E+001;
8.080500000000000E+007;-3.014898079405145E+000;3.225084900935894E+001;
8.084000000000000E+007;-3.040973586859977E+000;3.079846077979682E+001;
8.087500000000000E+007;-3.033968402558265E+000;3.075854016323696E+001;
8.091000000000000E+007;-3.161542190206637E+000;3.172230647411946E+001;
8.094500000000000E+007;-3.078406102339383E+000;2.838140973210478E+001;
8.098000000000000E+007;-3.133602137739167E+000;2.844030956783278E+001;
8.101500000000000E+007;-3.172878742531299E+000;2.839620467665950E+001;
8.105000000000000E+007;-3.238513633836348E+000;2.731636069166562E+001;
8.108500000000000E+007;-3.256409516471436E+000;2.708737634319711E+001;
8.112000000000000E+007;-3.300919222715589E+000;2.727482276779786E+001;
8.115500000000000E+007;-3.268191809561271E+000;2.613893804145224E+001;
8.119000000000000E+007;-3.299068496316516E+000;2.527072181863035E+001;
8.122500000000000E+007;-3.313081593450042E+000;2.427311398390795E+001;
8.126000000000000E+007;-3.398127704914959E+000;2.376095929385199E+001;
8.129500000000000E+007;-3.451939014338520E+000;2.462789161379269E+001;
8.133000000000000E+007;-3.474060371584613E+000;2.321798795003528E+001;
8.136500000000000E+007;-3.566065682622073E+000;2.251137273841717E+001;
8.140000000000000E+007;-3.546231458839489E+000;2.239164794345169E+001;
8.143500000000000E+007;-3.596940201855788E+000;2.057871236719330E+001;
8.147000000000000E+007;-3.669961389920718E+000;2.180068451093840E+001;
8.150500000000000E+007;-3.719252318846686E+000;2.053334149127893E+001;
8.154000000000000E+007;-3.746802712291860E+000;2.041586435080710E+001;
8.157500000000000E+007;-3.797376555608707E+000;1.996492030559680E+001;
8.161000000000000E+007;-3.764181404877985E+000;1.726196016151500E+001;
8.164500000000000E+007;-3.883329594603076E+000;1.812307815502419E+001;
8.168000000000000E+007;-3.921880145621659E+000;1.606898995478750E+001;
8.171500000000000E+007;-3.945293262889118E+000;1.637036925907343E+001;
8.175000000000000E+007;-4.049487544444420E+000;1.622018124764029E+001;
8.178500000000000E+007;-4.161962327189559E+000;1.516962620400636E+001;
8.182000000000000E+007;-4.089742506414921E+000;1.256461954550210E+001;
8.185500000000000E+007;-4.237646253516728E+000;1.391296171629421E+001;
8.189000000000000E+007;-4.300113757314143E+000;1.308680123315119E+001;
8.192500000000000E+007;-4.410856224695052E+000;1.388706482558975E+001;
8.196000000000000E+007;-4.358753288737014E+000;1.005597125148723E+001;
8.199500000000000E+007;-4.575628428245446E+000;1.125359385701016E+001;
8.203000000000000E+007;-4.658591879396168E+000;1.089959124874432E+001;
8.206500000000000E+007;-4.662021714559196E+000;8.290487994287819E+000;
8.210000000000000E+007;-4.768469447582140E+000;9.687605039029998E+000;
8.213500000000000E+007;-4.866856897277216E+000;8.394873763892699E+000;
8.217000000000000E+007;-4.933286305899729E+000;6.746336901817645E+000;
8.220500000000000E+007;-5.075050783790277E+000;6.989950028172868E+000;
8.224000000000000E+007;-5.121005873885354E+000;4.899820650355734E+000;
8.227500000000000E+007;-5.277317776243639E+000;5.565566108250792E+000;
8.231000000000000E+007;-5.412051258320440E+000;3.939574434565457E+000;
8.234500000000000E+007;-5.514359447441676E+000;2.971960342653267E+000;
8.238000000000000E+007;-5.667539143519741E+000;2.116263667931477E+000;
8.241500000000000E+007;-5.776182578845247E+000;1.239390087742383E+000;
8.245000000000000E+007;-5.892635727557990E+000;-8.021945067827964E-002;
8.248500000000000E+007;-6.045451352112189E+000;-7.911558645363587E-001;
8.252000000000000E+007;-6.250768569261262E+000;-8.189470121320087E-001;
8.255500000000000E+007;-6.390917371514674E+000;-2.877054591811823E+000;
8.259000000000000E+007;-6.536473554114552E+000;-3.347230427056492E+000;
8.262500000000000E+007;-6.670973853869073E+000;-4.185867126576242E+000;
8.266000000000000E+007;-6.924176425782775E+000;-3.599494670133762E+000;
8.269500000000000E+007;-7.148505351598931E+000;-4.148094295766950E+000;
8.273000000000000E+007;-7.320781868058889E+000;-6.746421010529348E+000;
8.276500000000000E+007;-7.656569847368437E+000;-7.511869753505740E+000;
8.280000000000000E+007;-7.836803164183487E+000;-8.782583690809261E+000;
8.283500000000000E+007;-8.012869762887638E+000;-1.005979476124304E+001;
8.287000000000000E+007;-8.366487388675489E+000;-9.637963496759975E+000;
8.290500000000000E+007;-8.696183596485753E+000;-1.054079137537505E+001;
8.294000000000000E+007;-8.963765067986309E+000;-1.298250889037278E+001;
8.297500000000000E+007;-9.357920365357709E+000;-1.273019490087672E+001;
8.301000000000000E+007;-9.648956552422190E+000;-1.397834015091474E+001;
8.304500000000000E+007;-1.006369338458377E+001;-1.506648933979242E+001;
8.308000000000000E+007;-1.041176219414705E+001;-1.663605498722892E+001;
8.311500000000000E+007;-1.098093897169129E+001;-1.633501424549457E+001;
8.315000000000000E+007;-1.153001246955034E+001;-1.742999873406068E+001;
8.318500000000000E+007;-1.183632375760491E+001;-1.836280076263815E+001;
8.322000000000000E+007;-1.250544567551985E+001;-1.944186367169333E+001;
8.325500000000000E+007;-1.309436303384793E+001;-1.897222152140434E+001;
8.329000000000000E+007;-1.377990038088488E+001;-1.887453418722106E+001;
8.332500000000000E+007;-1.440239246116072E+001;-1.883132337355890E+001;
8.336000000000000E+007;-1.524360513537297E+001;-1.781076516331736E+001;
8.339500000000000E+007;-1.624926016390737E+001;-1.641638707992231E+001;
8.343000000000000E+007;-1.741195082193743E+001;-1.520997147217726E+001;
8.346500000000000E+007;-1.835922972125826E+001;-1.145643639563150E+001;
8.350000000000000E+007;-1.939247653911304E+001;-8.147802714216242E+000;
8.353500000000000E+007;-2.114626877242784E+001;-1.347859141947322E+000;
8.357000000000000E+007;-2.202356024893859E+001;6.213628231745208E+000;
8.360500000000000E+007;-2.298330596358184E+001;2.028033053330169E+001;
8.364000000000000E+007;-2.347060013729253E+001;3.201167528068502E+001;
8.367500000000000E+007;-2.386121224131614E+001;5.056335104607873E+001;
8.371000000000000E+007;-2.251780467598643E+001;5.996251548603321E+001;
8.374500000000000E+007;-2.097007353575355E+001;7.269214522919448E+001;
8.378000000000000E+007;-2.001450833676469E+001;7.829186047823200E+001;
8.381500000000000E+007;-1.877777588607171E+001;8.788594318338713E+001;
8.385000000000000E+007;-1.757290113106712E+001;8.793197101666773E+001;
8.388500000000000E+007;-1.626508961866188E+001;8.958706058366307E+001;
8.392000000000000E+007;-1.554521099139078E+001;9.226777122293845E+001;
8.395500000000000E+007;-1.453841222626816E+001;9.196657607313753E+001;
8.399000000000000E+007;-1.370384657651259E+001;9.319309302182931E+001;
8.402500000000000E+007;-1.297623582058786E+001;9.137775977352901E+001;
8.406000000000000E+007;-1.228727448492853E+001;9.224643508680012E+001;
8.409500000000000E+007;-1.176099642663672E+001;9.231345411712815E+001;
8.413000000000000E+007;-1.101506501123502E+001;8.850455772785494E+001;
8.416500000000000E+007;-1.066419712189103E+001;8.953649798119220E+001;
8.420000000000000E+007;-1.007807196262695E+001;8.818343584231793E+001;
8.423500000000000E+007;-9.603569161959003E+000;8.592642188433015E+001;
8.427000000000000E+007;-9.218118777981264E+000;8.604944259247606E+001;
8.430500000000000E+007;-8.875187364037156E+000;8.592225998251564E+001;
8.434000000000000E+007;-8.503110068303927E+000;8.553402735713422E+001;
8.437500000000000E+007;-8.084352156816454E+000;8.239138457070429E+001;
8.441000000000000E+007;-7.855037425512990E+000;8.197875593716101E+001;
8.444500000000000E+007;-7.527550044385631E+000;8.093451657184383E+001;
8.448000000000000E+007;-7.278220813589147E+000;7.886380596499308E+001;
8.451500000000000E+007;-6.970637953253164E+000;7.704606234626294E+001;
8.455000000000000E+007;-6.729166529311251E+000;7.608246330530147E+001;
8.458500000000000E+007;-6.441061651970260E+000;7.430391678254708E+001;
8.462000000000000E+007;-6.286175287767937E+000;7.546445929227612E+001;
8.465500000000000E+007;-6.123492926668740E+000;7.527291632210525E+001;
8.469000000000000E+007;-5.877987060916756E+000;7.185716182347309E+001;
8.472500000000000E+007;-5.781186991182502E+000;7.301599383646872E+001;
8.476000000000000E+007;-5.628108116138825E+000;7.111897014326577E+001;
8.479500000000000E+007;-5.395195105764533E+000;7.006508705548917E+001;
8.483000000000000E+007;-5.280225231946697E+000;6.890837791132343E+001;
8.486500000000000E+007;-5.116486707653864E+000;6.720459046648816E+001;
8.490000000000000E+007;-4.953839668240313E+000;6.539486188261725E+001;
8.493500000000000E+007;-4.903911802221423E+000;6.572804352689127E+001;
8.497000000000000E+007;-4.756320056177386E+000;6.474571936530839E+001;
8.500500000000000E+007;-4.642309119715509E+000;6.335162030268547E+001;
8.504000000000000E+007;-4.533949143762286E+000;6.389637289076794E+001;
8.507500000000000E+007;-4.435081064947589E+000;6.080563266142919E+001;
8.511000000000000E+007;-4.320785695739366E+000;5.959462790232752E+001;
8.514500000000000E+007;-4.188398856808965E+000;5.843243610009760E+001;
8.518000000000000E+007;-4.212016386291835E+000;6.010923960608466E+001;
8.521500000000000E+007;-4.105578662012282E+000;5.778113507959689E+001;
8.525000000000000E+007;-3.976072173352910E+000;5.700519338242220E+001;
8.528500000000000E+007;-3.884416386345322E+000;5.573690187165474E+001;
8.532000000000000E+007;-3.865742203652855E+000;5.483744113489367E+001;
8.535500000000000E+007;-3.777975482881400E+000;5.416906628363692E+001;
8.539000000000000E+007;-3.802835060477794E+000;5.514851910438716E+001;
8.542500000000000E+007;-3.635147615483831E+000;5.173994411930491E+001;
8.546000000000000E+007;-3.604871921958058E+000;5.186614268929596E+001;
8.549500000000000E+007;-3.548335278016075E+000;4.976753032821733E+001;
8.553000000000000E+007;-3.503558921977792E+000;4.971475865109446E+001;
8.556500000000000E+007;-3.469538381750360E+000;4.979562686419044E+001;
8.560000000000000E+007;-3.418768336533415E+000;4.830020708661104E+001;
8.563500000000000E+007;-3.378795639218116E+000;4.806452024864228E+001;
8.567000000000000E+007;-3.313175703955006E+000;4.742061608959303E+001;
8.570500000000000E+007;-3.321489620376997E+000;4.595890202427137E+001;
8.574000000000000E+007;-3.243170335571201E+000;4.590806094090414E+001;
8.577500000000000E+007;-3.229077717734548E+000;4.477436922271906E+001;
8.581000000000000E+007;-3.164852859407765E+000;4.369742078463990E+001;
8.584500000000000E+007;-3.130049698080318E+000;4.285716429051949E+001;
8.588000000000000E+007;-3.087998861272240E+000;4.163620579485288E+001;
8.591500000000000E+007;-3.069714512590849E+000;4.098098049921460E+001;
8.595000000000000E+007;-3.041070984150665E+000;4.029087280055933E+001;
8.598500000000000E+007;-3.035940494074461E+000;4.026441336787178E+001;
8.602000000000000E+007;-3.044820031761151E+000;4.104914878142741E+001;
8.605500000000000E+007;-3.018103394137158E+000;3.996498978776958E+001;
8.609000000000000E+007;-3.054880934760550E+000;4.019481638225858E+001;
8.612500000000000E+007;-2.963871159596710E+000;3.817318251676126E+001;
8.616000000000000E+007;-2.924963943942662E+000;3.627506823211328E+001;
8.619500000000000E+007;-2.888065703133981E+000;3.739164788222605E+001;
8.623000000000000E+007;-2.897157096794417E+000;3.624301951568196E+001;
8.626500000000000E+007;-2.875989098735230E+000;3.456036033122314E+001;
8.630000000000000E+007;-2.880454041896153E+000;3.535677012580526E+001;
8.633500000000000E+007;-2.840060169918152E+000;3.344252238302168E+001;
8.637000000000000E+007;-2.849704297346681E+000;3.431211892345159E+001;
8.640500000000000E+007;-2.841415391033166E+000;3.296858948959960E+001;
8.644000000000000E+007;-2.816766613587004E+000;3.350672268479683E+001;
8.647500000000000E+007;-2.857327781348880E+000;3.424686582519160E+001;
8.651000000000000E+007;-2.822189788177489E+000;3.172276814155426E+001;
8.654500000000000E+007;-2.791647226830409E+000;3.214642289034704E+001;
8.658000000000000E+007;-2.795012404201623E+000;2.906535461322580E+001;
8.661500000000000E+007;-2.745951869489453E+000;2.977982005387186E+001;
8.665000000000000E+007;-2.737261747778732E+000;2.965135873011780E+001;
8.668500000000000E+007;-2.740827069262987E+000;2.944911420136200E+001;
8.672000000000000E+007;-2.726831351135868E+000;2.800277469960009E+001;
8.675500000000000E+007;-2.773247045715950E+000;2.914637839713494E+001;
8.679000000000000E+007;-2.721787478158272E+000;2.764417735745439E+001;
8.682500000000000E+007;-2.699557350723693E+000;2.546795144567058E+001;
8.686000000000000E+007;-2.700378862802002E+000;2.611578883205594E+001;
8.689500000000000E+007;-2.718790546297671E+000;2.622569292677989E+001;
8.693000000000000E+007;-2.668929568877483E+000;2.440009331739428E+001;
8.696500000000000E+007;-2.682618317463617E+000;2.419958748806146E+001;
8.700000000000000E+007;-2.669300369915751E+000;2.310120566951833E+001;
