# Version 1.00
#
freq[Hz];db:Trc1_S11;ang:Trc1_S11;
8.000000000000000E+007;-2.499922198096714E+000;4.491160834399588E+001;
8.003500000000000E+007;-2.465901204171225E+000;4.396104114641703E+001;
8.007000000000000E+007;-2.528619461286747E+000;4.530819295318128E+001;
8.010500000000000E+007;-2.554205453427575E+000;4.448376845959090E+001;
8.014000000000000E+007;-2.558995288319453E+000;4.350277536575008E+001;
8.017500000000000E+007;-2.567962064136717E+000;4.318152802661694E+001;
8.021000000000000E+007;-2.544807929653126E+000;4.222454151983828E+001;
8.024500000000000E+007;-2.580496504114096E+000;4.332102517539080E+001;
8.028000000000000E+007;-2.584605929787688E+000;4.172990679816855E+001;
8.031500000000000E+007;-2.581315060704921E+000;4.081242072554204E+001;
8.035000000000000E+007;-2.673378453882042E+000;4.133609637212948E+001;
8.038500000000000E+007;-2.632571680622576E+000;4.050006348710434E+001;
8.042000000000000E+007;-2.630814443434580E+000;3.984732330332248E+001;
8.045500000000000E+007;-2.674140662922273E+000;4.012706528080356E+001;
8.049000000000000E+007;-2.716384658538277E+000;3.914270034987311E+001;
8.052500000000000E+007;-2.746581750705408E+000;4.056375086482579E+001;
8.056000000000000E+007;-2.644249990626110E+000;3.701971534296049E+001;
8.059500000000000E+007;-2.721652918662998E+000;3.747697728586156E+001;
8.063000000000000E+007;-2.747063904300218E+000;3.775009203926108E+001;
8.066500000000000E+007;-2.760871958409767E+000;3.694121546768056E+001;
8.070000000000000E+007;-2.726743222204841E+000;3.534001507080129E+001;
8.073500000000000E+007;-2.828839400410659E+000;3.658636859948256E+001;
8.077000000000000E+007;-2.837136571927998E+000;3.571588876535820E+001;
8.080500000000000E+007;-2.836014210063380E+000;3.604080580274710E+001;
8.084000000000000E+007;-2.869692228810022E+000;3.472193096434069E+001;
8.087500000000000E+007;-2.844477779455851E+000;3.404936182060988E+001;
8.091000000000000E+007;-2.859401219208917E+000;3.299635634580081E+001;
8.094500000000000E+007;-2.857729863909597E+000;3.229199579563973E+001;
8.098000000000000E+007;-2.967605726635654E+000;3.355134059470389E+001;
8.101500000000000E+007;-2.924493754667227E+000;3.049173409237163E+001;
8.105000000000000E+007;-2.976816158450280E+000;3.084695412646096E+001;
8.108500000000000E+007;-2.943933511588235E+000;3.070843860851855E+001;
8.112000000000000E+007;-3.042116860167549E+000;3.149746065140765E+001;
8.115500000000000E+007;-3.101338473234825E+000;3.065586475641169E+001;
8.119000000000000E+007;-3.122905630890773E+000;2.977306354557367E+001;
8.122500000000000E+007;-3.090797243035022E+000;2.741267872937234E+001;
8.126000000000000E+007;-3.112738416173157E+000;2.761885631549963E+001;
8.129500000000000E+007;-3.178026239729026E+000;2.818477435482953E+001;
8.133000000000000E+007;-3.143706500515834E+000;2.645246950464798E+001;
8.136500000000000E+007;-3.214624257808028E+000;2.686116051719367E+001;
8.140000000000000E+007;-3.298659247353122E+000;2.604830356267783E+001;
8.143500000000000E+007;-3.241103622033075E+000;2.432798632815444E+001;
8.147000000000000E+007;-3.277054515081316E+000;2.555554769449805E+001;
8.150500000000000E+007;-3.374363606823465E+000;2.474593783205696E+001;
8.154000000000000E+007;-3.407578961617470E+000;2.429394994249520E+001;
8.157500000000000E+007;-3.373075062172805E+000;2.172483600662684E+001;
8.161000000000000E+007;-3.492872388012651E+000;2.368340392927232E+001;
8.164500000000000E+007;-3.481356915964661E+000;2.157425789248091E+001;
8.168000000000000E+007;-3.480933984997262E+000;2.017794530312524E+001;
8.171500000000000E+007;-3.496280715934559E+000;2.034343105335636E+001;
8.175000000000000E+007;-3.585788089487985E+000;1.980005006477165E+001;
8.178500000000000E+007;-3.684212883364384E+000;2.038375652189986E+001;
8.182000000000000E+007;-3.658732769991448E+000;1.825208694233770E+001;
8.185500000000000E+007;-3.740263276060571E+000;1.813756634474252E+001;
8.189000000000000E+007;-3.769747009767043E+000;1.838716310095474E+001;
8.192500000000000E+007;-3.831936938349363E+000;1.706475188042581E+001;
8.196000000000000E+007;-3.946730828278469E+000;1.754368354372013E+001;
8.199500000000000E+007;-3.938000767265240E+000;1.472739755777754E+001;
8.203000000000000E+007;-3.980125137649937E+000;1.478828249366320E+001;
8.206500000000000E+007;-4.022424515411381E+000;1.322442446996760E+001;
8.210000000000000E+007;-4.137164471953250E+000;1.331160364983399E+001;
8.213500000000000E+007;-4.210390751995022E+000;1.297551116437875E+001;
8.217000000000000E+007;-4.267761837010019E+000;1.192036226582478E+001;
8.220500000000000E+007;-4.353700895803745E+000;1.167393981633905E+001;
8.224000000000000E+007;-4.477707235382979E+000;1.323287049424861E+001;
8.227500000000000E+007;-4.489485528904115E+000;1.098940392904585E+001;
8.231000000000000E+007;-4.543113320300766E+000;9.371343669439503E+000;
8.234500000000000E+007;-4.634646230749416E+000;9.003502690164520E+000;
8.238000000000000E+007;-4.689018747348911E+000;7.481586855028347E+000;
8.241500000000000E+007;-4.799822143458112E+000;6.557748973700055E+000;
8.245000000000000E+007;-4.921577414197558E+000;6.338882259932205E+000;
8.248500000000000E+007;-5.077613590572928E+000;6.506458277895145E+000;
8.252000000000000E+007;-5.039986709848980E+000;4.066968911514088E+000;
8.255500000000000E+007;-5.250953780732870E+000;4.832664637836937E+000;
8.259000000000000E+007;-5.341088223162174E+000;4.070947520566418E+000;
8.262500000000000E+007;-5.409701071931121E+000;1.445024420362882E+000;
8.266000000000000E+007;-5.546264359761129E+000;3.348491157383223E-001;
8.269500000000000E+007;-5.652186843009732E+000;-7.043912170360228E-001;
8.273000000000000E+007;-5.884375517849330E+000;-6.850031065333763E-002;
8.276500000000000E+007;-5.962075956288497E+000;-2.297323781001797E+000;
8.280000000000000E+007;-6.212864207842571E+000;-6.310222235395118E-001;
8.283500000000000E+007;-6.297311055565086E+000;-3.359581601739166E+000;
8.287000000000000E+007;-6.449077497319752E+000;-4.261511862748742E+000;
8.290500000000000E+007;-6.661761528027093E+000;-4.264368671952059E+000;
8.294000000000000E+007;-6.927373504139018E+000;-5.165004407235700E+000;
8.297500000000000E+007;-7.010937178687177E+000;-6.774651488668985E+000;
8.301000000000000E+007;-7.281946041151880E+000;-6.628484938852234E+000;
8.304500000000000E+007;-7.428287173783098E+000;-1.019711007809481E+001;
8.308000000000000E+007;-7.671089844789601E+000;-9.593679961494811E+000;
8.311500000000000E+007;-7.856942156390768E+000;-1.227295605367715E+001;
8.315000000000000E+007;-8.251998212787557E+000;-1.036540932875256E+001;
8.318500000000000E+007;-8.450290089207744E+000;-1.174770851411500E+001;
8.322000000000000E+007;-8.790378727506576E+000;-1.384286708725334E+001;
8.325500000000000E+007;-9.186173502913421E+000;-1.421360156541542E+001;
8.329000000000000E+007;-9.504784248688376E+000;-1.582459696302236E+001;
8.332500000000000E+007;-9.824596208546760E+000;-1.570229192152330E+001;
8.336000000000000E+007;-1.027965366224887E+001;-1.747414430568444E+001;
8.339500000000000E+007;-1.067311848163332E+001;-1.767717382163172E+001;
8.343000000000000E+007;-1.115985502161342E+001;-1.885753761559263E+001;
8.346500000000000E+007;-1.173386892432096E+001;-2.001154076125900E+001;
8.350000000000000E+007;-1.217046338379655E+001;-2.038375151291970E+001;
8.353500000000000E+007;-1.280691789438516E+001;-2.061985391633214E+001;
8.357000000000000E+007;-1.343005571850877E+001;-2.086877465917653E+001;
8.360500000000000E+007;-1.416310670508007E+001;-2.085624719224077E+001;
8.364000000000000E+007;-1.497080548306870E+001;-2.141299963564707E+001;
8.367500000000000E+007;-1.578491829134892E+001;-2.145292718053318E+001;
8.371000000000000E+007;-1.678010974383012E+001;-1.780501763927216E+001;
8.374500000000000E+007;-1.770085814284044E+001;-1.756754582099987E+001;
8.378000000000000E+007;-1.906641336334655E+001;-1.415423077206149E+001;
8.381500000000000E+007;-2.047056962367775E+001;-8.236434103166371E+000;
8.385000000000000E+007;-2.182670709155150E+001;-2.981330561812603E+000;
8.388500000000000E+007;-2.284355299282520E+001;9.551833359241590E+000;
8.392000000000000E+007;-2.420623534745605E+001;2.433852200964207E+001;
8.395500000000000E+007;-2.402734510413556E+001;3.991741435904821E+001;
8.399000000000000E+007;-2.326806989995822E+001;5.735632151764058E+001;
8.402500000000000E+007;-2.225139501078471E+001;6.776330022335944E+001;
8.406000000000000E+007;-2.078748260198909E+001;7.549395133601705E+001;
8.409500000000000E+007;-1.994142197816114E+001;8.431632247673919E+001;
8.413000000000000E+007;-1.810937164967989E+001;8.812013674021344E+001;
8.416500000000000E+007;-1.704335142274685E+001;9.134472283456947E+001;
8.420000000000000E+007;-1.588341924914383E+001;9.138689204246781E+001;
8.423500000000000E+007;-1.505356528822285E+001;8.859836455115844E+001;
8.427000000000000E+007;-1.427088721803025E+001;9.427630620403677E+001;
8.430500000000000E+007;-1.330788859067425E+001;9.107548665523349E+001;
8.434000000000000E+007;-1.260733920108708E+001;8.969810668545067E+001;
8.437500000000000E+007;-1.198078357747274E+001;9.200512946394149E+001;
8.441000000000000E+007;-1.140189810762394E+001;9.124989038699719E+001;
8.444500000000000E+007;-1.072456605795008E+001;8.702424451916042E+001;
8.448000000000000E+007;-1.037100707667825E+001;8.789200770934008E+001;
8.451500000000000E+007;-9.828631303256453E+000;8.667328231687223E+001;
8.455000000000000E+007;-9.396632395035578E+000;8.581618777537597E+001;
8.458500000000000E+007;-8.990014380354397E+000;8.542546581363867E+001;
8.462000000000000E+007;-8.659454590813679E+000;8.498596631330474E+001;
8.465500000000000E+007;-8.352647802316707E+000;8.472462660779851E+001;
8.469000000000000E+007;-8.007143878697089E+000;8.282886315366905E+001;
8.472500000000000E+007;-7.729846996702757E+000;8.160196208991746E+001;
8.476000000000000E+007;-7.385382180145511E+000;7.932936299215642E+001;
8.479500000000000E+007;-7.153384054813849E+000;7.935408422737510E+001;
8.483000000000000E+007;-6.920328374792744E+000;7.751460033109204E+001;
8.486500000000000E+007;-6.623127846799829E+000;7.492268582884233E+001;
8.490000000000000E+007;-6.419810479118412E+000;7.374163709563597E+001;
8.493500000000000E+007;-6.165402011515581E+000;7.204686669178085E+001;
8.497000000000000E+007;-6.033425476827977E+000;7.265529414083849E+001;
8.500500000000000E+007;-5.825629789201555E+000;6.971148638838263E+001;
8.504000000000000E+007;-5.664314766363147E+000;7.087415037582855E+001;
8.507500000000000E+007;-5.501337810205348E+000;6.894878555649925E+001;
8.511000000000000E+007;-5.330979731388335E+000;6.780011832439810E+001;
8.514500000000000E+007;-5.142872424217202E+000;6.604654387217241E+001;
8.518000000000000E+007;-5.096342974139762E+000;6.767071731338459E+001;
8.521500000000000E+007;-4.889938348378224E+000;6.364334466972541E+001;
8.525000000000000E+007;-4.816874545357401E+000;6.385078550956924E+001;
8.528500000000000E+007;-4.673414813450496E+000;6.214036951123827E+001;
8.532000000000000E+007;-4.631530107892728E+000;6.364179289856466E+001;
8.535500000000000E+007;-4.543646218945048E+000;6.183861568343049E+001;
8.539000000000000E+007;-4.368877606136112E+000;5.955102703903851E+001;
8.542500000000000E+007;-4.365350096783651E+000;5.949239953732192E+001;
8.546000000000000E+007;-4.162614256694499E+000;5.775345440103639E+001;
8.549500000000000E+007;-4.067158835675974E+000;5.652695684018044E+001;
8.553000000000000E+007;-4.048915212881827E+000;5.718719058763439E+001;
8.556500000000000E+007;-4.017516364794533E+000;5.607375212123869E+001;
8.560000000000000E+007;-3.969871893648131E+000;5.636276135318186E+001;
8.563500000000000E+007;-3.793839947003560E+000;5.365753530004299E+001;
8.567000000000000E+007;-3.781531508898405E+000;5.314103948413366E+001;
8.570500000000000E+007;-3.703699199535574E+000;5.205116222122919E+001;
8.574000000000000E+007;-3.636910593604335E+000;5.195941110865969E+001;
8.577500000000000E+007;-3.603047694736040E+000;5.016894738476681E+001;
8.581000000000000E+007;-3.539976005600675E+000;5.113965103987746E+001;
8.584500000000000E+007;-3.537467810167661E+000;4.899487902778401E+001;
8.588000000000000E+007;-3.508232780656102E+000;4.906064931163799E+001;
8.591500000000000E+007;-3.403895671523809E+000;4.830508502827757E+001;
8.595000000000000E+007;-3.377501132738025E+000;4.721339277085715E+001;
8.598500000000000E+007;-3.300044011865989E+000;4.609912184370869E+001;
8.602000000000000E+007;-3.332240800874136E+000;4.525207284374132E+001;
8.605500000000000E+007;-3.303977200781168E+000;4.480068514977200E+001;
8.609000000000000E+007;-3.247425603800033E+000;4.412355211551906E+001;
8.612500000000000E+007;-3.171740357369589E+000;4.259995654077058E+001;
8.616000000000000E+007;-3.212275381881662E+000;4.294807935993149E+001;
8.619500000000000E+007;-3.116141757908042E+000;4.088972226748585E+001;
8.623000000000000E+007;-3.123950672904488E+000;4.055883082156633E+001;
8.626500000000000E+007;-3.092748690595611E+000;4.131944769988877E+001;
8.630000000000000E+007;-2.997071703874593E+000;3.905073989235324E+001;
8.633500000000000E+007;-3.028310269493152E+000;3.938731585948533E+001;
8.637000000000000E+007;-2.955258459900700E+000;3.618427037332145E+001;
8.640500000000000E+007;-2.961517086125979E+000;3.720968717424167E+001;
8.644000000000000E+007;-2.960176511159986E+000;3.688840659673168E+001;
8.647500000000000E+007;-2.957550578213689E+000;3.710312219462932E+001;
8.651000000000000E+007;-2.899031159052075E+000;3.479066791755972E+001;
8.654500000000000E+007;-2.927163592709119E+000;3.489832894591324E+001;
8.658000000000000E+007;-2.890948023959003E+000;3.548109219062256E+001;
8.661500000000000E+007;-2.870411347470410E+000;3.469725586553332E+001;
8.665000000000000E+007;-2.857210958946622E+000;3.389934494884062E+001;
8.668500000000000E+007;-2.842347117001703E+000;3.317798188772571E+001;
8.672000000000000E+007;-2.823732599024416E+000;3.287357700061235E+001;
8.675500000000000E+007;-2.778179820207480E+000;3.098307564040170E+001;
8.679000000000000E+007;-2.768025381497346E+000;3.028790873112955E+001;
8.682500000000000E+007;-2.821990201158372E+000;3.147563654039408E+001;
8.686000000000000E+007;-2.836932041816057E+000;3.015710720363641E+001;
8.689500000000000E+007;-2.796789159614023E+000;3.054114132290105E+001;
8.693000000000000E+007;-2.785642200658515E+000;2.944137600753442E+001;
8.696500000000000E+007;-2.802714940839223E+000;2.950954966134584E+001;
8.700000000000000E+007;-2.718983058715841E+000;2.766290646213645E+001;
