# Version 1.00
#
freq[Hz];db:Trc1_S11;ang:Trc1_S11;
8.000000000000000E+007;-8.272303417825678E-001;-1.535626477211910E+002;
8.004500000000000E+007;-8.476737639456129E-001;-1.547552516673700E+002;
8.009000000000000E+007;-8.074199159789575E-001;-1.540313230028422E+002;
8.013500000000000E+007;-8.392626796934768E-001;-1.554867086835060E+002;
8.018000000000000E+007;-8.237314258598778E-001;-1.550817713267069E+002;
8.022500000000000E+007;-8.653894935624097E-001;-1.567386571771020E+002;
8.027000000000000E+007;-8.271486166814611E-001;-1.561201866163000E+002;
8.031500000000000E+007;-8.285153067251531E-001;-1.565401570438937E+002;
8.036000000000000E+007;-8.786651615213462E-001;-1.584718154569176E+002;
8.040500000000000E+007;-9.062347399746441E-001;-1.582218794159892E+002;
8.045000000000000E+007;-9.751228309340508E-001;-1.601559477222654E+002;
8.049500000000000E+007;-9.601080282276303E-001;-1.602815238904422E+002;
8.054000000000000E+007;-9.162921239944539E-001;-1.601874152117913E+002;
8.058500000000000E+007;-9.400143491193955E-001;-1.599184150914804E+002;
8.063000000000000E+007;-9.729886648338939E-001;-1.614327178029187E+002;
8.067500000000000E+007;-9.349112410078280E-001;-1.601462963768549E+002;
8.072000000000000E+007;-9.748349749439417E-001;-1.610859243836543E+002;
8.076500000000000E+007;-1.039093417651118E+000;-1.634550756848040E+002;
8.081000000000000E+007;-1.008137878573985E+000;-1.631923418671901E+002;
8.085500000000000E+007;-1.079300610157434E+000;-1.632143197948578E+002;
8.090000000000000E+007;-1.084273083538751E+000;-1.645303620216492E+002;
8.094500000000000E+007;-1.061345135952314E+000;-1.650282838115287E+002;
8.099000000000000E+007;-1.124723830158704E+000;-1.660870935215298E+002;
8.103500000000000E+007;-1.157648734614923E+000;-1.669150838463960E+002;
8.108000000000000E+007;-1.133837565320151E+000;-1.667300812200498E+002;
8.112500000000000E+007;-1.221144989367965E+000;-1.676235567286722E+002;
8.117000000000000E+007;-1.223564814263500E+000;-1.686366707695749E+002;
8.121500000000000E+007;-1.299029398746247E+000;-1.705388211728501E+002;
8.126000000000000E+007;-1.355486925362904E+000;-1.715200808682317E+002;
8.130500000000000E+007;-1.371369315941027E+000;-1.723853551185202E+002;
8.135000000000000E+007;-1.448646708277666E+000;-1.728614826031578E+002;
8.139500000000000E+007;-1.473592504267285E+000;-1.734819386231118E+002;
8.144000000000000E+007;-1.597680818364636E+000;-1.760662202935899E+002;
8.148500000000000E+007;-1.658648747756486E+000;-1.771606421999793E+002;
8.153000000000000E+007;-1.746873673530328E+000;-1.778859943406605E+002;
8.157500000000000E+007;-1.819799192503847E+000;-1.784889479315092E+002;
8.162000000000000E+007;-1.945421726454082E+000;1.783865985010026E+002;
8.166500000000000E+007;-2.039671588663883E+000;1.785989934537817E+002;
8.171000000000000E+007;-2.189479395394771E+000;1.764122902010501E+002;
8.175500000000000E+007;-2.357848628274181E+000;1.739410400762881E+002;
8.180000000000000E+007;-2.546366688355368E+000;1.732096280462839E+002;
8.184500000000000E+007;-2.755180696654842E+000;1.706288431732600E+002;
8.189000000000000E+007;-3.011375966999871E+000;1.696673637409941E+002;
8.193500000000000E+007;-3.203280990988896E+000;1.673998745567749E+002;
8.198000000000000E+007;-3.632395468205067E+000;1.620426994013804E+002;
8.202500000000000E+007;-4.029587857708812E+000;1.609495298865286E+002;
8.207000000000000E+007;-4.501359530340418E+000;1.586960712766831E+002;
8.211500000000000E+007;-5.127879090910118E+000;1.561097760814062E+002;
8.216000000000000E+007;-5.793547859357101E+000;1.534737797426961E+002;
8.220500000000000E+007;-6.679026937857163E+000;1.491250724247815E+002;
8.225000000000000E+007;-7.866011791665316E+000;1.447947351388600E+002;
8.229500000000000E+007;-9.229441454217602E+000;1.423899598054911E+002;
8.234000000000000E+007;-1.098821559356637E+001;1.384052883991166E+002;
8.238500000000000E+007;-1.360319828070569E+001;1.348137044769258E+002;
8.243000000000000E+007;-1.751625326998959E+001;1.328949920930458E+002;
8.247500000000000E+007;-2.501030654162318E+001;1.468865877599163E+002;
8.252000000000000E+007;-2.767959086765397E+001;-1.063190081404857E+002;
8.256500000000000E+007;-1.895917509406558E+001;-8.466461396175829E+001;
8.261000000000000E+007;-1.455304750189162E+001;-8.608664220372127E+001;
8.265500000000000E+007;-1.168794640877126E+001;-8.781403244873843E+001;
8.270000000000000E+007;-9.689686338666329E+000;-9.145300221263499E+001;
8.274500000000000E+007;-8.151327710640302E+000;-9.521230477711235E+001;
8.279000000000000E+007;-6.990732587379342E+000;-9.979266211690349E+001;
8.283500000000000E+007;-6.022780013989229E+000;-1.016866660276857E+002;
8.288000000000000E+007;-5.313535336221425E+000;-1.063115768026584E+002;
8.292500000000000E+007;-4.657566802982430E+000;-1.098594012216943E+002;
8.297000000000000E+007;-4.210704276708318E+000;-1.131364101700060E+002;
8.301500000000000E+007;-3.717715615835732E+000;-1.152705158004278E+002;
8.306000000000000E+007;-3.368524168934264E+000;-1.160791800334480E+002;
8.310500000000000E+007;-3.071552268818356E+000;-1.190170196537349E+002;
8.315000000000000E+007;-2.847185517888034E+000;-1.212703871025537E+002;
8.319500000000000E+007;-2.596433327808899E+000;-1.230529622240372E+002;
8.324000000000000E+007;-2.379658253431399E+000;-1.262571170246147E+002;
8.328500000000000E+007;-2.238573681174202E+000;-1.272393539063700E+002;
8.333000000000000E+007;-2.070413117461014E+000;-1.278400559963562E+002;
8.337500000000000E+007;-1.975530266152698E+000;-1.312357753946962E+002;
8.342000000000000E+007;-1.921765632838322E+000;-1.313496257152148E+002;
8.346500000000000E+007;-1.789462980268253E+000;-1.341525298673525E+002;
8.351000000000000E+007;-1.699422696619768E+000;-1.355761507626092E+002;
8.355500000000000E+007;-1.667149046609573E+000;-1.365694472061130E+002;
8.360000000000000E+007;-1.525972195427000E+000;-1.365557051175437E+002;
8.364500000000000E+007;-1.475493878120694E+000;-1.387598396526779E+002;
8.369000000000000E+007;-1.412402109568081E+000;-1.387912284221384E+002;
8.373500000000000E+007;-1.367984683143203E+000;-1.390827685367123E+002;
8.378000000000000E+007;-1.291135046549746E+000;-1.400841852907632E+002;
8.382500000000000E+007;-1.293996946296749E+000;-1.419603672299581E+002;
8.387000000000000E+007;-1.190299937189424E+000;-1.407395338632248E+002;
8.391500000000000E+007;-1.173552384232146E+000;-1.433045427073432E+002;
8.396000000000000E+007;-1.178082495870101E+000;-1.442023799657366E+002;
8.400500000000000E+007;-1.183269653459812E+000;-1.466119146028857E+002;
8.405000000000000E+007;-1.133517455554183E+000;-1.460867784930501E+002;
8.409500000000000E+007;-1.115655972053407E+000;-1.469482457331388E+002;
8.414000000000000E+007;-1.097444486523588E+000;-1.479121483112149E+002;
8.418500000000000E+007;-1.072158772945622E+000;-1.481063922422239E+002;
8.423000000000000E+007;-1.042836843867057E+000;-1.478399037257493E+002;
8.427500000000000E+007;-9.884581666993589E-001;-1.483016420011284E+002;
8.432000000000000E+007;-1.024471869033546E+000;-1.506034832494388E+002;
8.436500000000000E+007;-9.933793285361299E-001;-1.503082726263176E+002;
8.441000000000000E+007;-9.972543410150866E-001;-1.515315456639825E+002;
8.445500000000000E+007;-9.515154166341013E-001;-1.514583152927117E+002;
8.450000000000000E+007;-1.011154744662108E+000;-1.531251431462487E+002;
8.454500000000000E+007;-9.707571830442420E-001;-1.526310798058541E+002;
8.459000000000000E+007;-9.305984800336635E-001;-1.536477280961909E+002;
8.463500000000000E+007;-8.881067230329485E-001;-1.524666203469434E+002;
8.468000000000000E+007;-9.411957046639419E-001;-1.545840844208222E+002;
8.472500000000000E+007;-9.226818535339406E-001;-1.553366198932164E+002;
8.477000000000000E+007;-8.668270816441802E-001;-1.542948632029780E+002;
8.481500000000000E+007;-8.649914495257146E-001;-1.545829125781996E+002;
8.486000000000000E+007;-8.427114417530055E-001;-1.544813793798449E+002;
8.490500000000000E+007;-9.120758206213290E-001;-1.571345486203211E+002;
8.495000000000000E+007;-8.384644298366393E-001;-1.569038707897060E+002;
8.499500000000000E+007;-8.877885824930188E-001;-1.576018995723624E+002;
8.504000000000000E+007;-8.422342438674670E-001;-1.580332099303437E+002;
8.508500000000000E+007;-8.205723062409404E-001;-1.570464931853370E+002;
8.513000000000000E+007;-8.337436895961483E-001;-1.579204447438901E+002;
8.517500000000000E+007;-8.174457134230038E-001;-1.579112973560150E+002;
8.522000000000000E+007;-8.093416163999174E-001;-1.592036105963679E+002;
8.526500000000000E+007;-7.845690156336878E-001;-1.585730716231404E+002;
8.531000000000000E+007;-8.564776823902407E-001;-1.615177584312034E+002;
8.535500000000000E+007;-8.096452596484141E-001;-1.592931028325172E+002;
8.540000000000000E+007;-7.642492720456087E-001;-1.598215585163405E+002;
8.544500000000000E+007;-8.182019197167396E-001;-1.619931117553515E+002;
8.549000000000000E+007;-8.142335397136897E-001;-1.624023982849850E+002;
8.553500000000000E+007;-7.952551243563483E-001;-1.617038632271584E+002;
8.558000000000000E+007;-7.721885664720545E-001;-1.618577733027332E+002;
8.562500000000000E+007;-8.173802925899503E-001;-1.641919477217642E+002;
8.567000000000000E+007;-7.800725699305058E-001;-1.619404832939332E+002;
8.571500000000000E+007;-7.871867486320905E-001;-1.628807523445704E+002;
8.576000000000000E+007;-7.768116416144448E-001;-1.638587838385878E+002;
8.580500000000000E+007;-7.706701841710651E-001;-1.633969699768017E+002;
8.585000000000000E+007;-8.450933021594562E-001;-1.651003372099353E+002;
8.589500000000000E+007;-7.491056331833172E-001;-1.648331204888419E+002;
8.594000000000000E+007;-7.897908570495441E-001;-1.652184989002844E+002;
8.598500000000000E+007;-7.727530610377921E-001;-1.648814832133212E+002;
8.603000000000000E+007;-7.923716292979393E-001;-1.661177506057451E+002;
8.607500000000000E+007;-7.980884617925491E-001;-1.662672107049628E+002;
8.612000000000000E+007;-7.784956993334011E-001;-1.667045606209160E+002;
8.616500000000000E+007;-7.572269949796316E-001;-1.668296279429725E+002;
8.621000000000000E+007;-7.616849853854265E-001;-1.673928480317389E+002;
8.625500000000000E+007;-7.796118969235032E-001;-1.678361683557685E+002;
8.630000000000000E+007;-7.483980174267614E-001;-1.668712959953863E+002;
8.634500000000000E+007;-7.621912839767806E-001;-1.679716938660268E+002;
8.639000000000000E+007;-7.302180178227034E-001;-1.676714603550718E+002;
8.643500000000000E+007;-7.554737367766556E-001;-1.688124257078799E+002;
8.648000000000000E+007;-7.474514328027297E-001;-1.686812382852307E+002;
8.652500000000000E+007;-7.600959445209597E-001;-1.698979058755875E+002;
8.657000000000000E+007;-7.622027918549583E-001;-1.692986073491203E+002;
8.661500000000000E+007;-7.656894967017164E-001;-1.701585608314248E+002;
8.666000000000000E+007;-6.979922712299170E-001;-1.683703641155639E+002;
8.670500000000000E+007;-7.232519395693501E-001;-1.697863326017496E+002;
8.675000000000000E+007;-7.465790641867260E-001;-1.709611178381794E+002;
8.679500000000000E+007;-7.027778220400632E-001;-1.708730501441355E+002;
8.684000000000000E+007;-7.562118183302872E-001;-1.706320413116606E+002;
8.688500000000000E+007;-6.541175062672370E-001;-1.691333223690510E+002;
8.693000000000000E+007;-6.736264276765001E-001;-1.707115228328154E+002;
8.697500000000000E+007;-7.172817523974542E-001;-1.708710909551679E+002;
8.702000000000000E+007;-7.169218933529897E-001;-1.721392394471712E+002;
8.706500000000000E+007;-7.525605006679492E-001;-1.732799718434366E+002;
8.711000000000000E+007;-7.526731718765842E-001;-1.734584965535064E+002;
8.715500000000000E+007;-7.320565860909332E-001;-1.729293559352983E+002;
8.720000000000000E+007;-7.295397604088072E-001;-1.729621684577005E+002;
8.724500000000000E+007;-6.841361764892134E-001;-1.726748165183908E+002;
8.729000000000000E+007;-7.012859660756023E-001;-1.735528535263102E+002;
8.733500000000000E+007;-7.793022621481571E-001;-1.759220926261906E+002;
8.738000000000000E+007;-7.083713000405950E-001;-1.749745015236222E+002;
8.742500000000000E+007;-6.960381927597253E-001;-1.745040686335541E+002;
8.747000000000000E+007;-6.872613736003882E-001;-1.728624472147116E+002;
8.751500000000000E+007;-7.439631421253823E-001;-1.757576956447349E+002;
8.756000000000000E+007;-6.854593925425626E-001;-1.754156746142096E+002;
8.760500000000000E+007;-7.238362205363054E-001;-1.762004264641155E+002;
8.765000000000000E+007;-7.454948553594153E-001;-1.775065107329573E+002;
8.769500000000000E+007;-7.158745429902588E-001;-1.772990314771573E+002;
8.774000000000000E+007;-7.491027897993752E-001;-1.779040082016740E+002;
8.778500000000000E+007;-7.220632485644221E-001;-1.786226932657995E+002;
8.783000000000000E+007;-7.090093952830564E-001;-1.775445511434964E+002;
8.787500000000000E+007;-7.273836248877340E-001;-1.782853619982297E+002;
8.792000000000000E+007;-7.186940922139444E-001;-1.785424581695302E+002;
8.796500000000000E+007;-7.464264725132191E-001;-1.784142307831365E+002;
8.801000000000000E+007;-7.319131148727700E-001;1.795406706631698E+002;
8.805500000000000E+007;-6.814069166114096E-001;-1.773312503460978E+002;
8.810000000000000E+007;-6.710876257061864E-001;-1.782647628252281E+002;
8.814500000000000E+007;-6.841957553909394E-001;-1.774298984304626E+002;
8.819000000000000E+007;-7.087468612641312E-001;1.796526634997976E+002;
8.823500000000000E+007;-7.045396469184782E-001;1.797010268857800E+002;
8.828000000000000E+007;-7.321833950790349E-001;1.796259067468785E+002;
8.832500000000000E+007;-7.285664133577352E-001;1.791044110213998E+002;
8.837000000000000E+007;-7.293573798705682E-001;1.790389882219084E+002;
8.841500000000000E+007;-7.136745178451526E-001;1.787621574135576E+002;
8.846000000000000E+007;-7.185873730401117E-001;1.782665681509261E+002;
8.850500000000000E+007;-6.931935246170715E-001;1.786018291590939E+002;
8.855000000000000E+007;-6.824810118274642E-001;1.787246064405829E+002;
8.859500000000000E+007;-7.071455197276676E-001;1.785952323641910E+002;
8.864000000000000E+007;-6.942071347086541E-001;1.779603048135988E+002;
8.868500000000000E+007;-7.248676559720885E-001;1.770650495687358E+002;
8.873000000000000E+007;-6.845045591745262E-001;1.776981654334398E+002;
8.877500000000000E+007;-6.991834645498652E-001;1.768161643895737E+002;
8.882000000000000E+007;-6.949027917294159E-001;1.778063170594731E+002;
8.886500000000000E+007;-6.557174685433380E-001;1.780184886203554E+002;
8.891000000000000E+007;-7.112973243395295E-001;1.766720341204374E+002;
8.895500000000000E+007;-6.827905086711330E-001;1.753657764287244E+002;
8.900000000000000E+007;-6.942541951734138E-001;1.769441062291643E+002;
