# Version 1.00
#
freq[Hz];db:Trc1_S11;ang:Trc1_S11;
8.000000000000000E+007;-8.359821124501358E-001;-1.528172907962861E+002;
8.004500000000000E+007;-7.840594940707595E-001;-1.527576748562722E+002;
8.009000000000000E+007;-7.763883881711569E-001;-1.527507752977933E+002;
8.013500000000000E+007;-8.318962441076809E-001;-1.547530112806139E+002;
8.018000000000000E+007;-7.869270062942790E-001;-1.544251729583535E+002;
8.022500000000000E+007;-8.213393313613822E-001;-1.545926664983549E+002;
8.027000000000000E+007;-7.994708976697339E-001;-1.539664092103601E+002;
8.031500000000000E+007;-8.751795242371394E-001;-1.570620559638083E+002;
8.036000000000000E+007;-8.818800616042217E-001;-1.570007622206853E+002;
8.040500000000000E+007;-8.955339407773759E-001;-1.573260328893193E+002;
8.045000000000000E+007;-8.656670809414792E-001;-1.577382819631222E+002;
8.049500000000000E+007;-9.354106414718463E-001;-1.590338306972341E+002;
8.054000000000000E+007;-8.966253164840092E-001;-1.586621351005968E+002;
8.058500000000000E+007;-8.728389421296993E-001;-1.580496792507027E+002;
8.063000000000000E+007;-8.856048029739028E-001;-1.592454962890432E+002;
8.067500000000000E+007;-9.351667841759229E-001;-1.592938313864129E+002;
8.072000000000000E+007;-9.325328715731893E-001;-1.609078642262480E+002;
8.076500000000000E+007;-9.767494666970723E-001;-1.607936859468369E+002;
8.081000000000000E+007;-9.797102873754870E-001;-1.620992734297935E+002;
8.085500000000000E+007;-9.187567282494631E-001;-1.615342378245868E+002;
8.090000000000000E+007;-9.875512766478278E-001;-1.622936715026353E+002;
8.094500000000000E+007;-9.595555674679537E-001;-1.615997853728875E+002;
8.099000000000000E+007;-1.054179584335415E+000;-1.646291482691264E+002;
8.103500000000000E+007;-9.996804132663822E-001;-1.621019794408124E+002;
8.108000000000000E+007;-1.147607142951093E+000;-1.670149733327253E+002;
8.112500000000000E+007;-1.052995275980638E+000;-1.652930508979896E+002;
8.117000000000000E+007;-1.112861953657728E+000;-1.660009837900724E+002;
8.121500000000000E+007;-1.126851463200652E+000;-1.660357659957363E+002;
8.126000000000000E+007;-1.182274999380619E+000;-1.686244683722414E+002;
8.130500000000000E+007;-1.269643122767033E+000;-1.705561707336391E+002;
8.135000000000000E+007;-1.211840010441680E+000;-1.687845551316615E+002;
8.139500000000000E+007;-1.307614991530626E+000;-1.711951578955718E+002;
8.144000000000000E+007;-1.318287475977809E+000;-1.714428275463327E+002;
8.148500000000000E+007;-1.370395460287627E+000;-1.722254199586365E+002;
8.153000000000000E+007;-1.476550514690376E+000;-1.746679284531926E+002;
8.157500000000000E+007;-1.480238382549299E+000;-1.745990150231443E+002;
8.162000000000000E+007;-1.646025691845427E+000;-1.774731803432881E+002;
8.166500000000000E+007;-1.654602767663538E+000;-1.773030823337780E+002;
8.171000000000000E+007;-1.747471293596712E+000;-1.787890330139320E+002;
8.175500000000000E+007;-1.839724714259556E+000;1.796159889242663E+002;
8.180000000000000E+007;-1.882812111278912E+000;1.793326695531189E+002;
8.184500000000000E+007;-2.039518283137215E+000;1.771397388233911E+002;
8.189000000000000E+007;-2.128136730441677E+000;1.758790553843196E+002;
8.193500000000000E+007;-2.364271779777344E+000;1.730761287595147E+002;
8.198000000000000E+007;-2.438023190949318E+000;1.741360005803685E+002;
8.202500000000000E+007;-2.682258385043257E+000;1.701559706727933E+002;
8.207000000000000E+007;-2.897494116854981E+000;1.681763804155517E+002;
8.211500000000000E+007;-3.211555229419477E+000;1.647822331809241E+002;
8.216000000000000E+007;-3.526708022139358E+000;1.616086238217593E+002;
8.220500000000000E+007;-3.863065674942233E+000;1.621130812452486E+002;
8.225000000000000E+007;-4.386214845482421E+000;1.559747264168587E+002;
8.229500000000000E+007;-4.889807970858099E+000;1.539038726491026E+002;
8.234000000000000E+007;-5.482033618360296E+000;1.524546797393247E+002;
8.238500000000000E+007;-6.269819639478091E+000;1.491248957511808E+002;
8.243000000000000E+007;-7.284632075095931E+000;1.426733702371338E+002;
8.247500000000000E+007;-8.461176273164037E+000;1.407434268622621E+002;
8.252000000000000E+007;-1.008811762518059E+001;1.346719240977424E+002;
8.256500000000000E+007;-1.221884497565721E+001;1.318385925416281E+002;
8.261000000000000E+007;-1.518928644834602E+001;1.294239755276271E+002;
8.265500000000000E+007;-2.026690607130436E+001;1.250979903293906E+002;
8.270000000000000E+007;-3.377204345312431E+001;1.401342369870655E+002;
8.274500000000000E+007;-2.407566129233269E+001;-7.843024854993503E+001;
8.279000000000000E+007;-1.737084739788515E+001;-7.882785541634301E+001;
8.283500000000000E+007;-1.345278333928014E+001;-8.261537447673842E+001;
8.288000000000000E+007;-1.100758120133132E+001;-8.593184995976242E+001;
8.292500000000000E+007;-9.249062359395664E+000;-8.946834720304986E+001;
8.297000000000000E+007;-7.797434054570842E+000;-9.400637264880692E+001;
8.301500000000000E+007;-6.699308661055079E+000;-9.902169206446172E+001;
8.306000000000000E+007;-5.843361006762770E+000;-1.028640412155760E+002;
8.310500000000000E+007;-5.050597879916022E+000;-1.050990188944948E+002;
8.315000000000000E+007;-4.579935652895917E+000;-1.087670876179875E+002;
8.319500000000000E+007;-4.035904273947108E+000;-1.102412553658877E+002;
8.324000000000000E+007;-3.690770980596937E+000;-1.139827241018589E+002;
8.328500000000000E+007;-3.350515477193909E+000;-1.171979678500772E+002;
8.333000000000000E+007;-3.102603531179767E+000;-1.205817110531283E+002;
8.337500000000000E+007;-2.817703836804849E+000;-1.221001731485337E+002;
8.342000000000000E+007;-2.557655420397181E+000;-1.236744246864765E+002;
8.346500000000000E+007;-2.392655011395327E+000;-1.252556721072474E+002;
8.351000000000000E+007;-2.275662588151443E+000;-1.278377711248507E+002;
8.355500000000000E+007;-2.029643074870654E+000;-1.286846322002310E+002;
8.360000000000000E+007;-1.965505291930377E+000;-1.305449939125055E+002;
8.364500000000000E+007;-1.886545213249165E+000;-1.326182932984628E+002;
8.369000000000000E+007;-1.721274967965139E+000;-1.318965039720119E+002;
8.373500000000000E+007;-1.697261959493456E+000;-1.348100885436798E+002;
8.378000000000000E+007;-1.642187469340595E+000;-1.372396396776762E+002;
8.382500000000000E+007;-1.510210142157245E+000;-1.358293308929310E+002;
8.387000000000000E+007;-1.489830968227094E+000;-1.385683402960342E+002;
8.391500000000000E+007;-1.427799501730519E+000;-1.382558818776053E+002;
8.396000000000000E+007;-1.289587044416858E+000;-1.387226121047332E+002;
8.400500000000000E+007;-1.334681285879622E+000;-1.404618664758833E+002;
8.405000000000000E+007;-1.238152785426432E+000;-1.411718903370200E+002;
8.409500000000000E+007;-1.176589438459779E+000;-1.408451013261847E+002;
8.414000000000000E+007;-1.235362471982104E+000;-1.434936165816113E+002;
8.418500000000000E+007;-1.204033665998862E+000;-1.450206236882995E+002;
8.423000000000000E+007;-1.105193688231380E+000;-1.426648184354078E+002;
8.427500000000000E+007;-1.105151641829000E+000;-1.442470048935848E+002;
8.432000000000000E+007;-1.124599254701073E+000;-1.469537568499353E+002;
8.436500000000000E+007;-1.053096947059170E+000;-1.461977891898080E+002;
8.441000000000000E+007;-1.087994849204036E+000;-1.486194279638621E+002;
8.445500000000000E+007;-9.894953746034648E-001;-1.474661665679490E+002;
8.450000000000000E+007;-1.030634195332961E+000;-1.484404049966922E+002;
8.454500000000000E+007;-9.600544133813952E-001;-1.487380383075679E+002;
8.459000000000000E+007;-9.884712808494790E-001;-1.506082393613574E+002;
8.463500000000000E+007;-9.589847972998855E-001;-1.507047176015469E+002;
8.468000000000000E+007;-9.723944558287456E-001;-1.517494892927644E+002;
8.472500000000000E+007;-9.834120152513678E-001;-1.533390575681706E+002;
8.477000000000000E+007;-9.303545828743021E-001;-1.533001569440668E+002;
8.481500000000000E+007;-9.414105272287255E-001;-1.536677304331152E+002;
8.486000000000000E+007;-8.938043490111615E-001;-1.531244629883409E+002;
8.490500000000000E+007;-9.018496786562087E-001;-1.527972368834487E+002;
8.495000000000000E+007;-8.901934584648377E-001;-1.543259869814742E+002;
8.499500000000000E+007;-8.953046685964246E-001;-1.560666888879700E+002;
8.504000000000000E+007;-8.697382789567527E-001;-1.553696002304013E+002;
8.508500000000000E+007;-8.550423753217797E-001;-1.560062983146164E+002;
8.513000000000000E+007;-8.829704975847131E-001;-1.575394222732657E+002;
8.517500000000000E+007;-8.138265769060435E-001;-1.554970347720626E+002;
8.522000000000000E+007;-8.531586704976718E-001;-1.569522313284676E+002;
8.526500000000000E+007;-8.757239725215411E-001;-1.586290213848524E+002;
8.531000000000000E+007;-8.973816460632813E-001;-1.590897214118871E+002;
8.535500000000000E+007;-8.125830788817544E-001;-1.583549792859806E+002;
8.540000000000000E+007;-8.359015051375732E-001;-1.593631106236043E+002;
8.544500000000000E+007;-8.096620247038739E-001;-1.586330407182480E+002;
8.549000000000000E+007;-8.169295851674048E-001;-1.598591381330697E+002;
8.553500000000000E+007;-7.650956586326714E-001;-1.591474364612625E+002;
8.558000000000000E+007;-8.213018767926625E-001;-1.612638858408586E+002;
8.562500000000000E+007;-8.109060334414956E-001;-1.612268186165842E+002;
8.567000000000000E+007;-7.794755535534573E-001;-1.603280094962172E+002;
8.571500000000000E+007;-8.004749446532188E-001;-1.611536322784789E+002;
8.576000000000000E+007;-7.984229164827246E-001;-1.619759431464830E+002;
8.580500000000000E+007;-7.772623596357321E-001;-1.622307578975179E+002;
8.585000000000000E+007;-8.343220936889627E-001;-1.631534909602882E+002;
8.589500000000000E+007;-7.545618962970321E-001;-1.625914966198100E+002;
8.594000000000000E+007;-7.966449089337110E-001;-1.639570567876448E+002;
8.598500000000000E+007;-7.514719092881458E-001;-1.625914699171116E+002;
8.603000000000000E+007;-7.909367909086437E-001;-1.636719624019655E+002;
8.607500000000000E+007;-8.233449476342118E-001;-1.659205173428180E+002;
8.612000000000000E+007;-7.775173865327717E-001;-1.656112178338684E+002;
8.616500000000000E+007;-8.239569325877906E-001;-1.675824870902284E+002;
8.621000000000000E+007;-7.700789289785610E-001;-1.652000971742133E+002;
8.625500000000000E+007;-7.835492750957698E-001;-1.660883336561355E+002;
8.630000000000000E+007;-7.932071750617465E-001;-1.672146602297911E+002;
8.634500000000000E+007;-7.251129168787071E-001;-1.650373363477293E+002;
8.639000000000000E+007;-7.526445552107043E-001;-1.671942831868079E+002;
8.643500000000000E+007;-7.600570852199091E-001;-1.668499041673890E+002;
8.648000000000000E+007;-7.359548234357232E-001;-1.667879079819150E+002;
8.652500000000000E+007;-7.689360390962815E-001;-1.680929151747108E+002;
8.657000000000000E+007;-7.644594024429083E-001;-1.678829748880660E+002;
8.661500000000000E+007;-7.664204558616142E-001;-1.673505622612657E+002;
8.666000000000000E+007;-7.866768025579153E-001;-1.697088631586077E+002;
8.670500000000000E+007;-7.631969850126756E-001;-1.695397957812394E+002;
8.675000000000000E+007;-7.269984879908912E-001;-1.689653843101626E+002;
8.679500000000000E+007;-7.338014133973886E-001;-1.694664991106945E+002;
8.684000000000000E+007;-7.537273358847432E-001;-1.708292004409445E+002;
8.688500000000000E+007;-7.136122836256901E-001;-1.692464903713709E+002;
8.693000000000000E+007;-7.791807731616183E-001;-1.718142730525757E+002;
8.697500000000000E+007;-7.618565128131565E-001;-1.717396694959159E+002;
8.702000000000000E+007;-7.017587769734757E-001;-1.698258829193869E+002;
8.706500000000000E+007;-7.196700808921900E-001;-1.707683314152822E+002;
8.711000000000000E+007;-7.326884449382964E-001;-1.706330390974518E+002;
8.715500000000000E+007;-7.643319398813645E-001;-1.731380153488769E+002;
8.720000000000000E+007;-7.007021175867439E-001;-1.717393197403672E+002;
8.724500000000000E+007;-7.361097353085863E-001;-1.720845825412706E+002;
8.729000000000000E+007;-7.461616044413334E-001;-1.737171915125683E+002;
8.733500000000000E+007;-6.957475328790630E-001;-1.717066227179556E+002;
8.738000000000000E+007;-7.039452549866271E-001;-1.726700993530608E+002;
8.742500000000000E+007;-7.073288361645764E-001;-1.742245703506377E+002;
8.747000000000000E+007;-7.153970346033444E-001;-1.742098406025607E+002;
8.751500000000000E+007;-6.954797718217700E-001;-1.729794120947257E+002;
8.756000000000000E+007;-7.030007501340239E-001;-1.738503811265328E+002;
8.760500000000000E+007;-7.262079675672314E-001;-1.746068152348576E+002;
8.765000000000000E+007;-7.478155949404584E-001;-1.758425284415291E+002;
8.769500000000000E+007;-7.556433900980527E-001;-1.758625534449556E+002;
8.774000000000000E+007;-7.047306759408801E-001;-1.743891766367391E+002;
8.778500000000000E+007;-7.233777617136917E-001;-1.762564038547475E+002;
8.783000000000000E+007;-7.112348891162695E-001;-1.763742134139359E+002;
8.787500000000000E+007;-6.854552885987879E-001;-1.752827572951487E+002;
8.792000000000000E+007;-6.905677849539579E-001;-1.760825727994586E+002;
8.796500000000000E+007;-7.428091727120975E-001;-1.780096503207040E+002;
8.801000000000000E+007;-6.868240702161109E-001;-1.766560085744281E+002;
8.805500000000000E+007;-7.369605837724567E-001;-1.787139072666422E+002;
8.810000000000000E+007;-7.129173184892328E-001;-1.775830753616511E+002;
8.814500000000000E+007;-7.384769135097795E-001;-1.791935964852067E+002;
8.819000000000000E+007;-7.371901821485207E-001;-1.791501891557584E+002;
8.823500000000000E+007;-7.283648175681060E-001;-1.792370710437860E+002;
8.828000000000000E+007;-7.227027729248005E-001;-1.796650543038852E+002;
8.832500000000000E+007;-7.057297086811147E-001;-1.789415704090354E+002;
8.837000000000000E+007;-6.741435422133979E-001;-1.794669919384278E+002;
8.841500000000000E+007;-6.889933375279820E-001;-1.797857829893922E+002;
8.846000000000000E+007;-6.840516571558484E-001;-1.798682041293517E+002;
8.850500000000000E+007;-7.087140480201967E-001;1.794438099971596E+002;
8.855000000000000E+007;-6.895681913588927E-001;1.796921634206373E+002;
8.859500000000000E+007;-6.804308658239264E-001;1.797723507453758E+002;
8.864000000000000E+007;-7.062416875744741E-001;1.788222659209341E+002;
8.868500000000000E+007;-7.127377392876132E-001;1.776680589516650E+002;
8.873000000000000E+007;-7.005643839159879E-001;1.794619564568793E+002;
8.877500000000000E+007;-7.056643041008608E-001;1.774373941452657E+002;
8.882000000000000E+007;-6.861418775226771E-001;1.771812584750340E+002;
8.886500000000000E+007;-7.215131376372548E-001;1.767134912383441E+002;
8.891000000000000E+007;-6.915999333896147E-001;1.775107783533493E+002;
8.895500000000000E+007;-7.033700866110744E-001;1.781474521559048E+002;
8.900000000000000E+007;-6.782083452162120E-001;1.767618848896898E+002;
