# Version 1.00
#
freq[Hz];db:Trc1_S11;ang:Trc1_S11;
8.000000000000000E+007;-7.191479810012849E-001;-1.491400239395176E+002;
8.004500000000000E+007;-7.519083661972711E-001;-1.509083188436043E+002;
8.009000000000000E+007;-7.351297426003153E-001;-1.501800395429435E+002;
8.013500000000000E+007;-7.424871011092435E-001;-1.510282167465778E+002;
8.018000000000000E+007;-7.371063777190263E-001;-1.508515245971023E+002;
8.022500000000000E+007;-7.738326684276363E-001;-1.530745467621472E+002;
8.027000000000000E+007;-8.269910521033976E-001;-1.537297544509099E+002;
8.031500000000000E+007;-7.513162171075378E-001;-1.513832168731017E+002;
8.036000000000000E+007;-8.527179250210110E-001;-1.549123873508768E+002;
8.040500000000000E+007;-7.288945689244932E-001;-1.525518428668520E+002;
8.045000000000000E+007;-7.914964707040125E-001;-1.545047176195768E+002;
8.049500000000000E+007;-7.791004448689961E-001;-1.546518364647926E+002;
8.054000000000000E+007;-7.731832588701567E-001;-1.550093529283079E+002;
8.058500000000000E+007;-7.997393020350156E-001;-1.554361682887892E+002;
8.063000000000000E+007;-7.609411306568493E-001;-1.544190980614644E+002;
8.067500000000000E+007;-8.140407058331710E-001;-1.557539607094259E+002;
8.072000000000000E+007;-7.827030379125585E-001;-1.552024813273867E+002;
8.076500000000000E+007;-7.939687523533061E-001;-1.562648632785623E+002;
8.081000000000000E+007;-8.343269579184314E-001;-1.576506993419624E+002;
8.085500000000000E+007;-8.282763172216439E-001;-1.573570489799147E+002;
8.090000000000000E+007;-8.831350835607990E-001;-1.592882236864689E+002;
8.094500000000000E+007;-8.167256541841264E-001;-1.574954754365188E+002;
8.099000000000000E+007;-8.734680206304736E-001;-1.584171816466727E+002;
8.103500000000000E+007;-8.968480194121524E-001;-1.606645783894638E+002;
8.108000000000000E+007;-8.899231257590312E-001;-1.603419937305380E+002;
8.112500000000000E+007;-9.140476601090516E-001;-1.617875662496753E+002;
8.117000000000000E+007;-8.661981001394559E-001;-1.601440420004691E+002;
8.121500000000000E+007;-8.418252037914382E-001;-1.600917953319069E+002;
8.126000000000000E+007;-8.907831405370592E-001;-1.610489361531242E+002;
8.130500000000000E+007;-8.905364361812111E-001;-1.623028286290073E+002;
8.135000000000000E+007;-9.458830666596957E-001;-1.633563625166943E+002;
8.139500000000000E+007;-1.001064088785023E+000;-1.640835608751281E+002;
8.144000000000000E+007;-9.942194495352114E-001;-1.643751593249322E+002;
8.148500000000000E+007;-1.043566071323807E+000;-1.661338445027920E+002;
8.153000000000000E+007;-9.666476717510447E-001;-1.643472253832767E+002;
8.157500000000000E+007;-1.030553687594823E+000;-1.668440878123330E+002;
8.162000000000000E+007;-9.839498869039615E-001;-1.658657207890961E+002;
8.166500000000000E+007;-1.042855314499584E+000;-1.679235140069955E+002;
8.171000000000000E+007;-1.102512128889082E+000;-1.688597859709508E+002;
8.175500000000000E+007;-1.045612569353776E+000;-1.673877340456188E+002;
8.180000000000000E+007;-1.146331626774262E+000;-1.700555540441079E+002;
8.184500000000000E+007;-1.120550649754892E+000;-1.700791027032486E+002;
8.189000000000000E+007;-1.174927182175470E+000;-1.700329183352428E+002;
8.193500000000000E+007;-1.183854356841159E+000;-1.710926525263182E+002;
8.198000000000000E+007;-1.257827913260122E+000;-1.720139289142052E+002;
8.202500000000000E+007;-1.313422750764021E+000;-1.747677827172390E+002;
8.207000000000000E+007;-1.341342446968848E+000;-1.737811594241794E+002;
8.211500000000000E+007;-1.372236542609650E+000;-1.752421549537640E+002;
8.216000000000000E+007;-1.501198709823949E+000;-1.770821120497865E+002;
8.220500000000000E+007;-1.529330964948385E+000;-1.783267479094603E+002;
8.225000000000000E+007;-1.609369307401778E+000;-1.777902529784398E+002;
8.229500000000000E+007;-1.752718012671321E+000;1.771325765685305E+002;
8.234000000000000E+007;-1.794455797199161E+000;1.778614102132390E+002;
8.238500000000000E+007;-1.850124641610402E+000;1.768895181103709E+002;
8.243000000000000E+007;-1.993371556475775E+000;1.757531050233710E+002;
8.247500000000000E+007;-2.024461372434695E+000;1.760078067712658E+002;
8.252000000000000E+007;-2.235334404031741E+000;1.715409332810125E+002;
8.256500000000000E+007;-2.361074337333831E+000;1.721351649354057E+002;
8.261000000000000E+007;-2.588663939118931E+000;1.690356927028761E+002;
8.265500000000000E+007;-2.774264090103026E+000;1.658501133164407E+002;
8.270000000000000E+007;-3.050619722307781E+000;1.636408449032250E+002;
8.274500000000000E+007;-3.292961774669067E+000;1.631222001344703E+002;
8.279000000000000E+007;-3.663712212592119E+000;1.588458481922966E+002;
8.283500000000000E+007;-4.061329188342862E+000;1.552583794163978E+002;
8.288000000000000E+007;-4.515417260949302E+000;1.546077248148746E+002;
8.292500000000000E+007;-5.109994026059764E+000;1.492555223025833E+002;
8.297000000000000E+007;-5.757683366043584E+000;1.483873037128068E+002;
8.301500000000000E+007;-6.651896483680339E+000;1.436070731943998E+002;
8.306000000000000E+007;-7.708391806843585E+000;1.407932111149784E+002;
8.310500000000000E+007;-8.957089200814247E+000;1.369130431514844E+002;
8.315000000000000E+007;-1.083841080568254E+001;1.320080880985819E+002;
8.319500000000000E+007;-1.322777691628482E+001;1.277044063373418E+002;
8.324000000000000E+007;-1.666811419032550E+001;1.245174709282195E+002;
8.328500000000000E+007;-2.340358560685447E+001;1.289807845833612E+002;
8.333000000000000E+007;-3.618384591326448E+001;-1.249177872632664E+002;
8.337500000000000E+007;-2.111798958623830E+001;-8.238614840241120E+001;
8.342000000000000E+007;-1.572098028056973E+001;-8.377014799176237E+001;
8.346500000000000E+007;-1.256773015378622E+001;-8.676566576881193E+001;
8.351000000000000E+007;-1.029769136590696E+001;-9.144610307761516E+001;
8.355500000000000E+007;-8.675664845661581E+000;-9.566462744890588E+001;
8.360000000000000E+007;-7.371578289953651E+000;-9.874456346048905E+001;
8.364500000000000E+007;-6.416781860533505E+000;-1.029530074326671E+002;
8.369000000000000E+007;-5.631260801639792E+000;-1.076291496575847E+002;
8.373500000000000E+007;-4.917211203339064E+000;-1.094742499855806E+002;
8.378000000000000E+007;-4.378467075631270E+000;-1.119422675896784E+002;
8.382500000000000E+007;-3.947410378297034E+000;-1.158216558586499E+002;
8.387000000000000E+007;-3.574826157911487E+000;-1.192352386915773E+002;
8.391500000000000E+007;-3.195334112087088E+000;-1.202475341045234E+002;
8.396000000000000E+007;-2.926986968349049E+000;-1.221209183139810E+002;
8.400500000000000E+007;-2.775382484985618E+000;-1.260890355716844E+002;
8.405000000000000E+007;-2.508475591659134E+000;-1.259571603970647E+002;
8.409500000000000E+007;-2.341969434748438E+000;-1.285411394991173E+002;
8.414000000000000E+007;-2.167225563653872E+000;-1.298754111761493E+002;
8.418500000000000E+007;-2.098399742153696E+000;-1.318762477177545E+002;
8.423000000000000E+007;-1.930490598957740E+000;-1.333432944280019E+002;
8.427500000000000E+007;-1.842851127286308E+000;-1.344337672784366E+002;
8.432000000000000E+007;-1.703012257058544E+000;-1.355500982497211E+002;
8.436500000000000E+007;-1.683821752668593E+000;-1.382667008837665E+002;
8.441000000000000E+007;-1.621364949953458E+000;-1.395344851244428E+002;
8.445500000000000E+007;-1.504807293288689E+000;-1.387125907749194E+002;
8.450000000000000E+007;-1.481607573328474E+000;-1.410771137859461E+002;
8.454500000000000E+007;-1.390312847089904E+000;-1.408939970075337E+002;
8.459000000000000E+007;-1.307376058521012E+000;-1.415393061685318E+002;
8.463500000000000E+007;-1.262241246779628E+000;-1.425243676871471E+002;
8.468000000000000E+007;-1.301121536731615E+000;-1.441335894168893E+002;
8.472500000000000E+007;-1.328299670768170E+000;-1.474701075482834E+002;
8.477000000000000E+007;-1.191748455947037E+000;-1.460143264591118E+002;
8.481500000000000E+007;-1.165216914432348E+000;-1.468571561982150E+002;
8.486000000000000E+007;-1.123718170819845E+000;-1.476721324625473E+002;
8.490500000000000E+007;-1.121370608150610E+000;-1.489350983141879E+002;
8.495000000000000E+007;-1.118465184733054E+000;-1.487633371621649E+002;
8.499500000000000E+007;-1.104349190630178E+000;-1.500833974589724E+002;
8.504000000000000E+007;-1.015629097646934E+000;-1.505484412055384E+002;
8.508500000000000E+007;-1.036456234855478E+000;-1.507771100179432E+002;
8.513000000000000E+007;-1.059711368967759E+000;-1.519567413173006E+002;
8.517500000000000E+007;-9.876475757786610E-001;-1.516154317426831E+002;
8.522000000000000E+007;-1.012489455558929E+000;-1.529728687538590E+002;
8.526500000000000E+007;-9.335498939071713E-001;-1.535828129940979E+002;
8.531000000000000E+007;-8.937994507851521E-001;-1.517978722353707E+002;
8.535500000000000E+007;-9.203367281518105E-001;-1.550344426788646E+002;
8.540000000000000E+007;-9.372229408089298E-001;-1.541165626509011E+002;
8.544500000000000E+007;-9.395460197055264E-001;-1.561996210182909E+002;
8.549000000000000E+007;-9.100139633005862E-001;-1.558466916874488E+002;
8.553500000000000E+007;-8.596920232550660E-001;-1.552928339076676E+002;
8.558000000000000E+007;-8.962800007618501E-001;-1.571834209675575E+002;
8.562500000000000E+007;-8.908520356587351E-001;-1.578341709993462E+002;
8.567000000000000E+007;-8.699734154865708E-001;-1.582510072701862E+002;
8.571500000000000E+007;-8.692654469033275E-001;-1.589228407774401E+002;
8.576000000000000E+007;-8.918239597764401E-001;-1.600279711276243E+002;
8.580500000000000E+007;-8.089445379068662E-001;-1.583818309923092E+002;
8.585000000000000E+007;-8.705112086799806E-001;-1.604470889736057E+002;
8.589500000000000E+007;-7.826029765683980E-001;-1.596658053516611E+002;
8.594000000000000E+007;-8.578304267714529E-001;-1.607808784991093E+002;
8.598500000000000E+007;-8.104222383207405E-001;-1.603270024095435E+002;
8.603000000000000E+007;-8.243250962843201E-001;-1.609332995376144E+002;
8.607500000000000E+007;-8.293890734943901E-001;-1.621817251838001E+002;
8.612000000000000E+007;-8.067352417243536E-001;-1.611527219540417E+002;
8.616500000000000E+007;-8.072276216341285E-001;-1.629625458512373E+002;
8.621000000000000E+007;-8.231788673227956E-001;-1.636780856500198E+002;
8.625500000000000E+007;-8.109799624271671E-001;-1.624894620059409E+002;
8.630000000000000E+007;-7.735241588919287E-001;-1.631095324513712E+002;
8.634500000000000E+007;-7.911283122577383E-001;-1.648902689321884E+002;
8.639000000000000E+007;-7.926254715825478E-001;-1.651230568647401E+002;
8.643500000000000E+007;-8.691035680043675E-001;-1.680569486444286E+002;
8.648000000000000E+007;-7.635826045471975E-001;-1.648238057198479E+002;
8.652500000000000E+007;-8.214019464957136E-001;-1.674802360136877E+002;
8.657000000000000E+007;-7.522776442384481E-001;-1.658532917003767E+002;
8.661500000000000E+007;-7.897943335406786E-001;-1.661988723692061E+002;
8.666000000000000E+007;-7.944089460357723E-001;-1.676420024056376E+002;
8.670500000000000E+007;-7.604716297232996E-001;-1.652881386423964E+002;
8.675000000000000E+007;-7.806883044845023E-001;-1.687850020158454E+002;
8.679500000000000E+007;-7.593919457819015E-001;-1.689199223974579E+002;
8.684000000000000E+007;-7.974921399223957E-001;-1.694011062652907E+002;
8.688500000000000E+007;-7.508585786726486E-001;-1.680490311011332E+002;
8.693000000000000E+007;-6.925421941676465E-001;-1.676680498092029E+002;
8.697500000000000E+007;-7.938498343116707E-001;-1.696429182753450E+002;
8.702000000000000E+007;-7.532645261518061E-001;-1.693370613312058E+002;
8.706500000000000E+007;-7.756701298263363E-001;-1.702190566552955E+002;
8.711000000000000E+007;-7.746367135658114E-001;-1.699888998285168E+002;
8.715500000000000E+007;-7.172508136662621E-001;-1.691705925473070E+002;
8.720000000000000E+007;-7.877711946587658E-001;-1.710469227929203E+002;
8.724500000000000E+007;-7.969693091620982E-001;-1.714401971531614E+002;
8.729000000000000E+007;-7.348181398005069E-001;-1.703154163348525E+002;
8.733500000000000E+007;-7.892773115277662E-001;-1.735127989757819E+002;
8.738000000000000E+007;-7.288181179765960E-001;-1.709337488240878E+002;
8.742500000000000E+007;-7.454667619691175E-001;-1.728958939503507E+002;
8.747000000000000E+007;-7.291755750148780E-001;-1.722850716281616E+002;
8.751500000000000E+007;-7.729811349687252E-001;-1.734971742902223E+002;
8.756000000000000E+007;-7.207366116220051E-001;-1.735077730426072E+002;
8.760500000000000E+007;-7.468453038482670E-001;-1.732365468702514E+002;
8.765000000000000E+007;-7.721061726590416E-001;-1.747236682228319E+002;
8.769500000000000E+007;-7.509545548943317E-001;-1.745372386799988E+002;
8.774000000000000E+007;-7.666086479076921E-001;-1.754497665162799E+002;
8.778500000000000E+007;-6.723150111716947E-001;-1.725936017804435E+002;
8.783000000000000E+007;-7.236632065430273E-001;-1.750666266288577E+002;
8.787500000000000E+007;-6.996999953745399E-001;-1.738738823867829E+002;
8.792000000000000E+007;-7.629269129055747E-001;-1.767826008527796E+002;
8.796500000000000E+007;-7.031605884111732E-001;-1.751461968237172E+002;
8.801000000000000E+007;-7.616507951443355E-001;-1.769919889342481E+002;
8.805500000000000E+007;-7.082877877024206E-001;-1.756424217898799E+002;
8.810000000000000E+007;-7.146068284845166E-001;-1.757284336221163E+002;
8.814500000000000E+007;-7.177037289341981E-001;-1.769323521930445E+002;
8.819000000000000E+007;-7.340983182163628E-001;-1.776774351095365E+002;
8.823500000000000E+007;-7.377961084783835E-001;-1.780791018663005E+002;
8.828000000000000E+007;-6.717452360084202E-001;-1.768189556761789E+002;
8.832500000000000E+007;-6.959381675057281E-001;-1.778402810491629E+002;
8.837000000000000E+007;-7.207498622383746E-001;-1.777687422302684E+002;
8.841500000000000E+007;-7.179699612968529E-001;-1.779762797691216E+002;
8.846000000000000E+007;-7.061672420827792E-001;-1.791261111830448E+002;
8.850500000000000E+007;-7.038776360877876E-001;-1.789618145425516E+002;
8.855000000000000E+007;-6.979694541659701E-001;-1.795749836547611E+002;
8.859500000000000E+007;-7.177746261306145E-001;-1.795472417897959E+002;
8.864000000000000E+007;-7.250662147267848E-001;1.798488252885157E+002;
8.868500000000000E+007;-7.035395325533899E-001;-1.784502973012957E+002;
8.873000000000000E+007;-7.081905104082488E-001;-1.798549258725520E+002;
8.877500000000000E+007;-7.187286148269558E-001;1.793699383587422E+002;
8.882000000000000E+007;-7.229966722927308E-001;1.789354605987757E+002;
8.886500000000000E+007;-7.190133819429764E-001;1.778268641205456E+002;
8.891000000000000E+007;-7.184977323366169E-001;1.778559929835810E+002;
8.895500000000000E+007;-7.303180608762391E-001;1.784578414661844E+002;
8.900000000000000E+007;-6.580436644557646E-001;1.797117675756815E+002;
