# Version 1.00
#
freq[Hz];db:Trc1_S11;ang:Trc1_S11;
8.000000000000000E+007;-7.139349349436529E-001;-1.477383961042524E+002;
8.004500000000000E+007;-6.954109578622935E-001;-1.479374491573549E+002;
8.009000000000000E+007;-6.665304705610994E-001;-1.469676312417522E+002;
8.013500000000000E+007;-6.905064003163628E-001;-1.476936519636541E+002;
8.018000000000000E+007;-7.490357776111312E-001;-1.497219232842444E+002;
8.022500000000000E+007;-6.260590930970497E-001;-1.472962912440469E+002;
8.027000000000000E+007;-6.636396609175498E-001;-1.490624792066291E+002;
8.031500000000000E+007;-7.295541811479083E-001;-1.508621443280957E+002;
8.036000000000000E+007;-7.113877433850110E-001;-1.501652473558016E+002;
8.040500000000000E+007;-7.193712914282715E-001;-1.513955603036709E+002;
8.045000000000000E+007;-7.457809738926876E-001;-1.513008692026867E+002;
8.049500000000000E+007;-6.681039327020071E-001;-1.491640859061923E+002;
8.054000000000000E+007;-7.285809130972766E-001;-1.513949603732839E+002;
8.058500000000000E+007;-7.001945937293235E-001;-1.512721527830577E+002;
8.063000000000000E+007;-6.994626101269066E-001;-1.510130970766548E+002;
8.067500000000000E+007;-7.838524970042429E-001;-1.539561031647363E+002;
8.072000000000000E+007;-7.590868827952755E-001;-1.539819207835884E+002;
8.076500000000000E+007;-6.797765355521143E-001;-1.522317275992768E+002;
8.081000000000000E+007;-7.610558312761687E-001;-1.542923577827893E+002;
8.085500000000000E+007;-8.245655843551084E-001;-1.563093719596161E+002;
8.090000000000000E+007;-7.947548537085899E-001;-1.561050212239260E+002;
8.094500000000000E+007;-7.870321757593952E-001;-1.555313440533332E+002;
8.099000000000000E+007;-7.657087450295602E-001;-1.558051954569998E+002;
8.103500000000000E+007;-7.966324959276959E-001;-1.559223267041365E+002;
8.108000000000000E+007;-8.061802560774167E-001;-1.567006912279841E+002;
8.112500000000000E+007;-7.940651849929861E-001;-1.560360182458914E+002;
8.117000000000000E+007;-7.872393280741610E-001;-1.571106667692322E+002;
8.121500000000000E+007;-8.151869381345925E-001;-1.575944042080745E+002;
8.126000000000000E+007;-7.831374281020145E-001;-1.581145906570272E+002;
8.130500000000000E+007;-7.354704063012039E-001;-1.569294967629956E+002;
8.135000000000000E+007;-7.811854603767950E-001;-1.582127416486678E+002;
8.139500000000000E+007;-8.245560727214037E-001;-1.593107998168864E+002;
8.144000000000000E+007;-7.826963596809166E-001;-1.588645430670339E+002;
8.148500000000000E+007;-7.475738291009859E-001;-1.578472875760909E+002;
8.153000000000000E+007;-8.292602547522990E-001;-1.608244425641580E+002;
8.157500000000000E+007;-8.375610113047235E-001;-1.612938637358257E+002;
8.162000000000000E+007;-8.355395594857455E-001;-1.595396308774761E+002;
8.166500000000000E+007;-8.369293756785813E-001;-1.616767843532446E+002;
8.171000000000000E+007;-9.042182308813607E-001;-1.628802268495010E+002;
8.175500000000000E+007;-8.990040560210024E-001;-1.627829775652116E+002;
8.180000000000000E+007;-9.399481602481549E-001;-1.642798203907046E+002;
8.184500000000000E+007;-9.242194005991236E-001;-1.640415499943717E+002;
8.189000000000000E+007;-8.638586263021271E-001;-1.627513373661229E+002;
8.193500000000000E+007;-9.264152561624668E-001;-1.654491880432671E+002;
8.198000000000000E+007;-9.778282621161334E-001;-1.663156992642860E+002;
8.202500000000000E+007;-9.660843431586793E-001;-1.659997920885974E+002;
8.207000000000000E+007;-9.887262389794363E-001;-1.670237511604350E+002;
8.211500000000000E+007;-1.040987536866437E+000;-1.687896677789763E+002;
8.216000000000000E+007;-1.005972765716771E+000;-1.672117935342735E+002;
8.220500000000000E+007;-1.068530680107567E+000;-1.701453128433081E+002;
8.225000000000000E+007;-1.098409712890327E+000;-1.714233223818095E+002;
8.229500000000000E+007;-1.117756419117126E+000;-1.705714919688400E+002;
8.234000000000000E+007;-1.162599287300390E+000;-1.724881229846680E+002;
8.238500000000000E+007;-1.094206940492733E+000;-1.701555321167708E+002;
8.243000000000000E+007;-1.119601606350862E+000;-1.714600758698020E+002;
8.247500000000000E+007;-1.130497257809993E+000;-1.723246210446854E+002;
8.252000000000000E+007;-1.226455825927618E+000;-1.743630676627362E+002;
8.256500000000000E+007;-1.223368149914444E+000;-1.735367167012520E+002;
8.261000000000000E+007;-1.326721576408192E+000;-1.760553834422011E+002;
8.265500000000000E+007;-1.333912768124191E+000;-1.762160016674307E+002;
8.270000000000000E+007;-1.410011687070835E+000;-1.782190571940606E+002;
8.274500000000000E+007;-1.421611231219278E+000;-1.784056156045022E+002;
8.279000000000000E+007;-1.446097703070116E+000;-1.785692822698298E+002;
8.283500000000000E+007;-1.600515461148940E+000;1.779197196031657E+002;
8.288000000000000E+007;-1.591032081524567E+000;1.797234879282696E+002;
8.292500000000000E+007;-1.687281766556170E+000;1.776094057709772E+002;
8.297000000000000E+007;-1.802145247457254E+000;1.752879763831603E+002;
8.301500000000000E+007;-1.911475936175041E+000;1.739390581444595E+002;
8.306000000000000E+007;-2.014623574111005E+000;1.729019473530283E+002;
8.310500000000000E+007;-2.133655452063462E+000;1.714540276034281E+002;
8.315000000000000E+007;-2.273286225035851E+000;1.687205520791573E+002;
8.319500000000000E+007;-2.463722788491209E+000;1.661219710911925E+002;
8.324000000000000E+007;-2.607963258569118E+000;1.662759944813186E+002;
8.328500000000000E+007;-2.906794575352725E+000;1.651698213164793E+002;
8.333000000000000E+007;-3.103753081769384E+000;1.634713532238708E+002;
8.337500000000000E+007;-3.436601464321927E+000;1.580238970553588E+002;
8.342000000000000E+007;-3.762004865419407E+000;1.569792168552219E+002;
8.346500000000000E+007;-4.222952140387270E+000;1.545704727756735E+002;
8.351000000000000E+007;-4.697199320957040E+000;1.502479552853872E+002;
8.355500000000000E+007;-5.332678397214038E+000;1.463662850275327E+002;
8.360000000000000E+007;-6.081053820284845E+000;1.433499991437172E+002;
8.364500000000000E+007;-6.972167200006394E+000;1.388161333167260E+002;
8.369000000000000E+007;-8.044155747044522E+000;1.386443729146012E+002;
8.373500000000000E+007;-9.617728210716003E+000;1.333488069909328E+002;
8.378000000000000E+007;-1.150257139555677E+001;1.305719861865780E+002;
8.382500000000000E+007;-1.411791542569456E+001;1.253478991732746E+002;
8.387000000000000E+007;-1.858414798200927E+001;1.281217050075760E+002;
8.391500000000000E+007;-2.672708111435247E+001;1.381484621899143E+002;
8.396000000000000E+007;-2.794458737577843E+001;-9.930526285181986E+001;
8.400500000000000E+007;-1.868430370044747E+001;-8.938027594618227E+001;
8.405000000000000E+007;-1.463006986058107E+001;-9.011674744230493E+001;
8.409500000000000E+007;-1.165505488980675E+001;-9.066211010095469E+001;
8.414000000000000E+007;-9.640093515379036E+000;-9.616775637301927E+001;
8.418500000000000E+007;-8.267991713129186E+000;-1.004285882798256E+002;
8.423000000000000E+007;-7.084319449581148E+000;-1.048772563868260E+002;
8.427500000000000E+007;-6.130301241344141E+000;-1.077604507316211E+002;
8.432000000000000E+007;-5.357426900457124E+000;-1.119704398785023E+002;
8.436500000000000E+007;-4.762324219839154E+000;-1.131921010586205E+002;
8.441000000000000E+007;-4.164862837750131E+000;-1.161713232580292E+002;
8.445500000000000E+007;-3.777932396566087E+000;-1.184381586055399E+002;
8.450000000000000E+007;-3.506729938115446E+000;-1.230350553416287E+002;
8.454500000000000E+007;-3.186178431292536E+000;-1.247137651662264E+002;
8.459000000000000E+007;-2.912552556936700E+000;-1.264776316845648E+002;
8.463500000000000E+007;-2.709666187841904E+000;-1.291943508394523E+002;
8.468000000000000E+007;-2.451064569564001E+000;-1.310058453247703E+002;
8.472500000000000E+007;-2.322787840555416E+000;-1.317868630612392E+002;
8.477000000000000E+007;-2.165706345632054E+000;-1.343446523142320E+002;
8.481500000000000E+007;-1.977253659604351E+000;-1.349055796452491E+002;
8.486000000000000E+007;-1.941560579184879E+000;-1.374341030946076E+002;
8.490500000000000E+007;-1.834523178480486E+000;-1.383492071125685E+002;
8.495000000000000E+007;-1.653833441693059E+000;-1.385351638988732E+002;
8.499500000000000E+007;-1.695529919737141E+000;-1.424015966814669E+002;
8.504000000000000E+007;-1.568437580061794E+000;-1.409329837243355E+002;
8.508500000000000E+007;-1.513528519517831E+000;-1.428934155857638E+002;
8.513000000000000E+007;-1.495587192198627E+000;-1.451274278210846E+002;
8.517500000000000E+007;-1.408937092011844E+000;-1.449882306822618E+002;
8.522000000000000E+007;-1.357859559654252E+000;-1.449395245077506E+002;
8.526500000000000E+007;-1.303429856446585E+000;-1.460538136003673E+002;
8.531000000000000E+007;-1.259058407955773E+000;-1.467784636434473E+002;
8.535500000000000E+007;-1.208069449140640E+000;-1.475681400420716E+002;
8.540000000000000E+007;-1.220693598811613E+000;-1.489996440581581E+002;
8.544500000000000E+007;-1.125176828522757E+000;-1.496375627277133E+002;
8.549000000000000E+007;-1.156542816808077E+000;-1.509215494540965E+002;
8.553500000000000E+007;-1.140496372134036E+000;-1.516021374649422E+002;
8.558000000000000E+007;-1.123680330273395E+000;-1.521639498820779E+002;
8.562500000000000E+007;-1.080318339197848E+000;-1.518779255382591E+002;
8.567000000000000E+007;-1.054071629621601E+000;-1.530859234271419E+002;
8.571500000000000E+007;-1.069085319166717E+000;-1.543531527244765E+002;
8.576000000000000E+007;-1.021214082425689E+000;-1.546624734599493E+002;
8.580500000000000E+007;-1.024828352004501E+000;-1.559781569760324E+002;
8.585000000000000E+007;-9.592667474278009E-001;-1.545980643151958E+002;
8.589500000000000E+007;-9.661467911470015E-001;-1.559942722781326E+002;
8.594000000000000E+007;-9.989379882467018E-001;-1.571624747963113E+002;
8.598500000000000E+007;-9.100205020508281E-001;-1.558255726454068E+002;
8.603000000000000E+007;-9.865000626405642E-001;-1.589217018978508E+002;
8.607500000000000E+007;-9.225766086076545E-001;-1.587306559757344E+002;
8.612000000000000E+007;-9.763424799164810E-001;-1.611357362031506E+002;
8.616500000000000E+007;-8.827681415416911E-001;-1.591084826495303E+002;
8.621000000000000E+007;-9.278615710025148E-001;-1.605660945104044E+002;
8.625500000000000E+007;-9.065228570504413E-001;-1.615316992040814E+002;
8.630000000000000E+007;-8.777255824311040E-001;-1.604288104186326E+002;
8.634500000000000E+007;-8.822699695790516E-001;-1.612025172029510E+002;
8.639000000000000E+007;-8.609451514293548E-001;-1.619120179540092E+002;
8.643500000000000E+007;-8.601305706400577E-001;-1.619183272188475E+002;
8.648000000000000E+007;-8.585543877860291E-001;-1.631782198001839E+002;
8.652500000000000E+007;-8.542730773755010E-001;-1.632299689738973E+002;
8.657000000000000E+007;-8.471709552190115E-001;-1.629907815490239E+002;
8.661500000000000E+007;-8.372542508469125E-001;-1.624067149258392E+002;
8.666000000000000E+007;-8.009983941060439E-001;-1.638904565883795E+002;
8.670500000000000E+007;-8.243594093645369E-001;-1.642746445780935E+002;
8.675000000000000E+007;-8.611708602359407E-001;-1.668467498113652E+002;
8.679500000000000E+007;-7.985230764983224E-001;-1.654998073789170E+002;
8.684000000000000E+007;-7.849948694925858E-001;-1.654878834715010E+002;
8.688500000000000E+007;-8.380295849136265E-001;-1.673178203363289E+002;
8.693000000000000E+007;-7.938979921900765E-001;-1.657367793415671E+002;
8.697500000000000E+007;-7.937955817146329E-001;-1.668448060939008E+002;
8.702000000000000E+007;-8.061939740878023E-001;-1.679652789528703E+002;
8.706500000000000E+007;-7.941424148433272E-001;-1.676761273726160E+002;
8.711000000000000E+007;-7.871506804640565E-001;-1.672773545270957E+002;
8.715500000000000E+007;-8.096232265894311E-001;-1.694043848776874E+002;
8.720000000000000E+007;-8.036270082115526E-001;-1.689132517168007E+002;
8.724500000000000E+007;-7.682867915762777E-001;-1.687864354085452E+002;
8.729000000000000E+007;-8.298358316683345E-001;-1.696230375019294E+002;
8.733500000000000E+007;-7.809135893785260E-001;-1.705755777329999E+002;
8.738000000000000E+007;-7.940270158511319E-001;-1.696203229704277E+002;
8.742500000000000E+007;-7.804972813268941E-001;-1.705753934747737E+002;
8.747000000000000E+007;-7.288676475477653E-001;-1.695355006252277E+002;
8.751500000000000E+007;-7.695927528294981E-001;-1.714567578205148E+002;
8.756000000000000E+007;-7.806961500718812E-001;-1.717997847140338E+002;
8.760500000000000E+007;-7.896868815289841E-001;-1.720572316730736E+002;
8.765000000000000E+007;-8.005908483968099E-001;-1.728123123558294E+002;
8.769500000000000E+007;-7.592021513579339E-001;-1.716557964836321E+002;
8.774000000000000E+007;-7.850093664058836E-001;-1.727717313027538E+002;
8.778500000000000E+007;-7.615606766184371E-001;-1.732915068051672E+002;
8.783000000000000E+007;-7.312973486840586E-001;-1.722821868112330E+002;
8.787500000000000E+007;-7.487571881430356E-001;-1.736213312491479E+002;
8.792000000000000E+007;-7.550732940997537E-001;-1.737258932250469E+002;
8.796500000000000E+007;-7.574218162186354E-001;-1.742788822790665E+002;
8.801000000000000E+007;-7.837584817430100E-001;-1.758126006403431E+002;
8.805500000000000E+007;-7.580663124576941E-001;-1.760325763545736E+002;
8.810000000000000E+007;-7.570507940237394E-001;-1.756064230129292E+002;
8.814500000000000E+007;-7.192574517702611E-001;-1.746719127509415E+002;
8.819000000000000E+007;-7.473032006607067E-001;-1.759866810492742E+002;
8.823500000000000E+007;-7.551642766137071E-001;-1.768096911188936E+002;
8.828000000000000E+007;-7.365730022350021E-001;-1.758907676638108E+002;
8.832500000000000E+007;-7.203356840805595E-001;-1.761004826364734E+002;
8.837000000000000E+007;-7.293372186893993E-001;-1.768863404533464E+002;
8.841500000000000E+007;-7.273850997049557E-001;-1.761224696192397E+002;
8.846000000000000E+007;-7.127549465791054E-001;-1.779550900402830E+002;
8.850500000000000E+007;-7.393036131009334E-001;-1.782536491621553E+002;
8.855000000000000E+007;-7.303479845727984E-001;-1.790231598122907E+002;
8.859500000000000E+007;-7.162549862941962E-001;-1.778098211417895E+002;
8.864000000000000E+007;-7.337720265243650E-001;-1.794290538169266E+002;
8.868500000000000E+007;-7.573383428231427E-001;-1.796628637637205E+002;
8.873000000000000E+007;-6.949226944686091E-001;-1.785205799191264E+002;
8.877500000000000E+007;-7.412322215945570E-001;-1.796040908426448E+002;
8.882000000000000E+007;-7.313769226249623E-001;-1.793068460044515E+002;
8.886500000000000E+007;-7.580609659630340E-001;1.792883355980647E+002;
8.891000000000000E+007;-7.075341072624182E-001;-1.795219805466630E+002;
8.895500000000000E+007;-7.180042033416159E-001;1.793953838785283E+002;
8.900000000000000E+007;-7.073520939045893E-001;1.791394537665637E+002;
