# Version 1.00
#
freq[Hz];db:Trc1_S11;ang:Trc1_S11;
8.000000000000000E+007;-6.982392185185143E-001;-1.450928780941916E+002;
8.004500000000000E+007;-6.867479136402372E-001;-1.468487053844843E+002;
8.009000000000000E+007;-6.723484713820939E-001;-1.452039391104336E+002;
8.013500000000000E+007;-7.350112683038007E-001;-1.471820006141621E+002;
8.018000000000000E+007;-6.944385223769196E-001;-1.469896268220220E+002;
8.022500000000000E+007;-7.276501827879321E-001;-1.473557812427285E+002;
8.027000000000000E+007;-7.315968919886234E-001;-1.480470793210883E+002;
8.031500000000000E+007;-6.868206500758436E-001;-1.472574785399579E+002;
8.036000000000000E+007;-6.830732032311180E-001;-1.485008086402426E+002;
8.040500000000000E+007;-7.102543136970073E-001;-1.486383960849126E+002;
8.045000000000000E+007;-7.350814183634739E-001;-1.497436782563185E+002;
8.049500000000000E+007;-7.104019786370763E-001;-1.489638617279806E+002;
8.054000000000000E+007;-7.411198700935610E-001;-1.507226771935222E+002;
8.058500000000000E+007;-7.454028420266792E-001;-1.506172760852636E+002;
8.063000000000000E+007;-7.445068926024798E-001;-1.512601469402682E+002;
8.067500000000000E+007;-7.044761838024827E-001;-1.499204670749400E+002;
8.072000000000000E+007;-7.168774607201884E-001;-1.501000893858499E+002;
8.076500000000000E+007;-7.474782235603616E-001;-1.524063134912679E+002;
8.081000000000000E+007;-7.295636100656211E-001;-1.518179062143718E+002;
8.085500000000000E+007;-7.086240006241367E-001;-1.520260130965462E+002;
8.090000000000000E+007;-7.835038593844099E-001;-1.528758613972196E+002;
8.094500000000000E+007;-7.361532726844668E-001;-1.523762543894811E+002;
8.099000000000000E+007;-7.214636481887540E-001;-1.514706942874501E+002;
8.103500000000000E+007;-7.212938595478866E-001;-1.525311443780659E+002;
8.108000000000000E+007;-6.654250385187067E-001;-1.515708493063572E+002;
8.112500000000000E+007;-7.028333575846391E-001;-1.528588889399851E+002;
8.117000000000000E+007;-7.175100314369242E-001;-1.533321657898088E+002;
8.121500000000000E+007;-7.943822804962931E-001;-1.559400730141710E+002;
8.126000000000000E+007;-7.117048685456533E-001;-1.531951247533480E+002;
8.130500000000000E+007;-7.842048890585077E-001;-1.558630484212063E+002;
8.135000000000000E+007;-7.233328626448407E-001;-1.539926824737151E+002;
8.139500000000000E+007;-7.305423461211215E-001;-1.556216289896011E+002;
8.144000000000000E+007;-7.843913529681971E-001;-1.554257810627870E+002;
8.148500000000000E+007;-7.467148682258826E-001;-1.564310581669238E+002;
8.153000000000000E+007;-7.437535556924448E-001;-1.554283215977582E+002;
8.157500000000000E+007;-7.619992849250431E-001;-1.572167261644088E+002;
8.162000000000000E+007;-8.346384372329502E-001;-1.592907620944091E+002;
8.166500000000000E+007;-7.803480832176837E-001;-1.575469177016879E+002;
8.171000000000000E+007;-7.632827993918036E-001;-1.571814772564603E+002;
8.175500000000000E+007;-7.214274167511130E-001;-1.573946694355418E+002;
8.180000000000000E+007;-8.069219390889110E-001;-1.593040519100647E+002;
8.184500000000000E+007;-7.747464813728153E-001;-1.592296295263703E+002;
8.189000000000000E+007;-8.079224913287668E-001;-1.604629539470893E+002;
8.193500000000000E+007;-8.502063412551199E-001;-1.606915681014195E+002;
8.198000000000000E+007;-8.022400063661849E-001;-1.605752286256406E+002;
8.202500000000000E+007;-8.525145232445125E-001;-1.622496879333759E+002;
8.207000000000000E+007;-8.316955594335092E-001;-1.615674407967410E+002;
8.211500000000000E+007;-8.729313916170768E-001;-1.622970958169463E+002;
8.216000000000000E+007;-8.802598678714788E-001;-1.636114252510899E+002;
8.220500000000000E+007;-9.108746041840958E-001;-1.645835974557715E+002;
8.225000000000000E+007;-8.401799399796515E-001;-1.632459138960092E+002;
8.229500000000000E+007;-8.453772409510455E-001;-1.637633508313380E+002;
8.234000000000000E+007;-8.371360597477765E-001;-1.639512187291542E+002;
8.238500000000000E+007;-8.894606904190134E-001;-1.648597174995623E+002;
8.243000000000000E+007;-8.575645701873532E-001;-1.644783755462034E+002;
8.247500000000000E+007;-9.111789176461738E-001;-1.656670651355906E+002;
8.252000000000000E+007;-8.904705721721421E-001;-1.660294512662641E+002;
8.256500000000000E+007;-9.122099925891629E-001;-1.671122458765665E+002;
8.261000000000000E+007;-9.356124182612536E-001;-1.684306738191791E+002;
8.265500000000000E+007;-9.247959558035758E-001;-1.670153187995921E+002;
8.270000000000000E+007;-9.832936066136303E-001;-1.688488601125276E+002;
8.274500000000000E+007;-9.582059314281850E-001;-1.690064439887449E+002;
8.279000000000000E+007;-9.722716759641300E-001;-1.695576101176291E+002;
8.283500000000000E+007;-9.452421991043176E-001;-1.687069981016110E+002;
8.288000000000000E+007;-1.033113565719048E+000;-1.710646753334147E+002;
8.292500000000000E+007;-1.023739459621404E+000;-1.712415179177873E+002;
8.297000000000000E+007;-1.052818422312218E+000;-1.709111697030815E+002;
8.301500000000000E+007;-1.098647202251385E+000;-1.736149517578180E+002;
8.306000000000000E+007;-1.118651865521628E+000;-1.733969546322225E+002;
8.310500000000000E+007;-1.102448488674480E+000;-1.733336117999355E+002;
8.315000000000000E+007;-1.195119663885142E+000;-1.762838821537734E+002;
8.319500000000000E+007;-1.139385902175930E+000;-1.753018652516803E+002;
8.324000000000000E+007;-1.206064487679142E+000;-1.750768114305744E+002;
8.328500000000000E+007;-1.244335363246656E+000;-1.769284986576255E+002;
8.333000000000000E+007;-1.275841722707543E+000;-1.777546515657778E+002;
8.337500000000000E+007;-1.353354371736927E+000;-1.793786962650995E+002;
8.342000000000000E+007;-1.311311623784974E+000;-1.777760019833512E+002;
8.346500000000000E+007;-1.415704432738592E+000;1.787397825587442E+002;
8.351000000000000E+007;-1.496113161791884E+000;1.770178199068093E+002;
8.355500000000000E+007;-1.547619860849955E+000;1.746208891052476E+002;
8.360000000000000E+007;-1.581438392000265E+000;1.762656115248862E+002;
8.364500000000000E+007;-1.660675004689331E+000;1.739524801622478E+002;
8.369000000000000E+007;-1.727250640630864E+000;1.733499499758985E+002;
8.373500000000000E+007;-1.808038357037106E+000;1.722178596046841E+002;
8.378000000000000E+007;-1.933570612104659E+000;1.705406733928503E+002;
8.382500000000000E+007;-2.036949612377335E+000;1.700349754925719E+002;
8.387000000000000E+007;-2.199514762081309E+000;1.666240661687355E+002;
8.391500000000000E+007;-2.303744309306167E+000;1.662908535076378E+002;
8.396000000000000E+007;-2.451463323774319E+000;1.647762234779809E+002;
8.400500000000000E+007;-2.634495589890452E+000;1.617695044055979E+002;
8.405000000000000E+007;-2.893804578723910E+000;1.593826751012257E+002;
8.409500000000000E+007;-3.121749845582067E+000;1.581771225316498E+002;
8.414000000000000E+007;-3.429656752006700E+000;1.558173862920305E+002;
8.418500000000000E+007;-3.748861321749089E+000;1.527054759310981E+002;
8.423000000000000E+007;-4.176855184091613E+000;1.495635588363841E+002;
8.427500000000000E+007;-4.584611263266079E+000;1.471590907990727E+002;
8.432000000000000E+007;-5.133598449558382E+000;1.433665983951499E+002;
8.436500000000000E+007;-5.804021007354034E+000;1.405704394343211E+002;
8.441000000000000E+007;-6.657238250881144E+000;1.390725420641548E+002;
8.445500000000000E+007;-7.690315339861708E+000;1.322747449150900E+002;
8.450000000000000E+007;-8.950213170893573E+000;1.272561265783664E+002;
8.454500000000000E+007;-1.063501782041635E+001;1.240248640634795E+002;
8.459000000000000E+007;-1.291495156023915E+001;1.198865911573868E+002;
8.463500000000000E+007;-1.587170365069605E+001;1.140525934219540E+002;
8.468000000000000E+007;-2.125885692350085E+001;1.016483363958036E+002;
8.472500000000000E+007;-3.714955063971909E+001;5.224072669888815E+001;
8.477000000000000E+007;-2.369254982435040E+001;-7.014971320841178E+001;
8.481500000000000E+007;-1.682231325010750E+001;-7.865704361673429E+001;
8.486000000000000E+007;-1.342048046680356E+001;-8.382672621106100E+001;
8.490500000000000E+007;-1.094379814653758E+001;-9.086314571917906E+001;
8.495000000000000E+007;-9.369688874647913E+000;-9.593640831242358E+001;
8.499500000000000E+007;-7.890793914549435E+000;-9.950855482550351E+001;
8.504000000000000E+007;-6.806986513882526E+000;-1.040255430841945E+002;
8.508500000000000E+007;-5.996310567071764E+000;-1.070875739728220E+002;
8.513000000000000E+007;-5.298545230490162E+000;-1.111553257094385E+002;
8.517500000000000E+007;-4.710076408628555E+000;-1.140242806973821E+002;
8.522000000000000E+007;-4.245870566308074E+000;-1.174106454917117E+002;
8.526500000000000E+007;-3.807570572039316E+000;-1.194439923712066E+002;
8.531000000000000E+007;-3.466186053953447E+000;-1.238503321865880E+002;
8.535500000000000E+007;-3.201492132785334E+000;-1.250033164606720E+002;
8.540000000000000E+007;-2.861436104363259E+000;-1.261870513554519E+002;
8.544500000000000E+007;-2.677783801269491E+000;-1.276352113101291E+002;
8.549000000000000E+007;-2.554487905780209E+000;-1.329613454436237E+002;
8.553500000000000E+007;-2.377880019857433E+000;-1.350832735437980E+002;
8.558000000000000E+007;-2.247093402482555E+000;-1.357049829820212E+002;
8.562500000000000E+007;-2.006495645276133E+000;-1.364371782266780E+002;
8.567000000000000E+007;-1.894105778075145E+000;-1.362671174275175E+002;
8.571500000000000E+007;-1.894524000711097E+000;-1.404059456817091E+002;
8.576000000000000E+007;-1.775830822445337E+000;-1.410581114292692E+002;
8.580500000000000E+007;-1.669640412547560E+000;-1.415601256934766E+002;
8.585000000000000E+007;-1.631490809846405E+000;-1.430512666661305E+002;
8.589500000000000E+007;-1.554879851464813E+000;-1.436297040281101E+002;
8.594000000000000E+007;-1.506878751643643E+000;-1.461380828276159E+002;
8.598500000000000E+007;-1.428676164741954E+000;-1.461672992141875E+002;
8.603000000000000E+007;-1.384494901606934E+000;-1.462912487185391E+002;
8.607500000000000E+007;-1.315020457354106E+000;-1.476315957895313E+002;
8.612000000000000E+007;-1.390394081995671E+000;-1.506669019015315E+002;
8.616500000000000E+007;-1.247433188265997E+000;-1.496676783286695E+002;
8.621000000000000E+007;-1.263969513462086E+000;-1.512520896338994E+002;
8.625500000000000E+007;-1.226675192926659E+000;-1.516129829644603E+002;
8.630000000000000E+007;-1.196202306101235E+000;-1.513910598347723E+002;
8.634500000000000E+007;-1.165942127205260E+000;-1.529710712943620E+002;
8.639000000000000E+007;-1.154025510824578E+000;-1.543595179996706E+002;
8.643500000000000E+007;-1.074832205423650E+000;-1.539577467527772E+002;
8.648000000000000E+007;-1.069585409453613E+000;-1.546862512503761E+002;
8.652500000000000E+007;-1.099036185553634E+000;-1.560502873357218E+002;
8.657000000000000E+007;-1.083542567729598E+000;-1.571116079872486E+002;
8.661500000000000E+007;-9.865245612189996E-001;-1.563484883729942E+002;
8.666000000000000E+007;-1.058100583156579E+000;-1.584068232705207E+002;
8.670500000000000E+007;-1.016662613651417E+000;-1.581406429917158E+002;
8.675000000000000E+007;-9.995663782731170E-001;-1.586206423496984E+002;
8.679500000000000E+007;-1.000857110066498E+000;-1.599667454564429E+002;
8.684000000000000E+007;-9.809170267437805E-001;-1.602910867255976E+002;
8.688500000000000E+007;-9.223893014441071E-001;-1.602122377763486E+002;
8.693000000000000E+007;-9.344756493603766E-001;-1.603331518526579E+002;
8.697500000000000E+007;-8.911539115535766E-001;-1.609068680823369E+002;
8.702000000000000E+007;-9.224240536058034E-001;-1.623696225983225E+002;
8.706500000000000E+007;-8.709320838005634E-001;-1.608834025791700E+002;
8.711000000000000E+007;-9.200452877227259E-001;-1.634607610214910E+002;
8.715500000000000E+007;-8.527727306571811E-001;-1.620798011903777E+002;
8.720000000000000E+007;-8.684659261882863E-001;-1.639987297577102E+002;
8.724500000000000E+007;-9.251046560573348E-001;-1.651298697101180E+002;
8.729000000000000E+007;-8.900331457021978E-001;-1.649329076500146E+002;
8.733500000000000E+007;-9.160109024933094E-001;-1.660623568017525E+002;
8.738000000000000E+007;-8.775748065276184E-001;-1.652598544538596E+002;
8.742500000000000E+007;-8.346849934887918E-001;-1.657571470891993E+002;
8.747000000000000E+007;-8.708927311403364E-001;-1.662140978944744E+002;
8.751500000000000E+007;-8.359582308415854E-001;-1.666784370294769E+002;
8.756000000000000E+007;-8.404879599851081E-001;-1.665453807039559E+002;
8.760500000000000E+007;-8.535815462840174E-001;-1.675952272252307E+002;
8.765000000000000E+007;-8.394680773897039E-001;-1.682060040211334E+002;
8.769500000000000E+007;-8.308062337476433E-001;-1.678664915021084E+002;
8.774000000000000E+007;-8.120034316629186E-001;-1.681952574984039E+002;
8.778500000000000E+007;-8.437769869627582E-001;-1.698292147893466E+002;
8.783000000000000E+007;-7.808302903414484E-001;-1.683361839278257E+002;
8.787500000000000E+007;-8.127907553754725E-001;-1.693747044784253E+002;
8.792000000000000E+007;-8.364715629970390E-001;-1.714443286528553E+002;
8.796500000000000E+007;-8.324842053678474E-001;-1.714622745373442E+002;
8.801000000000000E+007;-8.152238765184970E-001;-1.721397650094926E+002;
8.805500000000000E+007;-8.089175501680758E-001;-1.713458062601468E+002;
8.810000000000000E+007;-7.977892321849043E-001;-1.713970369594886E+002;
8.814500000000000E+007;-8.245821533394059E-001;-1.733105098283696E+002;
8.819000000000000E+007;-7.195447302865181E-001;-1.712457090906126E+002;
8.823500000000000E+007;-8.120464257719796E-001;-1.734899407245137E+002;
8.828000000000000E+007;-7.627054044168035E-001;-1.730574499229717E+002;
8.832500000000000E+007;-7.908663868662652E-001;-1.730855212967132E+002;
8.837000000000000E+007;-8.024563153884665E-001;-1.729726584414752E+002;
8.841500000000000E+007;-7.570882573311889E-001;-1.726312183325476E+002;
8.846000000000000E+007;-7.885344586792960E-001;-1.737584666720501E+002;
8.850500000000000E+007;-7.494243309144529E-001;-1.736183437391716E+002;
8.855000000000000E+007;-7.625744941404675E-001;-1.752344725799137E+002;
8.859500000000000E+007;-8.165204448317875E-001;-1.766322263526380E+002;
8.864000000000000E+007;-7.880321635257107E-001;-1.765111640411297E+002;
8.868500000000000E+007;-7.792266164937709E-001;-1.770327133084645E+002;
8.873000000000000E+007;-7.835354394176379E-001;-1.768151628623998E+002;
8.877500000000000E+007;-7.542200453342567E-001;-1.756706150288686E+002;
8.882000000000000E+007;-7.203189984259338E-001;-1.757900179245236E+002;
8.886500000000000E+007;-7.482841627672425E-001;-1.770200428741313E+002;
8.891000000000000E+007;-7.385467769010977E-001;-1.765921310835325E+002;
8.895500000000000E+007;-7.049687206957395E-001;-1.769535624563424E+002;
8.900000000000000E+007;-7.428302671950608E-001;-1.777220888281598E+002;
