# Version 1.00
#
freq[Hz];db:Trc1_S11;ang:Trc1_S11;
8.000000000000000E+007;-7.209824894653695E-001;-1.475475394360803E+002;
8.004500000000000E+007;-7.335779509217957E-001;-1.480984951148148E+002;
8.009000000000000E+007;-6.798848349433649E-001;-1.471435092754557E+002;
8.013500000000000E+007;-7.032641771304136E-001;-1.480436934162069E+002;
8.018000000000000E+007;-6.941944154412083E-001;-1.478372322687992E+002;
8.022500000000000E+007;-6.780812258400548E-001;-1.488979457298460E+002;
8.027000000000000E+007;-7.577923397517274E-001;-1.496909843264626E+002;
8.031500000000000E+007;-6.735093592918136E-001;-1.493952052382037E+002;
8.036000000000000E+007;-7.638158116722973E-001;-1.514917063718719E+002;
8.040500000000000E+007;-7.523001490596134E-001;-1.510048773619703E+002;
8.045000000000000E+007;-7.416110167617838E-001;-1.515232014159223E+002;
8.049500000000000E+007;-7.490415387373887E-001;-1.519741759172917E+002;
8.054000000000000E+007;-6.999909169668152E-001;-1.519681133522115E+002;
8.058500000000000E+007;-7.287813984169531E-001;-1.520699741002930E+002;
8.063000000000000E+007;-6.867573897034184E-001;-1.517276217178732E+002;
8.067500000000000E+007;-7.122012439011918E-001;-1.523349023004902E+002;
8.072000000000000E+007;-7.345652343095923E-001;-1.531182933369180E+002;
8.076500000000000E+007;-7.066597046135300E-001;-1.523895142533454E+002;
8.081000000000000E+007;-7.169545817094236E-001;-1.533111440208697E+002;
8.085500000000000E+007;-7.538305339904173E-001;-1.547895091416482E+002;
8.090000000000000E+007;-7.809088431337158E-001;-1.550847651164112E+002;
8.094500000000000E+007;-7.328822926724380E-001;-1.537504699811597E+002;
8.099000000000000E+007;-7.890076829335209E-001;-1.555517115447028E+002;
8.103500000000000E+007;-7.460737899781650E-001;-1.550675141425326E+002;
8.108000000000000E+007;-7.893729429002359E-001;-1.569766724160054E+002;
8.112500000000000E+007;-7.705026790382012E-001;-1.562479146081800E+002;
8.117000000000000E+007;-7.964384493351006E-001;-1.574905048240355E+002;
8.121500000000000E+007;-8.135206831687705E-001;-1.583420690185005E+002;
8.126000000000000E+007;-7.994778451280322E-001;-1.587685067065040E+002;
8.130500000000000E+007;-7.624606361681061E-001;-1.575727749981463E+002;
8.135000000000000E+007;-7.961815173489268E-001;-1.575429244527414E+002;
8.139500000000000E+007;-7.844640002492304E-001;-1.588539395657481E+002;
8.144000000000000E+007;-8.267060778535743E-001;-1.591861820881913E+002;
8.148500000000000E+007;-8.162284376841710E-001;-1.588189842821963E+002;
8.153000000000000E+007;-7.899658563617166E-001;-1.590287794154922E+002;
8.157500000000000E+007;-8.421825683916758E-001;-1.604467552364233E+002;
8.162000000000000E+007;-8.507178031590137E-001;-1.613592870767287E+002;
8.166500000000000E+007;-8.642782920229333E-001;-1.629757339968353E+002;
8.171000000000000E+007;-8.140321099908802E-001;-1.609146680180050E+002;
8.175500000000000E+007;-8.247377169675175E-001;-1.616411547509496E+002;
8.180000000000000E+007;-8.612295360636910E-001;-1.638978940727142E+002;
8.184500000000000E+007;-9.022602143258799E-001;-1.640115540414037E+002;
8.189000000000000E+007;-8.963900778277457E-001;-1.642344991958579E+002;
8.193500000000000E+007;-9.033597847063138E-001;-1.648391693501658E+002;
8.198000000000000E+007;-9.033041757493763E-001;-1.652618653883624E+002;
8.202500000000000E+007;-9.028299861452434E-001;-1.641773825729422E+002;
8.207000000000000E+007;-9.934893333665621E-001;-1.675150444102540E+002;
8.211500000000000E+007;-9.544772670533408E-001;-1.667952705840926E+002;
8.216000000000000E+007;-1.028720196887289E+000;-1.687615573875151E+002;
8.220500000000000E+007;-9.770734850708990E-001;-1.674010325227367E+002;
8.225000000000000E+007;-9.780095722058823E-001;-1.668218709052340E+002;
8.229500000000000E+007;-1.038481947828392E+000;-1.692948795543222E+002;
8.234000000000000E+007;-1.124290753631857E+000;-1.715449510467524E+002;
8.238500000000000E+007;-1.084792285720695E+000;-1.710643920434454E+002;
8.243000000000000E+007;-1.074068306226949E+000;-1.705668421865022E+002;
8.247500000000000E+007;-1.112711178114466E+000;-1.713854415134340E+002;
8.252000000000000E+007;-1.161672677324252E+000;-1.728202783645042E+002;
8.256500000000000E+007;-1.149700707658426E+000;-1.717240149946935E+002;
8.261000000000000E+007;-1.242663141570606E+000;-1.744852205479272E+002;
8.265500000000000E+007;-1.303281713002787E+000;-1.773882226809400E+002;
8.270000000000000E+007;-1.314537738713159E+000;-1.769594313837744E+002;
8.274500000000000E+007;-1.314017345425202E+000;-1.759694386913974E+002;
8.279000000000000E+007;-1.433683072958324E+000;-1.785522861534739E+002;
8.283500000000000E+007;-1.465908691467990E+000;-1.788134270035645E+002;
8.288000000000000E+007;-1.520874296495980E+000;-1.798536270989243E+002;
8.292500000000000E+007;-1.558610378491067E+000;1.791899302933163E+002;
8.297000000000000E+007;-1.664906403761949E+000;1.772902806217142E+002;
8.301500000000000E+007;-1.704030941601037E+000;1.765776612483945E+002;
8.306000000000000E+007;-1.820586300943434E+000;1.744878461722063E+002;
8.310500000000000E+007;-1.912817423807921E+000;1.743122924804132E+002;
8.315000000000000E+007;-2.005550452861968E+000;1.717671302778157E+002;
8.319500000000000E+007;-2.161177494452826E+000;1.702522305080654E+002;
8.324000000000000E+007;-2.309368286043539E+000;1.685665430334596E+002;
8.328500000000000E+007;-2.419169429427826E+000;1.683397913707299E+002;
8.333000000000000E+007;-2.675720348019748E+000;1.654718171292283E+002;
8.337500000000000E+007;-2.897684750407599E+000;1.637685800577407E+002;
8.342000000000000E+007;-3.149516555984986E+000;1.620624556442971E+002;
8.346500000000000E+007;-3.457067464809028E+000;1.583815363750526E+002;
8.351000000000000E+007;-3.843440683724114E+000;1.559394882218119E+002;
8.355500000000000E+007;-4.313768211557450E+000;1.528546543087616E+002;
8.360000000000000E+007;-4.760170998188275E+000;1.510480398338586E+002;
8.364500000000000E+007;-5.370399920816969E+000;1.485932636813274E+002;
8.369000000000000E+007;-6.120548365644510E+000;1.422104003036809E+002;
8.373500000000000E+007;-7.072159102573647E+000;1.414987010611519E+002;
8.378000000000000E+007;-8.280391160106547E+000;1.372181483822136E+002;
8.382500000000000E+007;-9.771163538928699E+000;1.337712410954497E+002;
8.387000000000000E+007;-1.176675778030987E+001;1.297813919059354E+002;
8.391500000000000E+007;-1.451519460694715E+001;1.265843787031456E+002;
8.396000000000000E+007;-1.895613839580722E+001;1.264647525141979E+002;
8.400500000000000E+007;-2.800199728679441E+001;1.415454156502771E+002;
8.405000000000000E+007;-2.595456987126509E+001;-9.957439000496534E+001;
8.409500000000000E+007;-1.811141998349718E+001;-8.957601837646369E+001;
8.414000000000000E+007;-1.405809224098244E+001;-8.931896584371651E+001;
8.418500000000000E+007;-1.142060481591770E+001;-9.296152396126846E+001;
8.423000000000000E+007;-9.559825320543594E+000;-9.694559354424305E+001;
8.427500000000000E+007;-8.054413055410736E+000;-1.002714420977796E+002;
8.432000000000000E+007;-6.919305181099343E+000;-1.048499433378085E+002;
8.436500000000000E+007;-6.052185850288542E+000;-1.103500043525419E+002;
8.441000000000000E+007;-5.247751751237555E+000;-1.103864008138485E+002;
8.445500000000000E+007;-4.643280880603535E+000;-1.139265816234046E+002;
8.450000000000000E+007;-4.231680519125848E+000;-1.173094052699055E+002;
8.454500000000000E+007;-3.723777811299960E+000;-1.194873458110658E+002;
8.459000000000000E+007;-3.418864946419129E+000;-1.232561006581316E+002;
8.463500000000000E+007;-3.084118804566456E+000;-1.242924784489346E+002;
8.468000000000000E+007;-2.868430906406344E+000;-1.272420039288673E+002;
8.472500000000000E+007;-2.584883158549161E+000;-1.275349676016448E+002;
8.477000000000000E+007;-2.440580534855251E+000;-1.314368304261355E+002;
8.481500000000000E+007;-2.289142028449393E+000;-1.328037887561080E+002;
8.486000000000000E+007;-2.173131345012260E+000;-1.346747954044864E+002;
8.490500000000000E+007;-2.027320850335182E+000;-1.354190434061486E+002;
8.495000000000000E+007;-1.907157909836283E+000;-1.367712880625521E+002;
8.499500000000000E+007;-1.831101046012292E+000;-1.382924197141022E+002;
8.504000000000000E+007;-1.728128125905422E+000;-1.393013792655385E+002;
8.508500000000000E+007;-1.661849609674639E+000;-1.417609666712319E+002;
8.513000000000000E+007;-1.561668086686855E+000;-1.422005139695303E+002;
8.517500000000000E+007;-1.502812192179343E+000;-1.435799815370669E+002;
8.522000000000000E+007;-1.453929288058443E+000;-1.436446671359658E+002;
8.526500000000000E+007;-1.382457145319411E+000;-1.447964387186585E+002;
8.531000000000000E+007;-1.300375215581267E+000;-1.441336250322695E+002;
8.535500000000000E+007;-1.293067592886724E+000;-1.468596980260753E+002;
8.540000000000000E+007;-1.274031358664845E+000;-1.475874733707846E+002;
8.544500000000000E+007;-1.203119646548078E+000;-1.484881963028811E+002;
8.549000000000000E+007;-1.184440551067945E+000;-1.489632164483163E+002;
8.553500000000000E+007;-1.199667083682344E+000;-1.502466559173710E+002;
8.558000000000000E+007;-1.209800661920456E+000;-1.530611983894632E+002;
8.562500000000000E+007;-1.179004473436905E+000;-1.528526215149908E+002;
8.567000000000000E+007;-1.111858045123344E+000;-1.537699250285438E+002;
8.571500000000000E+007;-1.073030503629395E+000;-1.532293460862846E+002;
8.576000000000000E+007;-9.735923364020390E-001;-1.518456358414098E+002;
8.580500000000000E+007;-1.033705831260075E+000;-1.540988200140318E+002;
8.585000000000000E+007;-1.020191389833351E+000;-1.551330059293404E+002;
8.589500000000000E+007;-1.082184634767088E+000;-1.574125246817394E+002;
8.594000000000000E+007;-9.805495293596135E-001;-1.554260662377819E+002;
8.598500000000000E+007;-9.715957742767873E-001;-1.568786666413729E+002;
8.603000000000000E+007;-9.783933315677982E-001;-1.567329762021249E+002;
8.607500000000000E+007;-9.678198491490017E-001;-1.570443953106007E+002;
8.612000000000000E+007;-9.215974853701758E-001;-1.576043188259148E+002;
8.616500000000000E+007;-9.626047805939964E-001;-1.595000106996861E+002;
8.621000000000000E+007;-8.920711296803359E-001;-1.586428401845210E+002;
8.625500000000000E+007;-9.131795695866957E-001;-1.595287368075525E+002;
8.630000000000000E+007;-9.329438116725182E-001;-1.616299639433750E+002;
8.634500000000000E+007;-8.908056706201173E-001;-1.604274885154499E+002;
8.639000000000000E+007;-8.617246345301071E-001;-1.610085606969998E+002;
8.643500000000000E+007;-8.180100803107619E-001;-1.603982146947689E+002;
8.648000000000000E+007;-8.892577397796250E-001;-1.629827675510422E+002;
8.652500000000000E+007;-8.274239484420927E-001;-1.612986673806041E+002;
8.657000000000000E+007;-8.736584232314100E-001;-1.649061749256284E+002;
8.661500000000000E+007;-8.083075050417695E-001;-1.621331106981704E+002;
8.666000000000000E+007;-8.739452918889062E-001;-1.652724078031962E+002;
8.670500000000000E+007;-7.925435719096514E-001;-1.636854211062351E+002;
8.675000000000000E+007;-8.847870304516337E-001;-1.661387345395707E+002;
8.679500000000000E+007;-8.290893530972400E-001;-1.660174607957257E+002;
8.684000000000000E+007;-8.268257523803506E-001;-1.647238336994217E+002;
8.688500000000000E+007;-7.921989925028250E-001;-1.658828620415569E+002;
8.693000000000000E+007;-7.949154016674330E-001;-1.656246121203171E+002;
8.697500000000000E+007;-8.032510587933260E-001;-1.662363441530068E+002;
8.702000000000000E+007;-8.186977963572153E-001;-1.664889843796741E+002;
8.706500000000000E+007;-7.891842276337383E-001;-1.668792786185209E+002;
8.711000000000000E+007;-7.646814335230946E-001;-1.672478882441981E+002;
8.715500000000000E+007;-8.138791590052810E-001;-1.688479699959988E+002;
8.720000000000000E+007;-7.731031212342301E-001;-1.680663256239686E+002;
8.724500000000000E+007;-7.434171400199376E-001;-1.679242012171052E+002;
8.729000000000000E+007;-8.070693442914667E-001;-1.686557566068664E+002;
8.733500000000000E+007;-7.192601654376972E-001;-1.681186595653402E+002;
8.738000000000000E+007;-7.494169922064360E-001;-1.693017044772173E+002;
8.742500000000000E+007;-7.866296100908130E-001;-1.708260427487034E+002;
8.747000000000000E+007;-7.640654399770295E-001;-1.701068295071896E+002;
8.751500000000000E+007;-7.825873360052690E-001;-1.708837152012007E+002;
8.756000000000000E+007;-7.677877203048107E-001;-1.720930582146882E+002;
8.760500000000000E+007;-7.888220073482504E-001;-1.717822096210100E+002;
8.765000000000000E+007;-7.881796040572958E-001;-1.723000898814399E+002;
8.769500000000000E+007;-7.839427954907096E-001;-1.718496016806187E+002;
8.774000000000000E+007;-7.583114927905218E-001;-1.721090564068991E+002;
8.778500000000000E+007;-8.204866465290419E-001;-1.742401221507807E+002;
8.783000000000000E+007;-7.603674318316858E-001;-1.726803574034870E+002;
8.787500000000000E+007;-7.298759324611224E-001;-1.716925448001921E+002;
8.792000000000000E+007;-7.580608908208423E-001;-1.746711877610722E+002;
8.796500000000000E+007;-7.585802432523620E-001;-1.742761297003462E+002;
8.801000000000000E+007;-7.835105650919911E-001;-1.754039132427432E+002;
8.805500000000000E+007;-7.593613956922876E-001;-1.755411274385452E+002;
8.810000000000000E+007;-7.361190373955163E-001;-1.744817184458420E+002;
8.814500000000000E+007;-7.792762773049041E-001;-1.751594012683539E+002;
8.819000000000000E+007;-7.471264641920195E-001;-1.764713503557022E+002;
8.823500000000000E+007;-7.026558244143216E-001;-1.756058878963165E+002;
8.828000000000000E+007;-7.309717525070160E-001;-1.769480506722010E+002;
8.832500000000000E+007;-7.382486941711346E-001;-1.767343969733492E+002;
8.837000000000000E+007;-7.270162751606722E-001;-1.767590230245543E+002;
8.841500000000000E+007;-7.137045502860794E-001;-1.760622250337957E+002;
8.846000000000000E+007;-7.379496857692265E-001;-1.771336305796501E+002;
8.850500000000000E+007;-7.448732420751724E-001;-1.777576943343257E+002;
8.855000000000000E+007;-7.251064882401697E-001;-1.782149947070947E+002;
8.859500000000000E+007;-7.542739256288736E-001;-1.789840635379925E+002;
8.864000000000000E+007;-7.302258793968387E-001;-1.778388180667147E+002;
8.868500000000000E+007;-7.681587369001252E-001;1.798774454808939E+002;
8.873000000000000E+007;-7.454005188018783E-001;-1.792435722811354E+002;
8.877500000000000E+007;-6.992484875180967E-001;-1.783950862930008E+002;
8.882000000000000E+007;-7.366959516643195E-001;1.787867829631494E+002;
8.886500000000000E+007;-7.288024947154899E-001;-1.797058389394008E+002;
8.891000000000000E+007;-7.275457935096975E-001;1.791724104549093E+002;
8.895500000000000E+007;-7.475890970226083E-001;1.795202432721681E+002;
8.900000000000000E+007;-6.654962025305484E-001;-1.796994050724263E+002;
