# Version 1.00
#
freq[Hz];db:Trc1_S11;ang:Trc1_S11;
8.000000000000000E+007;-7.316113470577264E-001;-1.455713508880211E+002;
8.004500000000000E+007;-7.107497215439408E-001;-1.455066981544585E+002;
8.009000000000000E+007;-7.375252356811577E-001;-1.461298755232423E+002;
8.013500000000000E+007;-6.920016702824779E-001;-1.456759288207060E+002;
8.018000000000000E+007;-7.051482757700502E-001;-1.460615671806464E+002;
8.022500000000000E+007;-6.629480402362725E-001;-1.455622634848370E+002;
8.027000000000000E+007;-6.801442528592127E-001;-1.461730984942779E+002;
8.031500000000000E+007;-6.923718693712309E-001;-1.472025238803652E+002;
8.036000000000000E+007;-6.614479582646397E-001;-1.468385464805639E+002;
8.040500000000000E+007;-7.594041567828109E-001;-1.478663267890429E+002;
8.045000000000000E+007;-7.037660302829332E-001;-1.474475316052680E+002;
8.049500000000000E+007;-6.929284901559165E-001;-1.487952077846655E+002;
8.054000000000000E+007;-7.121299759124014E-001;-1.486797704181800E+002;
8.058500000000000E+007;-6.696596885555307E-001;-1.483944105843564E+002;
8.063000000000000E+007;-7.309382423624103E-001;-1.496403520886755E+002;
8.067500000000000E+007;-6.844765328660987E-001;-1.481854351370790E+002;
8.072000000000000E+007;-7.285850936925867E-001;-1.497100705103288E+002;
8.076500000000000E+007;-7.079265051716353E-001;-1.499892778573366E+002;
8.081000000000000E+007;-7.829310396847722E-001;-1.517965503697129E+002;
8.085500000000000E+007;-7.252789155899708E-001;-1.507941946912037E+002;
8.090000000000000E+007;-7.445114610646426E-001;-1.508880494025111E+002;
8.094500000000000E+007;-6.718367789948341E-001;-1.505564615919874E+002;
8.099000000000000E+007;-8.133539012975553E-001;-1.540638333033641E+002;
8.103500000000000E+007;-7.253545538823540E-001;-1.516315579882801E+002;
8.108000000000000E+007;-6.978366420637211E-001;-1.517484844897112E+002;
8.112500000000000E+007;-7.449816374536179E-001;-1.517629066514926E+002;
8.117000000000000E+007;-7.253568036883787E-001;-1.530657029636080E+002;
8.121500000000000E+007;-7.123670036073482E-001;-1.530108249623589E+002;
8.126000000000000E+007;-7.284427994431676E-001;-1.532707388914059E+002;
8.130500000000000E+007;-7.521564251259452E-001;-1.542226055203769E+002;
8.135000000000000E+007;-7.580368039651710E-001;-1.546717793857057E+002;
8.139500000000000E+007;-7.562151366353320E-001;-1.560137958990887E+002;
8.144000000000000E+007;-7.656073164562638E-001;-1.554463235082182E+002;
8.148500000000000E+007;-7.582696473734674E-001;-1.557888340239328E+002;
8.153000000000000E+007;-7.459225524707163E-001;-1.558482287717758E+002;
8.157500000000000E+007;-7.633215010593031E-001;-1.564290529368869E+002;
8.162000000000000E+007;-7.631545701781187E-001;-1.568202149940963E+002;
8.166500000000000E+007;-7.349006272436554E-001;-1.568395377008096E+002;
8.171000000000000E+007;-7.875261321241489E-001;-1.574140227230411E+002;
8.175500000000000E+007;-7.912394425514129E-001;-1.577940783502597E+002;
8.180000000000000E+007;-7.768058582443415E-001;-1.584906552623806E+002;
8.184500000000000E+007;-7.755568449251856E-001;-1.593195234982736E+002;
8.189000000000000E+007;-7.381391341301868E-001;-1.580332820907422E+002;
8.193500000000000E+007;-8.088056416783465E-001;-1.591756754170077E+002;
8.198000000000000E+007;-8.011553656622230E-001;-1.604943942444423E+002;
8.202500000000000E+007;-8.118434393120303E-001;-1.603238329796519E+002;
8.207000000000000E+007;-8.247994987214045E-001;-1.609102023590841E+002;
8.211500000000000E+007;-7.861635024914221E-001;-1.602545625695053E+002;
8.216000000000000E+007;-7.662615332286561E-001;-1.602642886115332E+002;
8.220500000000000E+007;-8.085422102252388E-001;-1.616718593084177E+002;
8.225000000000000E+007;-8.543030973083891E-001;-1.625165751320494E+002;
8.229500000000000E+007;-8.227815112651794E-001;-1.623807392289463E+002;
8.234000000000000E+007;-8.815104289804310E-001;-1.642127162329598E+002;
8.238500000000000E+007;-8.278005921527109E-001;-1.631783190355941E+002;
8.243000000000000E+007;-8.539520880273416E-001;-1.628527395074817E+002;
8.247500000000000E+007;-7.811299428344484E-001;-1.620492015752173E+002;
8.252000000000000E+007;-8.253813892991854E-001;-1.643325444914313E+002;
8.256500000000000E+007;-8.850355490320944E-001;-1.657471211846715E+002;
8.261000000000000E+007;-9.072820767503975E-001;-1.657636508078942E+002;
8.265500000000000E+007;-8.745745423989622E-001;-1.647786722097365E+002;
8.270000000000000E+007;-9.450537618000351E-001;-1.673367423582412E+002;
8.274500000000000E+007;-8.679062903687975E-001;-1.658876652981955E+002;
8.279000000000000E+007;-9.169491099928810E-001;-1.665719013341201E+002;
8.283500000000000E+007;-9.148100102446751E-001;-1.678137937494194E+002;
8.288000000000000E+007;-9.279650676757336E-001;-1.680873857820911E+002;
8.292500000000000E+007;-9.125071842540126E-001;-1.685204344560661E+002;
8.297000000000000E+007;-9.703535568690479E-001;-1.700419597341902E+002;
8.301500000000000E+007;-9.933380174727710E-001;-1.704646710355013E+002;
8.306000000000000E+007;-9.910473242651328E-001;-1.709578901631031E+002;
8.310500000000000E+007;-1.061976079827340E+000;-1.730055766963122E+002;
8.315000000000000E+007;-1.010949913960319E+000;-1.720957384341833E+002;
8.319500000000000E+007;-1.036781790685202E+000;-1.726138666953810E+002;
8.324000000000000E+007;-1.077467669071102E+000;-1.728385495039964E+002;
8.328500000000000E+007;-1.113493367506294E+000;-1.752113930125254E+002;
8.333000000000000E+007;-1.057622646991080E+000;-1.743076958290962E+002;
8.337500000000000E+007;-1.150590483197987E+000;-1.753818762942728E+002;
8.342000000000000E+007;-1.153916885681653E+000;-1.762648352230969E+002;
8.346500000000000E+007;-1.177913361400130E+000;-1.757170611705704E+002;
8.351000000000000E+007;-1.190963607955169E+000;-1.767669536629073E+002;
8.355500000000000E+007;-1.238978375513910E+000;-1.783767635928136E+002;
8.360000000000000E+007;-1.301139837299896E+000;-1.792723695398318E+002;
8.364500000000000E+007;-1.339192937910119E+000;-1.797590746552682E+002;
8.369000000000000E+007;-1.401087296169148E+000;1.784190061888107E+002;
8.373500000000000E+007;-1.444562752333474E+000;1.770046425871671E+002;
8.378000000000000E+007;-1.463385830438885E+000;1.773130054663352E+002;
8.382500000000000E+007;-1.492636197557634E+000;1.758970237730349E+002;
8.387000000000000E+007;-1.589892886378342E+000;1.749452308759639E+002;
8.391500000000000E+007;-1.710850899897410E+000;1.722298952393995E+002;
8.396000000000000E+007;-1.741604093606066E+000;1.714824456671093E+002;
8.400500000000000E+007;-1.813653200609699E+000;1.703907790216880E+002;
8.405000000000000E+007;-1.947001118803884E+000;1.683720339442035E+002;
8.409500000000000E+007;-2.028958363691250E+000;1.673924249070859E+002;
8.414000000000000E+007;-2.132173587123492E+000;1.665289763331282E+002;
8.418500000000000E+007;-2.283809878312904E+000;1.641284947022136E+002;
8.423000000000000E+007;-2.385260934062861E+000;1.651900551433646E+002;
8.427500000000000E+007;-2.589863245708429E+000;1.619401582436980E+002;
8.432000000000000E+007;-2.797132415075448E+000;1.596060138758282E+002;
8.436500000000000E+007;-3.049557371221882E+000;1.565339784956090E+002;
8.441000000000000E+007;-3.317626860363184E+000;1.541789827780198E+002;
8.445500000000000E+007;-3.661769283205205E+000;1.495744093620922E+002;
8.450000000000000E+007;-3.942907975226219E+000;1.491199463105688E+002;
8.454500000000000E+007;-4.473251921133210E+000;1.445283107420634E+002;
8.459000000000000E+007;-4.985745183040808E+000;1.436723748190828E+002;
8.463500000000000E+007;-5.605196808114178E+000;1.407750563094625E+002;
8.468000000000000E+007;-6.351253104551835E+000;1.367945582751725E+002;
8.472500000000000E+007;-7.281324107492089E+000;1.330815786057923E+002;
8.477000000000000E+007;-8.458520532290624E+000;1.279578079502044E+002;
8.481500000000000E+007;-9.913065190060781E+000;1.232995132914741E+002;
8.486000000000000E+007;-1.192700039558772E+001;1.175886817782111E+002;
8.490500000000000E+007;-1.443747180839845E+001;1.102474124928574E+002;
8.495000000000000E+007;-1.873123369059276E+001;1.029230677284172E+002;
8.499500000000000E+007;-2.625735851367579E+001;7.910709250730494E+001;
8.504000000000000E+007;-2.853417704901771E+001;-4.218782772662906E+001;
8.508500000000000E+007;-1.934545532941844E+001;-7.022216003532328E+001;
8.513000000000000E+007;-1.491084873215123E+001;-7.884407573636524E+001;
8.517500000000000E+007;-1.224869699117587E+001;-8.749177456015897E+001;
8.522000000000000E+007;-1.022377765472980E+001;-9.414050667922152E+001;
8.526500000000000E+007;-8.646502502354240E+000;-9.645085168317783E+001;
8.531000000000000E+007;-7.407590993825209E+000;-1.009752764415541E+002;
8.535500000000000E+007;-6.493771150053253E+000;-1.056650702511545E+002;
8.540000000000000E+007;-5.684399281922071E+000;-1.100518638665481E+002;
8.544500000000000E+007;-5.124365476604478E+000;-1.126954974558716E+002;
8.549000000000000E+007;-4.469917924411244E+000;-1.147811060234916E+002;
8.553500000000000E+007;-4.107194028719634E+000;-1.182286704786052E+002;
8.558000000000000E+007;-3.729533036967040E+000;-1.219160791245543E+002;
8.562500000000000E+007;-3.384982166321906E+000;-1.240174803745458E+002;
8.567000000000000E+007;-3.064280917932830E+000;-1.255529992650853E+002;
8.571500000000000E+007;-2.858736660277204E+000;-1.278545189822142E+002;
8.576000000000000E+007;-2.686610451084465E+000;-1.319311616896291E+002;
8.580500000000000E+007;-2.429472209610103E+000;-1.320937450055992E+002;
8.585000000000000E+007;-2.335269913988887E+000;-1.349417434635855E+002;
8.589500000000000E+007;-2.178072886446292E+000;-1.365406888362749E+002;
8.594000000000000E+007;-2.059006937254243E+000;-1.381431873719307E+002;
8.598500000000000E+007;-1.974947940515608E+000;-1.392588639085553E+002;
8.603000000000000E+007;-1.880930773764886E+000;-1.410635539344731E+002;
8.607500000000000E+007;-1.745194652710696E+000;-1.400160876300227E+002;
8.612000000000000E+007;-1.733738517246882E+000;-1.436525526209835E+002;
8.616500000000000E+007;-1.627148084241182E+000;-1.436058278880949E+002;
8.621000000000000E+007;-1.605901326908341E+000;-1.465410405380921E+002;
8.625500000000000E+007;-1.510427177953886E+000;-1.463916141243631E+002;
8.630000000000000E+007;-1.481493147451032E+000;-1.485655351391133E+002;
8.634500000000000E+007;-1.359012694692994E+000;-1.468825388575081E+002;
8.639000000000000E+007;-1.381655322566648E+000;-1.500678714276053E+002;
8.643500000000000E+007;-1.254391379638120E+000;-1.487450342246167E+002;
8.648000000000000E+007;-1.264168993665608E+000;-1.503063251175618E+002;
8.652500000000000E+007;-1.221308895777729E+000;-1.507142782895205E+002;
8.657000000000000E+007;-1.182970011045594E+000;-1.526769926984140E+002;
8.661500000000000E+007;-1.168535454286338E+000;-1.522076637787811E+002;
8.666000000000000E+007;-1.181794191321935E+000;-1.543874565924623E+002;
8.670500000000000E+007;-1.112440959696529E+000;-1.550488086550454E+002;
8.675000000000000E+007;-1.096560794426862E+000;-1.552949477419590E+002;
8.679500000000000E+007;-1.069767637509907E+000;-1.552858061082837E+002;
8.684000000000000E+007;-1.099649725372677E+000;-1.575382589600002E+002;
8.688500000000000E+007;-1.086921214188015E+000;-1.583119613337020E+002;
8.693000000000000E+007;-1.035352905420584E+000;-1.581466741076173E+002;
8.697500000000000E+007;-1.012321418308495E+000;-1.591265467073618E+002;
8.702000000000000E+007;-1.011978763778490E+000;-1.585330204548195E+002;
8.706500000000000E+007;-9.497826123762154E-001;-1.590275858449328E+002;
8.711000000000000E+007;-9.903795306852260E-001;-1.606885158847524E+002;
8.715500000000000E+007;-9.953269840770761E-001;-1.609123593663523E+002;
8.720000000000000E+007;-9.331628900895522E-001;-1.610382716212586E+002;
8.724500000000000E+007;-9.512921645742377E-001;-1.612347080237207E+002;
8.729000000000000E+007;-9.076301278273414E-001;-1.613161510148305E+002;
8.733500000000000E+007;-9.481393118553407E-001;-1.629687289569716E+002;
8.738000000000000E+007;-8.689807090457246E-001;-1.623237029705780E+002;
8.742500000000000E+007;-9.013936369222071E-001;-1.639770750700205E+002;
8.747000000000000E+007;-8.985331843315593E-001;-1.644149275165346E+002;
8.751500000000000E+007;-8.531752538803766E-001;-1.628203033284525E+002;
8.756000000000000E+007;-8.989544504258058E-001;-1.642687974826674E+002;
8.760500000000000E+007;-9.047694056286095E-001;-1.662091479750189E+002;
8.765000000000000E+007;-8.940098533260223E-001;-1.661096950459614E+002;
8.769500000000000E+007;-8.357624578137196E-001;-1.659744436829708E+002;
8.774000000000000E+007;-8.274671022165636E-001;-1.656029003919634E+002;
8.778500000000000E+007;-8.720811898062315E-001;-1.676616073545524E+002;
8.783000000000000E+007;-8.494061477052820E-001;-1.684086407527812E+002;
8.787500000000000E+007;-8.706361822778337E-001;-1.691236179716775E+002;
8.792000000000000E+007;-8.182822787187137E-001;-1.678177003927581E+002;
8.796500000000000E+007;-8.138201049840846E-001;-1.681215085816449E+002;
8.801000000000000E+007;-8.425583366025390E-001;-1.693317155547986E+002;
8.805500000000000E+007;-8.077773641494923E-001;-1.686753191549491E+002;
8.810000000000000E+007;-8.008947061945436E-001;-1.687093648679339E+002;
8.814500000000000E+007;-7.963480231138904E-001;-1.700174936372871E+002;
8.819000000000000E+007;-7.953629404767668E-001;-1.696695916111072E+002;
8.823500000000000E+007;-8.009746075343464E-001;-1.704709871260309E+002;
8.828000000000000E+007;-7.947660714885863E-001;-1.706985243284401E+002;
8.832500000000000E+007;-8.272888890618181E-001;-1.723199012052305E+002;
8.837000000000000E+007;-8.567663316271975E-001;-1.747755577286353E+002;
8.841500000000000E+007;-7.605919551812747E-001;-1.721098120157062E+002;
8.846000000000000E+007;-7.554492327193132E-001;-1.713930155243627E+002;
8.850500000000000E+007;-7.856965406652731E-001;-1.734816538558143E+002;
8.855000000000000E+007;-7.571322077987999E-001;-1.715929646967244E+002;
8.859500000000000E+007;-7.567377701583630E-001;-1.724882032595871E+002;
8.864000000000000E+007;-7.773234025170198E-001;-1.737588831417695E+002;
8.868500000000000E+007;-7.780530514923979E-001;-1.740600173825767E+002;
8.873000000000000E+007;-7.698463633424033E-001;-1.741019056474384E+002;
8.877500000000000E+007;-7.734121108456525E-001;-1.747446562910526E+002;
8.882000000000000E+007;-7.737183657740706E-001;-1.746787084370349E+002;
8.886500000000000E+007;-7.476948759581528E-001;-1.760562302112864E+002;
8.891000000000000E+007;-8.066629714576069E-001;-1.773074164320733E+002;
8.895500000000000E+007;-7.450834889439142E-001;-1.754502494416659E+002;
8.900000000000000E+007;-8.017067670446989E-001;-1.771937349485049E+002;
