# Version 1.00
#
freq[Hz];db:Trc1_S11;ang:Trc1_S11;
8.000000000000000E+007;-7.108885464517035E-001;-1.420494407819923E+002;
8.004500000000000E+007;-6.303492654140509E-001;-1.413711938183563E+002;
8.009000000000000E+007;-6.612000193776282E-001;-1.412106033371880E+002;
8.013500000000000E+007;-6.879834076824631E-001;-1.431094759086400E+002;
8.018000000000000E+007;-6.652131024969582E-001;-1.427061512082528E+002;
8.022500000000000E+007;-6.479753793465566E-001;-1.426540621935654E+002;
8.027000000000000E+007;-7.028093928240303E-001;-1.439141268771415E+002;
8.031500000000000E+007;-6.895070676730476E-001;-1.442183553601189E+002;
8.036000000000000E+007;-6.591166450304503E-001;-1.441155721478103E+002;
8.040500000000000E+007;-7.205836604639072E-001;-1.457014627025681E+002;
8.045000000000000E+007;-6.589192175175352E-001;-1.454070799652637E+002;
8.049500000000000E+007;-7.015994078627490E-001;-1.448511837700640E+002;
8.054000000000000E+007;-7.214304918196913E-001;-1.467857913102117E+002;
8.058500000000000E+007;-6.511315897024608E-001;-1.456811719765171E+002;
8.063000000000000E+007;-6.632371273620892E-001;-1.450517526092831E+002;
8.067500000000000E+007;-6.742767139939569E-001;-1.467580259348860E+002;
8.072000000000000E+007;-6.479148863500925E-001;-1.455782691369347E+002;
8.076500000000000E+007;-7.772953231530733E-001;-1.492650575886331E+002;
8.081000000000000E+007;-6.857072513100254E-001;-1.472962925581263E+002;
8.085500000000000E+007;-6.955967480182910E-001;-1.477541098725430E+002;
8.090000000000000E+007;-6.912704581985979E-001;-1.477884597385082E+002;
8.094500000000000E+007;-6.695259757040857E-001;-1.469138907303477E+002;
8.099000000000000E+007;-7.353097670189599E-001;-1.494316472495055E+002;
8.103500000000000E+007;-6.631236142279057E-001;-1.484048489815357E+002;
8.108000000000000E+007;-7.145907688960478E-001;-1.505282615749278E+002;
8.112500000000000E+007;-6.638304844439569E-001;-1.479799014409343E+002;
8.117000000000000E+007;-6.963905207680909E-001;-1.502283371128684E+002;
8.121500000000000E+007;-7.062291606966441E-001;-1.505612743826843E+002;
8.126000000000000E+007;-6.745226888828476E-001;-1.494229598224759E+002;
8.130500000000000E+007;-7.203154299822592E-001;-1.512807515438833E+002;
8.135000000000000E+007;-6.969580091919634E-001;-1.510237365303301E+002;
8.139500000000000E+007;-7.321883942678018E-001;-1.516279140351446E+002;
8.144000000000000E+007;-7.407187377096135E-001;-1.528472905378009E+002;
8.148500000000000E+007;-7.528778012682682E-001;-1.529902564337215E+002;
8.153000000000000E+007;-7.081963436491991E-001;-1.527955639924781E+002;
8.157500000000000E+007;-6.493428132606389E-001;-1.518507501968965E+002;
8.162000000000000E+007;-7.328374509086602E-001;-1.522671478770041E+002;
8.166500000000000E+007;-7.317650882903197E-001;-1.547958050494057E+002;
8.171000000000000E+007;-7.378374134607769E-001;-1.531287649475732E+002;
8.175500000000000E+007;-7.231354920038693E-001;-1.536217087656573E+002;
8.180000000000000E+007;-7.113508789289049E-001;-1.538834084577724E+002;
8.184500000000000E+007;-7.582223546184739E-001;-1.558689214632250E+002;
8.189000000000000E+007;-6.898337439634008E-001;-1.537247045545692E+002;
8.193500000000000E+007;-7.400493845429012E-001;-1.549659677988987E+002;
8.198000000000000E+007;-6.874639192927515E-001;-1.540962326503517E+002;
8.202500000000000E+007;-7.498932949795653E-001;-1.563853887762509E+002;
8.207000000000000E+007;-7.625563124672994E-001;-1.561711253901702E+002;
8.211500000000000E+007;-7.385769856578992E-001;-1.561601434952924E+002;
8.216000000000000E+007;-7.369376352289860E-001;-1.574182609235605E+002;
8.220500000000000E+007;-7.692458834994284E-001;-1.580294010979082E+002;
8.225000000000000E+007;-7.701590774087653E-001;-1.580470032635917E+002;
8.229500000000000E+007;-7.708454350219449E-001;-1.579208975840351E+002;
8.234000000000000E+007;-7.657891338024516E-001;-1.584291614527859E+002;
8.238500000000000E+007;-7.902515221757879E-001;-1.591964614903989E+002;
8.243000000000000E+007;-7.434555122267181E-001;-1.586476232355231E+002;
8.247500000000000E+007;-7.416938295360205E-001;-1.582846543804704E+002;
8.252000000000000E+007;-7.924915153548526E-001;-1.604074444330269E+002;
8.256500000000000E+007;-7.767629371365454E-001;-1.600623151233303E+002;
8.261000000000000E+007;-7.273732709383401E-001;-1.583822149660076E+002;
8.265500000000000E+007;-7.575708553278446E-001;-1.613799816035912E+002;
8.270000000000000E+007;-7.517189393014723E-001;-1.606042098226812E+002;
8.274500000000000E+007;-8.272509088749119E-001;-1.623809295500082E+002;
8.279000000000000E+007;-7.744969337739486E-001;-1.629335570795329E+002;
8.283500000000000E+007;-7.520983175193827E-001;-1.616409352289396E+002;
8.288000000000000E+007;-8.412092580382795E-001;-1.636039660368401E+002;
8.292500000000000E+007;-8.018140582541233E-001;-1.634212078505257E+002;
8.297000000000000E+007;-7.870498429569116E-001;-1.631418986946957E+002;
8.301500000000000E+007;-8.296007963013491E-001;-1.648864188773793E+002;
8.306000000000000E+007;-7.613714489529411E-001;-1.623279423761538E+002;
8.310500000000000E+007;-7.929903690474653E-001;-1.640910841557600E+002;
8.315000000000000E+007;-8.582627026984812E-001;-1.666327098041833E+002;
8.319500000000000E+007;-8.216106499350869E-001;-1.655412271436648E+002;
8.324000000000000E+007;-8.273599059571637E-001;-1.650775924348173E+002;
8.328500000000000E+007;-8.205931767840550E-001;-1.656176658882191E+002;
8.333000000000000E+007;-7.975530380774758E-001;-1.665427709143004E+002;
8.337500000000000E+007;-8.716581276835644E-001;-1.673567246712148E+002;
8.342000000000000E+007;-7.751921701305273E-001;-1.651820132026241E+002;
8.346500000000000E+007;-8.591380952221286E-001;-1.674222600552715E+002;
8.351000000000000E+007;-8.504748752131371E-001;-1.683243605577041E+002;
8.355500000000000E+007;-9.209987457652360E-001;-1.692303866052448E+002;
8.360000000000000E+007;-8.895543679640764E-001;-1.690303181756573E+002;
8.364500000000000E+007;-8.542512081716503E-001;-1.690919695301226E+002;
8.369000000000000E+007;-9.044167446924956E-001;-1.704565688814357E+002;
8.373500000000000E+007;-9.201201849187716E-001;-1.721439025480340E+002;
8.378000000000000E+007;-9.693421254868349E-001;-1.727366770965520E+002;
8.382500000000000E+007;-9.188223886617200E-001;-1.716347763730168E+002;
8.387000000000000E+007;-9.417134718245510E-001;-1.730038681094701E+002;
8.391500000000000E+007;-9.033162730848254E-001;-1.714932923207072E+002;
8.396000000000000E+007;-9.824679578363481E-001;-1.747771577846602E+002;
8.400500000000000E+007;-9.446477490030516E-001;-1.727592253825204E+002;
8.405000000000000E+007;-9.905101796400503E-001;-1.751441745168685E+002;
8.409500000000000E+007;-9.524658890694489E-001;-1.738044601836845E+002;
8.414000000000000E+007;-1.010870669451643E+000;-1.762489118166189E+002;
8.418500000000000E+007;-1.062086150616898E+000;-1.762835034908887E+002;
8.423000000000000E+007;-1.099510246332327E+000;-1.787693522513825E+002;
8.427500000000000E+007;-1.117943344516892E+000;-1.788030004562959E+002;
8.432000000000000E+007;-1.091473455384673E+000;-1.779428533403311E+002;
8.436500000000000E+007;-1.164805393931891E+000;1.798466195312371E+002;
8.441000000000000E+007;-1.101081407334164E+000;-1.789629221514119E+002;
8.445500000000000E+007;-1.193501185320728E+000;1.789735920877230E+002;
8.450000000000000E+007;-1.252833241861290E+000;1.786956647669025E+002;
8.454500000000000E+007;-1.247856256090003E+000;1.774885123066941E+002;
8.459000000000000E+007;-1.229040404468974E+000;1.789606833389642E+002;
8.463500000000000E+007;-1.277973261541523E+000;1.761709406128973E+002;
8.468000000000000E+007;-1.290926850517239E+000;1.761554210944122E+002;
8.472500000000000E+007;-1.401222671994338E+000;1.738097471139742E+002;
8.477000000000000E+007;-1.424213863637683E+000;1.736770380774352E+002;
8.481500000000000E+007;-1.500586375904842E+000;1.709813591440415E+002;
8.486000000000000E+007;-1.541108704290889E+000;1.722047818072052E+002;
8.490500000000000E+007;-1.608952403186584E+000;1.707848551719401E+002;
8.495000000000000E+007;-1.724317182872332E+000;1.681338905589777E+002;
8.499500000000000E+007;-1.706748503647912E+000;1.686203306135991E+002;
8.504000000000000E+007;-1.835271601890984E+000;1.666744627960603E+002;
8.508500000000000E+007;-1.921423395315081E+000;1.643183836566738E+002;
8.513000000000000E+007;-2.015529868739240E+000;1.647728121150394E+002;
8.517500000000000E+007;-2.122196103722867E+000;1.623827750234998E+002;
8.522000000000000E+007;-2.245480566673942E+000;1.606207908557532E+002;
8.526500000000000E+007;-2.426142114057729E+000;1.582716397883681E+002;
8.531000000000000E+007;-2.577276230054646E+000;1.575418480441240E+002;
8.535500000000000E+007;-2.754644430636807E+000;1.552462330880730E+002;
8.540000000000000E+007;-3.040762645562398E+000;1.523165625471282E+002;
8.544500000000000E+007;-3.263736702598805E+000;1.502670175207223E+002;
8.549000000000000E+007;-3.569731191226401E+000;1.486337420087690E+002;
8.553500000000000E+007;-3.883155929114768E+000;1.458112144495750E+002;
8.558000000000000E+007;-4.352650607223899E+000;1.410130692707008E+002;
8.562500000000000E+007;-4.846461301732660E+000;1.383975682855420E+002;
8.567000000000000E+007;-5.406657669564498E+000;1.345883462439822E+002;
8.571500000000000E+007;-6.041689388262372E+000;1.327817744533396E+002;
8.576000000000000E+007;-6.903240039497351E+000;1.296657156315864E+002;
8.580500000000000E+007;-7.934935277285848E+000;1.253586584998832E+002;
8.585000000000000E+007;-9.236336785564768E+000;1.181602893396585E+002;
8.589500000000000E+007;-1.090309929641994E+001;1.126000766123286E+002;
8.594000000000000E+007;-1.312156770169473E+001;1.073675848453389E+002;
8.598500000000000E+007;-1.621045505551298E+001;9.921085543110750E+001;
8.603000000000000E+007;-2.075040066820953E+001;8.076419943821793E+001;
8.607500000000000E+007;-2.899192646264473E+001;3.094413041652862E+001;
8.612000000000000E+007;-2.240863595899627E+001;-5.480974283181507E+001;
8.616500000000000E+007;-1.726910040689999E+001;-7.154061608538432E+001;
8.621000000000000E+007;-1.368759416287497E+001;-8.245909364278379E+001;
8.625500000000000E+007;-1.133612846435760E+001;-9.004162608965625E+001;
8.630000000000000E+007;-9.624360133453150E+000;-9.534800936968121E+001;
8.634500000000000E+007;-8.275240111457158E+000;-1.016625657292153E+002;
8.639000000000000E+007;-7.171845067856022E+000;-1.057418526339739E+002;
8.643500000000000E+007;-6.200452113944798E+000;-1.071958991737065E+002;
8.648000000000000E+007;-5.550121203475972E+000;-1.126141409185619E+002;
8.652500000000000E+007;-4.946423562412427E+000;-1.157111210331713E+002;
8.657000000000000E+007;-4.381240231095727E+000;-1.178806937249744E+002;
8.661500000000000E+007;-3.987703439164532E+000;-1.212826694588833E+002;
8.666000000000000E+007;-3.626621981618361E+000;-1.247902736054617E+002;
8.670500000000000E+007;-3.382340057391201E+000;-1.286816600984872E+002;
8.675000000000000E+007;-3.105779690643119E+000;-1.296968475982202E+002;
8.679500000000000E+007;-2.794279851239371E+000;-1.305012693904194E+002;
8.684000000000000E+007;-2.604315468926073E+000;-1.331328130355066E+002;
8.688500000000000E+007;-2.539572387855264E+000;-1.372445521686701E+002;
8.693000000000000E+007;-2.302295435221488E+000;-1.375445751123076E+002;
8.697500000000000E+007;-2.157805304617797E+000;-1.386955181958752E+002;
8.702000000000000E+007;-2.065065304919873E+000;-1.409086785399829E+002;
8.706500000000000E+007;-1.972214738209243E+000;-1.432454111675252E+002;
8.711000000000000E+007;-1.853674074004715E+000;-1.441556927783464E+002;
8.715500000000000E+007;-1.775852748677155E+000;-1.459596822015166E+002;
8.720000000000000E+007;-1.683557218562005E+000;-1.461100381965549E+002;
8.724500000000000E+007;-1.643815008903891E+000;-1.472159134259915E+002;
8.729000000000000E+007;-1.594655988376230E+000;-1.491422635163761E+002;
8.733500000000000E+007;-1.535157337965023E+000;-1.503885907619046E+002;
8.738000000000000E+007;-1.490880573819136E+000;-1.515209311868862E+002;
8.742500000000000E+007;-1.407226448427875E+000;-1.520483845960960E+002;
8.747000000000000E+007;-1.372000476788714E+000;-1.529530094350170E+002;
8.751500000000000E+007;-1.314848673522606E+000;-1.531883778242100E+002;
8.756000000000000E+007;-1.243599816435197E+000;-1.533235921750060E+002;
8.760500000000000E+007;-1.236275968990089E+000;-1.538057075874425E+002;
8.765000000000000E+007;-1.183319550403684E+000;-1.571546414004463E+002;
8.769500000000000E+007;-1.213064832470444E+000;-1.583947751927998E+002;
8.774000000000000E+007;-1.187696870708514E+000;-1.577699394122213E+002;
8.778500000000000E+007;-1.153327197091638E+000;-1.579318009874065E+002;
8.783000000000000E+007;-1.127000417390269E+000;-1.588189158208764E+002;
8.787500000000000E+007;-1.093459074851587E+000;-1.584882631404075E+002;
8.792000000000000E+007;-1.105653628888172E+000;-1.604596937142697E+002;
8.796500000000000E+007;-1.129602176476400E+000;-1.626065706624456E+002;
8.801000000000000E+007;-1.101705755402575E+000;-1.627870841047931E+002;
8.805500000000000E+007;-1.029009400779113E+000;-1.620056775691963E+002;
8.810000000000000E+007;-1.023720498118963E+000;-1.634355747740542E+002;
8.814500000000000E+007;-1.042208332196196E+000;-1.631425458934174E+002;
8.819000000000000E+007;-9.513821973011892E-001;-1.627730339583593E+002;
8.823500000000000E+007;-1.012527569080389E+000;-1.643773228934816E+002;
8.828000000000000E+007;-9.520399238152341E-001;-1.641137864140459E+002;
8.832500000000000E+007;-9.451804862689650E-001;-1.651304388703726E+002;
8.837000000000000E+007;-9.477085814067480E-001;-1.659854444090121E+002;
8.841500000000000E+007;-9.354873141651838E-001;-1.666027399053563E+002;
8.846000000000000E+007;-9.059202296117764E-001;-1.662032515456125E+002;
8.850500000000000E+007;-9.579168321529437E-001;-1.683964053717026E+002;
8.855000000000000E+007;-9.095239676471826E-001;-1.678753447292557E+002;
8.859500000000000E+007;-8.699814261682247E-001;-1.684171523596926E+002;
8.864000000000000E+007;-8.394681065684503E-001;-1.674768317651891E+002;
8.868500000000000E+007;-9.046689130623509E-001;-1.702556011722266E+002;
8.873000000000000E+007;-8.446775152038157E-001;-1.683582657321103E+002;
8.877500000000000E+007;-8.678713902480519E-001;-1.712802058672968E+002;
8.882000000000000E+007;-8.605895372187731E-001;-1.704195789689743E+002;
8.886500000000000E+007;-8.864287051045677E-001;-1.710583056856123E+002;
8.891000000000000E+007;-8.250133984684210E-001;-1.698817118534877E+002;
8.895500000000000E+007;-8.518059169555637E-001;-1.723561555181847E+002;
8.900000000000000E+007;-8.678743503910965E-001;-1.720703616688010E+002;
