# Version 1.00
#
freq[Hz];db:Trc1_S11;ang:Trc1_S11;
8.000000000000000E+007;-7.014992609675321E-001;-1.409208394823775E+002;
8.004500000000000E+007;-6.281187557771539E-001;-1.411040879890645E+002;
8.009000000000000E+007;-6.768742719454680E-001;-1.418783657335096E+002;
8.013500000000000E+007;-6.670548687847029E-001;-1.423101341535202E+002;
8.018000000000000E+007;-6.317512440165626E-001;-1.417834813106411E+002;
8.022500000000000E+007;-6.963042436706743E-001;-1.418664511172021E+002;
8.027000000000000E+007;-6.368036623961363E-001;-1.424618803236114E+002;
8.031500000000000E+007;-7.102831825989274E-001;-1.442407439236798E+002;
8.036000000000000E+007;-6.443481170130524E-001;-1.426497906051404E+002;
8.040500000000000E+007;-6.985965175492891E-001;-1.432273046475296E+002;
8.045000000000000E+007;-6.471472269930032E-001;-1.447052507051809E+002;
8.049500000000000E+007;-6.854878726147684E-001;-1.446380138004259E+002;
8.054000000000000E+007;-6.757909293272091E-001;-1.441508746285251E+002;
8.058500000000000E+007;-6.735676196663852E-001;-1.446253846853197E+002;
8.063000000000000E+007;-7.179624797816642E-001;-1.463078812321088E+002;
8.067500000000000E+007;-6.496774904706416E-001;-1.448436086712455E+002;
8.072000000000000E+007;-6.529891732457932E-001;-1.449754317935940E+002;
8.076500000000000E+007;-6.591675456624433E-001;-1.454451136995434E+002;
8.081000000000000E+007;-6.250426096513867E-001;-1.457014557875663E+002;
8.085500000000000E+007;-7.082198963814080E-001;-1.480131822601942E+002;
8.090000000000000E+007;-6.831917911483537E-001;-1.468904155124042E+002;
8.094500000000000E+007;-6.606967285690082E-001;-1.467211091033703E+002;
8.099000000000000E+007;-6.025404892214333E-001;-1.463618886318781E+002;
8.103500000000000E+007;-7.250441886060938E-001;-1.488802032333173E+002;
8.108000000000000E+007;-6.926799642316122E-001;-1.481363400372593E+002;
8.112500000000000E+007;-7.137782362372761E-001;-1.485939758996610E+002;
8.117000000000000E+007;-6.914347822186204E-001;-1.488253370705808E+002;
8.121500000000000E+007;-6.889666383910725E-001;-1.491915821031059E+002;
8.126000000000000E+007;-6.752882218826997E-001;-1.486449841582218E+002;
8.130500000000000E+007;-6.888003100686821E-001;-1.484243467478201E+002;
8.135000000000000E+007;-7.784557270080998E-001;-1.508535203812906E+002;
8.139500000000000E+007;-6.724901987768637E-001;-1.496150446981362E+002;
8.144000000000000E+007;-6.662807587921289E-001;-1.497639828588071E+002;
8.148500000000000E+007;-7.113426002681562E-001;-1.511557996467413E+002;
8.153000000000000E+007;-7.139468358424711E-001;-1.515172259603316E+002;
8.157500000000000E+007;-7.132688475010096E-001;-1.508944105201052E+002;
8.162000000000000E+007;-7.731487465386965E-001;-1.529302804358810E+002;
8.166500000000000E+007;-6.733581525231133E-001;-1.517704619248883E+002;
8.171000000000000E+007;-6.653423248922794E-001;-1.514533377543634E+002;
8.175500000000000E+007;-7.176788134158180E-001;-1.527126796351407E+002;
8.180000000000000E+007;-7.261594919230832E-001;-1.530030360026559E+002;
8.184500000000000E+007;-7.125772123833439E-001;-1.527231182317788E+002;
8.189000000000000E+007;-6.858893405357194E-001;-1.522325969353681E+002;
8.193500000000000E+007;-7.407725206167135E-001;-1.537463584089275E+002;
8.198000000000000E+007;-7.395699713793934E-001;-1.533244918161178E+002;
8.202500000000000E+007;-7.100012012838265E-001;-1.542808671663454E+002;
8.207000000000000E+007;-7.595712589473810E-001;-1.564309158699735E+002;
8.211500000000000E+007;-6.664033767577723E-001;-1.536418691840737E+002;
8.216000000000000E+007;-7.287159960032931E-001;-1.552979905317787E+002;
8.220500000000000E+007;-6.939135762842662E-001;-1.558224548603899E+002;
8.225000000000000E+007;-7.430625563459138E-001;-1.559377645033949E+002;
8.229500000000000E+007;-7.233103957327878E-001;-1.566506970242351E+002;
8.234000000000000E+007;-7.363825877700378E-001;-1.574315904514508E+002;
8.238500000000000E+007;-6.848741666594082E-001;-1.556961971226722E+002;
8.243000000000000E+007;-7.016522288963448E-001;-1.566340921706357E+002;
8.247500000000000E+007;-7.711347907655306E-001;-1.590922964715844E+002;
8.252000000000000E+007;-7.246657361870114E-001;-1.571996773311329E+002;
8.256500000000000E+007;-7.465290799518369E-001;-1.591097439428460E+002;
8.261000000000000E+007;-7.228842366088731E-001;-1.577628027697238E+002;
8.265500000000000E+007;-7.016622270400915E-001;-1.584632382807013E+002;
8.270000000000000E+007;-7.164769170520459E-001;-1.586610069002266E+002;
8.274500000000000E+007;-7.403792300562575E-001;-1.589598891331424E+002;
8.279000000000000E+007;-8.138065343341696E-001;-1.612110081646073E+002;
8.283500000000000E+007;-7.142506276681298E-001;-1.599343516080587E+002;
8.288000000000000E+007;-7.287019160761045E-001;-1.598876100983177E+002;
8.292500000000000E+007;-7.702253363349999E-001;-1.604806876404469E+002;
8.297000000000000E+007;-7.659122908767162E-001;-1.606657855300742E+002;
8.301500000000000E+007;-7.584627146028301E-001;-1.609307493858098E+002;
8.306000000000000E+007;-7.808836813952853E-001;-1.629238087473578E+002;
8.310500000000000E+007;-7.529690519950697E-001;-1.621012659766751E+002;
8.315000000000000E+007;-7.482180284243286E-001;-1.617085727283105E+002;
8.319500000000000E+007;-7.337806861644866E-001;-1.619459557874061E+002;
8.324000000000000E+007;-7.731377504852971E-001;-1.634022502912680E+002;
8.328500000000000E+007;-7.441836269852873E-001;-1.631378136539057E+002;
8.333000000000000E+007;-7.714477805288337E-001;-1.637641572017877E+002;
8.337500000000000E+007;-7.528216844966119E-001;-1.632746945894927E+002;
8.342000000000000E+007;-8.148917785341369E-001;-1.650208380698783E+002;
8.346500000000000E+007;-7.896896403964935E-001;-1.652235044059241E+002;
8.351000000000000E+007;-7.971564403521043E-001;-1.659801789494181E+002;
8.355500000000000E+007;-8.117495078010006E-001;-1.657641358555215E+002;
8.360000000000000E+007;-7.944570088440545E-001;-1.663669089510739E+002;
8.364500000000000E+007;-8.270949577461049E-001;-1.667269851284349E+002;
8.369000000000000E+007;-7.852928134298765E-001;-1.662258207340109E+002;
8.373500000000000E+007;-8.540863516653917E-001;-1.676543918721540E+002;
8.378000000000000E+007;-8.410225738333841E-001;-1.682558659552535E+002;
8.382500000000000E+007;-7.968145659050286E-001;-1.674480255921042E+002;
8.387000000000000E+007;-8.239859594529950E-001;-1.689312107243503E+002;
8.391500000000000E+007;-8.492770641604058E-001;-1.686066244975178E+002;
8.396000000000000E+007;-8.822752481613359E-001;-1.702732335919045E+002;
8.400500000000000E+007;-8.046544650266762E-001;-1.693167486057168E+002;
8.405000000000000E+007;-8.497043406701663E-001;-1.691836978060057E+002;
8.409500000000000E+007;-8.654722310596192E-001;-1.703194459291480E+002;
8.414000000000000E+007;-8.811065677752331E-001;-1.709483635617760E+002;
8.418500000000000E+007;-8.276320789421692E-001;-1.695907614768260E+002;
8.423000000000000E+007;-8.384346286298378E-001;-1.701191389265274E+002;
8.427500000000000E+007;-8.776954394371189E-001;-1.717025213896019E+002;
8.432000000000000E+007;-8.494697866458022E-001;-1.713322589534925E+002;
8.436500000000000E+007;-8.797426946440456E-001;-1.725130225866497E+002;
8.441000000000000E+007;-8.866079690134363E-001;-1.736225699730009E+002;
8.445500000000000E+007;-8.925351751714501E-001;-1.739386334361505E+002;
8.450000000000000E+007;-9.196623322320039E-001;-1.732304712649393E+002;
8.454500000000000E+007;-9.457606821837163E-001;-1.757563982616618E+002;
8.459000000000000E+007;-9.479215142006935E-001;-1.753400509263558E+002;
8.463500000000000E+007;-1.015732918708855E+000;-1.777150951209134E+002;
8.468000000000000E+007;-1.036938454935195E+000;-1.773727652607128E+002;
8.472500000000000E+007;-9.983289015542425E-001;-1.781029812716598E+002;
8.477000000000000E+007;-1.022139187187863E+000;-1.785539986232601E+002;
8.481500000000000E+007;-1.061140846563079E+000;-1.794189671584198E+002;
8.486000000000000E+007;-1.060236165900746E+000;-1.794975307107103E+002;
8.490500000000000E+007;-1.093429670534426E+000;1.797295545704126E+002;
8.495000000000000E+007;-1.111937968296836E+000;1.782308455191509E+002;
8.499500000000000E+007;-1.105047886492228E+000;1.784906968343941E+002;
8.504000000000000E+007;-1.195755288661723E+000;1.770479769779220E+002;
8.508500000000000E+007;-1.159526229607196E+000;1.780260582268669E+002;
8.513000000000000E+007;-1.152543593069080E+000;1.786693536764830E+002;
8.517500000000000E+007;-1.246506294187840E+000;1.751058733732460E+002;
8.522000000000000E+007;-1.239766418648136E+000;1.761555724178473E+002;
8.526500000000000E+007;-1.276917211639255E+000;1.746847047044801E+002;
8.531000000000000E+007;-1.305146457292044E+000;1.728575895597519E+002;
8.535500000000000E+007;-1.382344306221911E+000;1.726134765811920E+002;
8.540000000000000E+007;-1.433115613416707E+000;1.708831734361817E+002;
8.544500000000000E+007;-1.457534180741442E+000;1.700652835545520E+002;
8.549000000000000E+007;-1.504716441088357E+000;1.692207432470847E+002;
8.553500000000000E+007;-1.585307433481204E+000;1.694031092511684E+002;
8.558000000000000E+007;-1.612536246207335E+000;1.694861115651683E+002;
8.562500000000000E+007;-1.681422322151578E+000;1.659798314872140E+002;
8.567000000000000E+007;-1.756505236389506E+000;1.660648895447173E+002;
8.571500000000000E+007;-1.869223469833593E+000;1.640494006914237E+002;
8.576000000000000E+007;-1.955542679703552E+000;1.637757289062882E+002;
8.580500000000000E+007;-2.076801158444161E+000;1.601715627796200E+002;
8.585000000000000E+007;-2.216881553628481E+000;1.592720898642098E+002;
8.589500000000000E+007;-2.371272205710198E+000;1.578954598747014E+002;
8.594000000000000E+007;-2.556443179129023E+000;1.553353211235956E+002;
8.598500000000000E+007;-2.735127964284781E+000;1.533013200073616E+002;
8.603000000000000E+007;-2.964665003041568E+000;1.504016466129220E+002;
8.607500000000000E+007;-3.220037772338305E+000;1.500102993172339E+002;
8.612000000000000E+007;-3.550375387406206E+000;1.471653353566431E+002;
8.616500000000000E+007;-3.950825299989540E+000;1.467908576190895E+002;
8.621000000000000E+007;-4.313747075391485E+000;1.419736998814037E+002;
8.625500000000000E+007;-4.817073505830218E+000;1.402213996417136E+002;
8.630000000000000E+007;-5.368517584288949E+000;1.354055766329851E+002;
8.634500000000000E+007;-6.137803319259149E+000;1.333873256515753E+002;
8.639000000000000E+007;-7.069824905217940E+000;1.299101527905314E+002;
8.643500000000000E+007;-8.114330061775089E+000;1.244156965484096E+002;
8.648000000000000E+007;-9.562490668208376E+000;1.189586441168111E+002;
8.652500000000000E+007;-1.130959032099599E+001;1.183338015466914E+002;
8.657000000000000E+007;-1.398688287634591E+001;1.112028332082423E+002;
8.661500000000000E+007;-1.775342470010647E+001;1.092846634783748E+002;
8.666000000000000E+007;-2.489476154014273E+001;1.016073446394375E+002;
8.670500000000000E+007;-3.560775248197768E+001;-8.504253067973865E+001;
8.675000000000000E+007;-2.058935984799868E+001;-8.849813090630453E+001;
8.679500000000000E+007;-1.548925859281312E+001;-9.273004265342850E+001;
8.684000000000000E+007;-1.271243870345044E+001;-9.716175153249399E+001;
8.688500000000000E+007;-1.053095842639552E+001;-1.021488041560539E+002;
8.693000000000000E+007;-8.774802727237377E+000;-1.059463495838534E+002;
8.697500000000000E+007;-7.682760050572396E+000;-1.101188380433821E+002;
8.702000000000000E+007;-6.538176415685000E+000;-1.130039585938086E+002;
8.706500000000000E+007;-5.770382155097955E+000;-1.176595935053932E+002;
8.711000000000000E+007;-5.043714858488269E+000;-1.195001154981019E+002;
8.715500000000000E+007;-4.589479715804761E+000;-1.239363411523185E+002;
8.720000000000000E+007;-4.131736095277702E+000;-1.277166075122238E+002;
8.724500000000000E+007;-3.736069527424936E+000;-1.295911196289004E+002;
8.729000000000000E+007;-3.425821181141355E+000;-1.329793826506674E+002;
8.733500000000000E+007;-3.103155143598164E+000;-1.336608614261397E+002;
8.738000000000000E+007;-2.824320418242152E+000;-1.349881347550594E+002;
8.742500000000000E+007;-2.672287199810969E+000;-1.380371488554091E+002;
8.747000000000000E+007;-2.445819975737124E+000;-1.400262888334067E+002;
8.751500000000000E+007;-2.330314763104425E+000;-1.423122046783776E+002;
8.756000000000000E+007;-2.134568507748756E+000;-1.432541437001065E+002;
8.760500000000000E+007;-2.073519417726352E+000;-1.458346753612575E+002;
8.765000000000000E+007;-1.920128301950809E+000;-1.453574581955158E+002;
8.769500000000000E+007;-1.826357165459168E+000;-1.483124974580157E+002;
8.774000000000000E+007;-1.726490790799944E+000;-1.488991641469206E+002;
8.778500000000000E+007;-1.698503529649414E+000;-1.504043190967707E+002;
8.783000000000000E+007;-1.637864410843037E+000;-1.522346579409744E+002;
8.787500000000000E+007;-1.531574724525115E+000;-1.515115001438706E+002;
8.792000000000000E+007;-1.453050658763324E+000;-1.529847589072905E+002;
8.796500000000000E+007;-1.434976440685827E+000;-1.538351964311133E+002;
8.801000000000000E+007;-1.400743763696019E+000;-1.562298956576782E+002;
8.805500000000000E+007;-1.407698991808641E+000;-1.574705858184170E+002;
8.810000000000000E+007;-1.265957123514035E+000;-1.567887817865395E+002;
8.814500000000000E+007;-1.289117457208251E+000;-1.592305743878756E+002;
8.819000000000000E+007;-1.217980068023574E+000;-1.585476651079512E+002;
8.823500000000000E+007;-1.238351649189332E+000;-1.602453873982726E+002;
8.828000000000000E+007;-1.221256424172989E+000;-1.605140116953605E+002;
8.832500000000000E+007;-1.114703799644279E+000;-1.599586042286323E+002;
8.837000000000000E+007;-1.144455567557509E+000;-1.622164960596785E+002;
8.841500000000000E+007;-1.145639930204333E+000;-1.631512808969408E+002;
8.846000000000000E+007;-1.051873345843348E+000;-1.625909142358622E+002;
8.850500000000000E+007;-1.024275601130597E+000;-1.624645362141662E+002;
8.855000000000000E+007;-1.065971664946877E+000;-1.650114047289453E+002;
8.859500000000000E+007;-1.039800074856585E+000;-1.636898195027378E+002;
8.864000000000000E+007;-1.020229030128816E+000;-1.652830787024761E+002;
8.868500000000000E+007;-1.033313108019655E+000;-1.665207611416290E+002;
8.873000000000000E+007;-9.768805146657071E-001;-1.659617690603890E+002;
8.877500000000000E+007;-9.359043020824294E-001;-1.666000724982499E+002;
8.882000000000000E+007;-9.803489406308150E-001;-1.683681221167463E+002;
8.886500000000000E+007;-9.696505819179341E-001;-1.678647904351104E+002;
8.891000000000000E+007;-9.503867188249210E-001;-1.687644619242172E+002;
8.895500000000000E+007;-9.043329263786807E-001;-1.680036139333254E+002;
8.900000000000000E+007;-9.358326081218991E-001;-1.693326270244951E+002;
