# Version 1.00
#
freq[Hz];db:Trc1_S11;ang:Trc1_S11;
8.000000000000000E+007;-6.831631664749754E-001;-1.415330250297368E+002;
8.004500000000000E+007;-6.854874071502760E-001;-1.427004635129700E+002;
8.009000000000000E+007;-7.540590855864847E-001;-1.447992666429264E+002;
8.013500000000000E+007;-6.772948165771209E-001;-1.432310645226158E+002;
8.018000000000000E+007;-7.207813472613317E-001;-1.444412675526743E+002;
8.022500000000000E+007;-6.886864121872456E-001;-1.442830633057404E+002;
8.027000000000000E+007;-6.378598286491446E-001;-1.435329391832155E+002;
8.031500000000000E+007;-6.786445853039740E-001;-1.434371985054612E+002;
8.036000000000000E+007;-6.818176949467883E-001;-1.451974820032511E+002;
8.040500000000000E+007;-6.766803008186466E-001;-1.444287883306919E+002;
8.045000000000000E+007;-7.355785702805053E-001;-1.462201966534886E+002;
8.049500000000000E+007;-6.204353365801706E-001;-1.445888542491911E+002;
8.054000000000000E+007;-6.470965591228888E-001;-1.445033433906605E+002;
8.058500000000000E+007;-7.087403666414159E-001;-1.461974689635870E+002;
8.063000000000000E+007;-7.068839829881415E-001;-1.473189137749331E+002;
8.067500000000000E+007;-6.878576122679181E-001;-1.457475504280951E+002;
8.072000000000000E+007;-6.841642675814103E-001;-1.459739419330379E+002;
8.076500000000000E+007;-7.401563886082146E-001;-1.488066705283811E+002;
8.081000000000000E+007;-6.876985282880764E-001;-1.477972886849982E+002;
8.085500000000000E+007;-7.039384474052183E-001;-1.473724897176421E+002;
8.090000000000000E+007;-7.431888692660599E-001;-1.491835215638422E+002;
8.094500000000000E+007;-6.833707008948728E-001;-1.479839282471127E+002;
8.099000000000000E+007;-7.367910023363011E-001;-1.504533091347938E+002;
8.103500000000000E+007;-6.700909016033568E-001;-1.482388630170654E+002;
8.108000000000000E+007;-7.139264903666623E-001;-1.495899184962671E+002;
8.112500000000000E+007;-6.599351106231790E-001;-1.482304252457011E+002;
8.117000000000000E+007;-7.537692308022632E-001;-1.513755430828817E+002;
8.121500000000000E+007;-6.973932821897090E-001;-1.508304577053697E+002;
8.126000000000000E+007;-7.079581886677404E-001;-1.502573632701705E+002;
8.130500000000000E+007;-7.014386530359545E-001;-1.504301891760463E+002;
8.135000000000000E+007;-7.309913288323937E-001;-1.517822446750880E+002;
8.139500000000000E+007;-7.445556756283633E-001;-1.525486854230301E+002;
8.144000000000000E+007;-6.532178435137989E-001;-1.506654499433126E+002;
8.148500000000000E+007;-7.370353079202042E-001;-1.535479522240732E+002;
8.153000000000000E+007;-7.202252759397153E-001;-1.527809517718666E+002;
8.157500000000000E+007;-7.211505481630350E-001;-1.525589675252015E+002;
8.162000000000000E+007;-7.364415054236013E-001;-1.535165140914524E+002;
8.166500000000000E+007;-7.599324676946602E-001;-1.545149818090023E+002;
8.171000000000000E+007;-6.759084961449791E-001;-1.532077239196869E+002;
8.175500000000000E+007;-7.610236908076198E-001;-1.548499014242323E+002;
8.180000000000000E+007;-6.604779026350948E-001;-1.541180611453568E+002;
8.184500000000000E+007;-7.183473402931473E-001;-1.552947091409725E+002;
8.189000000000000E+007;-7.644841914917603E-001;-1.563169742728205E+002;
8.193500000000000E+007;-7.358306913617797E-001;-1.552027727411466E+002;
8.198000000000000E+007;-7.752099067549731E-001;-1.560676721002374E+002;
8.202500000000000E+007;-7.670395378207073E-001;-1.569241784722889E+002;
8.207000000000000E+007;-6.723414769390776E-001;-1.542429066160179E+002;
8.211500000000000E+007;-7.182282042889014E-001;-1.560483459694707E+002;
8.216000000000000E+007;-7.616836099786718E-001;-1.577174634444099E+002;
8.220500000000000E+007;-7.651664162521358E-001;-1.578541511918872E+002;
8.225000000000000E+007;-7.769278391173543E-001;-1.579753771599539E+002;
8.229500000000000E+007;-7.492001293004650E-001;-1.575851230176380E+002;
8.234000000000000E+007;-7.539624753804262E-001;-1.577177574311730E+002;
8.238500000000000E+007;-7.730090113493195E-001;-1.597018986388908E+002;
8.243000000000000E+007;-7.583385669320163E-001;-1.593400645236297E+002;
8.247500000000000E+007;-7.479987248335537E-001;-1.591172868355863E+002;
8.252000000000000E+007;-8.352163114866184E-001;-1.618922160874329E+002;
8.256500000000000E+007;-7.580100791003643E-001;-1.600772183767154E+002;
8.261000000000000E+007;-7.500423540940556E-001;-1.606500631336714E+002;
8.265500000000000E+007;-7.610176414233344E-001;-1.605225844686266E+002;
8.270000000000000E+007;-8.258306324574927E-001;-1.626978568183783E+002;
8.274500000000000E+007;-7.686123903008233E-001;-1.615789607943420E+002;
8.279000000000000E+007;-7.446165044935745E-001;-1.599288349402588E+002;
8.283500000000000E+007;-8.112955018012524E-001;-1.628371635763448E+002;
8.288000000000000E+007;-8.290919251974651E-001;-1.634142572117427E+002;
8.292500000000000E+007;-7.879284167029349E-001;-1.632130962949780E+002;
8.297000000000000E+007;-8.084196404431007E-001;-1.635592905603806E+002;
8.301500000000000E+007;-8.017602555777081E-001;-1.649765038958759E+002;
8.306000000000000E+007;-8.410784505646878E-001;-1.656365036341425E+002;
8.310500000000000E+007;-8.408135901874403E-001;-1.653071303088911E+002;
8.315000000000000E+007;-8.486907174836496E-001;-1.665224408376820E+002;
8.319500000000000E+007;-8.141757287310595E-001;-1.647611021388079E+002;
8.324000000000000E+007;-8.503006029739201E-001;-1.660172131125079E+002;
8.328500000000000E+007;-8.590945036668360E-001;-1.666423182097993E+002;
8.333000000000000E+007;-8.588497717145345E-001;-1.663956228439499E+002;
8.337500000000000E+007;-8.471841630674873E-001;-1.674346070962337E+002;
8.342000000000000E+007;-8.577482899110585E-001;-1.671760802371301E+002;
8.346500000000000E+007;-8.897925890272981E-001;-1.680547379765294E+002;
8.351000000000000E+007;-8.983164881804696E-001;-1.701251012220509E+002;
8.355500000000000E+007;-8.796091430836590E-001;-1.684256491081698E+002;
8.360000000000000E+007;-9.466568613500462E-001;-1.717412483323973E+002;
8.364500000000000E+007;-9.260266895518342E-001;-1.704713924502000E+002;
8.369000000000000E+007;-9.084833769819869E-001;-1.703101183627123E+002;
8.373500000000000E+007;-9.515557847532471E-001;-1.724667353809422E+002;
8.378000000000000E+007;-9.303560491641466E-001;-1.722490413189683E+002;
8.382500000000000E+007;-9.700737004197847E-001;-1.725073086823413E+002;
8.387000000000000E+007;-9.698967586512035E-001;-1.733423163436795E+002;
8.391500000000000E+007;-9.770575097358558E-001;-1.744539908139552E+002;
8.396000000000000E+007;-9.911690977584823E-001;-1.745184725730126E+002;
8.400500000000000E+007;-1.055659017388742E+000;-1.765729958565739E+002;
8.405000000000000E+007;-1.003027143634423E+000;-1.751009193852910E+002;
8.409500000000000E+007;-9.962554116393871E-001;-1.754629492993457E+002;
8.414000000000000E+007;-1.110524062142377E+000;-1.778961898719665E+002;
8.418500000000000E+007;-1.104579379921022E+000;-1.776523339897003E+002;
8.423000000000000E+007;-1.141368734480767E+000;-1.788933899356795E+002;
8.427500000000000E+007;-1.129787317160341E+000;-1.790276236529785E+002;
8.432000000000000E+007;-1.121353569254157E+000;-1.786596356940446E+002;
8.436500000000000E+007;-1.174286651866779E+000;1.794849473703422E+002;
8.441000000000000E+007;-1.191342044810895E+000;1.788527918945756E+002;
8.445500000000000E+007;-1.230895763666633E+000;1.785651675463264E+002;
8.450000000000000E+007;-1.251603462433324E+000;1.776144428440466E+002;
8.454500000000000E+007;-1.302444514547035E+000;1.763283415252922E+002;
8.459000000000000E+007;-1.337964680785738E+000;1.759300947714702E+002;
8.463500000000000E+007;-1.374422743144314E+000;1.743573751246627E+002;
8.468000000000000E+007;-1.429043120336181E+000;1.734953637103155E+002;
8.472500000000000E+007;-1.461460460436738E+000;1.729682058126529E+002;
8.477000000000000E+007;-1.525852548614746E+000;1.723001590194182E+002;
8.481500000000000E+007;-1.615884188634324E+000;1.693593197089584E+002;
8.486000000000000E+007;-1.645123396038202E+000;1.693910585780484E+002;
8.490500000000000E+007;-1.754094242125114E+000;1.686378547537972E+002;
8.495000000000000E+007;-1.825735425971736E+000;1.660562154771716E+002;
8.499500000000000E+007;-1.948807841589205E+000;1.646200928102749E+002;
8.504000000000000E+007;-2.029149876898767E+000;1.633195276288173E+002;
8.508500000000000E+007;-2.106119562922197E+000;1.628769426826371E+002;
8.513000000000000E+007;-2.253723227254580E+000;1.587123023532569E+002;
8.517500000000000E+007;-2.396336955072697E+000;1.581601405739592E+002;
8.522000000000000E+007;-2.581970162167548E+000;1.564567919198657E+002;
8.526500000000000E+007;-2.762343801820777E+000;1.554372269828835E+002;
8.531000000000000E+007;-3.002557381148753E+000;1.534046910429882E+002;
8.535500000000000E+007;-3.280249970078466E+000;1.490430840785394E+002;
8.540000000000000E+007;-3.541323015117825E+000;1.474243505199791E+002;
8.544500000000000E+007;-3.898371404714554E+000;1.456496597699359E+002;
8.549000000000000E+007;-4.303172385033520E+000;1.424246262580462E+002;
8.553500000000000E+007;-4.725630008331095E+000;1.385802117264252E+002;
8.558000000000000E+007;-5.345867866742277E+000;1.344655277873105E+002;
8.562500000000000E+007;-5.974888304048541E+000;1.340569514583938E+002;
8.567000000000000E+007;-6.822252173098095E+000;1.268241321739411E+002;
8.571500000000000E+007;-7.771049337667278E+000;1.235083899612379E+002;
8.576000000000000E+007;-9.102160783925797E+000;1.183853725765261E+002;
8.580500000000000E+007;-1.070273431011695E+001;1.138585221833677E+002;
8.585000000000000E+007;-1.291892346021512E+001;1.062811457650529E+002;
8.589500000000000E+007;-1.571790518629986E+001;1.010290802377033E+002;
8.594000000000000E+007;-2.051064853163356E+001;8.464812841451497E+001;
8.598500000000000E+007;-2.692121680990496E+001;3.217693307850770E+001;
8.603000000000000E+007;-2.320241537084480E+001;-4.399919245087359E+001;
8.607500000000000E+007;-1.717109575125738E+001;-6.945661681267406E+001;
8.612000000000000E+007;-1.409182595060400E+001;-7.954384622260426E+001;
8.616500000000000E+007;-1.156176174134875E+001;-8.758518761070798E+001;
8.621000000000000E+007;-9.780622056188655E+000;-9.326131695082621E+001;
8.625500000000000E+007;-8.395171973246876E+000;-9.986438244217553E+001;
8.630000000000000E+007;-7.280333338161186E+000;-1.040085411932457E+002;
8.634500000000000E+007;-6.340879101970393E+000;-1.060544147447021E+002;
8.639000000000000E+007;-5.642247800828891E+000;-1.106174321891575E+002;
8.643500000000000E+007;-5.069840408250703E+000;-1.155025959726708E+002;
8.648000000000000E+007;-4.495278584021095E+000;-1.182506323116020E+002;
8.652500000000000E+007;-4.085502690732682E+000;-1.211989060405183E+002;
8.657000000000000E+007;-3.692236650884363E+000;-1.232919430711184E+002;
8.661500000000000E+007;-3.339541030116521E+000;-1.254293009577916E+002;
8.666000000000000E+007;-3.100366405713975E+000;-1.275423832283830E+002;
8.670500000000000E+007;-2.923181085236848E+000;-1.310684245891403E+002;
8.675000000000000E+007;-2.693267375544401E+000;-1.329563216229869E+002;
8.679500000000000E+007;-2.492679243867420E+000;-1.343718338772788E+002;
8.684000000000000E+007;-2.325130878970333E+000;-1.360967392415093E+002;
8.688500000000000E+007;-2.228361609622487E+000;-1.388624019293869E+002;
8.693000000000000E+007;-2.094092249224140E+000;-1.391570868839666E+002;
8.697500000000000E+007;-1.959543445738083E+000;-1.416363026569610E+002;
8.702000000000000E+007;-1.898997557317790E+000;-1.440863548756031E+002;
8.706500000000000E+007;-1.771075737522524E+000;-1.440251514942040E+002;
8.711000000000000E+007;-1.716459355379711E+000;-1.466455543032419E+002;
8.715500000000000E+007;-1.607614558770310E+000;-1.461973012529988E+002;
8.720000000000000E+007;-1.609990993654583E+000;-1.489329051422626E+002;
8.724500000000000E+007;-1.548430246957672E+000;-1.492613390820912E+002;
8.729000000000000E+007;-1.493166013794647E+000;-1.497941659344999E+002;
8.733500000000000E+007;-1.391015521331859E+000;-1.496654750677904E+002;
8.738000000000000E+007;-1.325965599473637E+000;-1.516164738437535E+002;
8.742500000000000E+007;-1.345280695367878E+000;-1.528271702634533E+002;
8.747000000000000E+007;-1.257085044872535E+000;-1.520200603353972E+002;
8.751500000000000E+007;-1.231500034356717E+000;-1.536525652437128E+002;
8.756000000000000E+007;-1.219560556116034E+000;-1.547759957978495E+002;
8.760500000000000E+007;-1.205782102189108E+000;-1.567805527785101E+002;
8.765000000000000E+007;-1.165383795845502E+000;-1.558222408142330E+002;
8.769500000000000E+007;-1.093114501108126E+000;-1.564477604785356E+002;
8.774000000000000E+007;-1.119069459753775E+000;-1.574732267635177E+002;
8.778500000000000E+007;-1.160307354172969E+000;-1.610702153499389E+002;
8.783000000000000E+007;-1.071707791091288E+000;-1.595795682913963E+002;
8.787500000000000E+007;-9.869035629064055E-001;-1.582464831364555E+002;
8.792000000000000E+007;-1.021258841953907E+000;-1.591634496530345E+002;
8.796500000000000E+007;-1.026635856343298E+000;-1.612606615609185E+002;
8.801000000000000E+007;-1.053519159697720E+000;-1.626585674913269E+002;
8.805500000000000E+007;-1.009851067218451E+000;-1.621833221501724E+002;
8.810000000000000E+007;-1.003650743388564E+000;-1.635873451698431E+002;
8.814500000000000E+007;-9.428030513491434E-001;-1.631523086787861E+002;
8.819000000000000E+007;-9.962282990746354E-001;-1.642658523722596E+002;
8.823500000000000E+007;-9.900283001086320E-001;-1.643005050369613E+002;
8.828000000000000E+007;-9.730229286304454E-001;-1.656396918390810E+002;
8.832500000000000E+007;-9.222376796978291E-001;-1.643460323812815E+002;
8.837000000000000E+007;-9.482920175979952E-001;-1.662157681597419E+002;
8.841500000000000E+007;-9.091392925185455E-001;-1.647230935523253E+002;
8.846000000000000E+007;-8.914111966668978E-001;-1.672061710629099E+002;
8.850500000000000E+007;-8.825677440091291E-001;-1.667171214324469E+002;
8.855000000000000E+007;-9.031493217228962E-001;-1.680410764525506E+002;
8.859500000000000E+007;-8.955176510777286E-001;-1.676631433873955E+002;
8.864000000000000E+007;-8.775009155192062E-001;-1.682015298844666E+002;
8.868500000000000E+007;-8.525485364062981E-001;-1.689160249410646E+002;
8.873000000000000E+007;-8.824969689380683E-001;-1.698490753322050E+002;
8.877500000000000E+007;-8.414776910861742E-001;-1.689531495737307E+002;
8.882000000000000E+007;-8.813741084754682E-001;-1.710825504887750E+002;
8.886500000000000E+007;-8.456451075891770E-001;-1.716051574687098E+002;
8.891000000000000E+007;-8.329190078886474E-001;-1.710310837125655E+002;
8.895500000000000E+007;-8.518682361227692E-001;-1.725830972744864E+002;
8.900000000000000E+007;-8.865923408699964E-001;-1.738442862260081E+002;
