# Version 1.00
#
freq[Hz];db:Trc1_S11;ang:Trc1_S11;
8.000000000000000E+007;-5.219111710533018E+000;-3.203421446146514E+001;
8.003500000000000E+007;-5.166601810514060E+000;-3.392744340546534E+001;
8.007000000000000E+007;-5.263640972838169E+000;-3.323504265933090E+001;
8.010500000000000E+007;-5.448162539296418E+000;-3.362839119931274E+001;
8.014000000000000E+007;-5.454545860788856E+000;-3.451733678083859E+001;
8.017500000000000E+007;-5.472961282844570E+000;-3.546543700765544E+001;
8.021000000000000E+007;-5.633216520059005E+000;-3.534566566647235E+001;
8.024500000000000E+007;-5.758183689615666E+000;-3.495701883937016E+001;
8.028000000000000E+007;-5.760049801623408E+000;-3.604458195055896E+001;
8.031500000000000E+007;-5.909500860039755E+000;-3.873513678104668E+001;
8.035000000000000E+007;-6.061996891300384E+000;-3.726921613033213E+001;
8.038500000000000E+007;-6.107297206085605E+000;-3.693771684434472E+001;
8.042000000000000E+007;-6.135719915603236E+000;-3.981126187111538E+001;
8.045500000000000E+007;-6.411445194921974E+000;-3.905985858508099E+001;
8.049000000000000E+007;-6.518841218319679E+000;-3.788563392548768E+001;
8.052500000000000E+007;-6.580101530743610E+000;-4.143258605280443E+001;
8.056000000000000E+007;-6.730149376044124E+000;-4.224839656884205E+001;
8.059500000000000E+007;-6.888778931924377E+000;-4.079933287209509E+001;
8.063000000000000E+007;-7.000595717941843E+000;-3.950103002329993E+001;
8.066500000000000E+007;-7.183367632669332E+000;-4.042758310956063E+001;
8.070000000000000E+007;-7.219595015887523E+000;-4.104025686767857E+001;
8.073500000000000E+007;-7.287005043684887E+000;-4.081117297441080E+001;
8.077000000000000E+007;-7.603104136950319E+000;-4.047094148823204E+001;
8.080500000000000E+007;-7.549714013067186E+000;-3.819646417259185E+001;
8.084000000000000E+007;-7.586470365200526E+000;-3.931149027873745E+001;
8.087500000000000E+007;-7.730594883406556E+000;-3.722694201635780E+001;
8.091000000000000E+007;-7.613765761017726E+000;-3.870172046893791E+001;
8.094500000000000E+007;-7.588848747764309E+000;-3.863353850420977E+001;
8.098000000000000E+007;-7.527001470401850E+000;-3.805506033174603E+001;
8.101500000000000E+007;-7.438473703794067E+000;-3.648413557615995E+001;
8.105000000000000E+007;-7.260724277471035E+000;-3.818137212584208E+001;
8.108500000000000E+007;-7.220016603934338E+000;-3.824147497335218E+001;
8.112000000000000E+007;-7.155013949502165E+000;-3.909001558941042E+001;
8.115500000000000E+007;-7.029593907211557E+000;-3.807345343105374E+001;
8.119000000000000E+007;-6.950430502068079E+000;-4.072313607794535E+001;
8.122500000000000E+007;-6.945066004288029E+000;-4.072595321996788E+001;
8.126000000000000E+007;-6.862819779778985E+000;-4.244156519034308E+001;
8.129500000000000E+007;-6.868717054659182E+000;-4.370486152910559E+001;
8.133000000000000E+007;-6.909218623387019E+000;-4.707241618008176E+001;
8.136500000000000E+007;-6.887507979704176E+000;-4.767857673080373E+001;
8.140000000000000E+007;-7.013477752875359E+000;-4.796935895272470E+001;
8.143500000000000E+007;-7.060732401225212E+000;-4.855323600865800E+001;
8.147000000000000E+007;-7.201201975661174E+000;-5.119789468728323E+001;
8.150500000000000E+007;-7.187518207905159E+000;-5.255077434192857E+001;
8.154000000000000E+007;-7.376834483652586E+000;-5.432946044664339E+001;
8.157500000000000E+007;-7.457984388215666E+000;-5.512562572459405E+001;
8.161000000000000E+007;-7.518654269818987E+000;-5.727830526951623E+001;
8.164500000000000E+007;-7.734768681578891E+000;-5.724468833193131E+001;
8.168000000000000E+007;-7.853517976533082E+000;-5.944725721046782E+001;
8.171500000000000E+007;-7.983067429731314E+000;-5.891181874859320E+001;
8.175000000000000E+007;-8.066256608712823E+000;-6.061233830373891E+001;
8.178500000000000E+007;-8.393140724526331E+000;-6.262887312612575E+001;
8.182000000000000E+007;-8.447967923889332E+000;-6.301331317376127E+001;
8.185500000000000E+007;-8.519827199983411E+000;-6.420003436194779E+001;
8.189000000000000E+007;-8.882583929653771E+000;-6.667912438010517E+001;
8.192500000000000E+007;-9.009708623085329E+000;-6.661990354934517E+001;
8.196000000000000E+007;-9.099801669798723E+000;-6.707602281566312E+001;
8.199500000000000E+007;-9.428198282825877E+000;-7.139124332329702E+001;
8.203000000000000E+007;-9.574084512451790E+000;-6.953057758443401E+001;
8.206500000000000E+007;-9.811365046842250E+000;-7.081697025058324E+001;
8.210000000000000E+007;-1.021701180355439E+001;-7.274771866132241E+001;
8.213500000000000E+007;-1.039067921857315E+001;-7.409698060037928E+001;
8.217000000000000E+007;-1.035340967558043E+001;-7.448968765050124E+001;
8.220500000000000E+007;-1.080219943264624E+001;-7.480694371098038E+001;
8.224000000000000E+007;-1.121061577690804E+001;-7.691255413839554E+001;
8.227500000000000E+007;-1.114710489326185E+001;-7.604642220379340E+001;
8.231000000000000E+007;-1.160559816739539E+001;-7.826879604860868E+001;
8.234500000000000E+007;-1.203762878587345E+001;-7.967716467458139E+001;
8.238000000000000E+007;-1.215787775815377E+001;-8.021708126877610E+001;
8.241500000000000E+007;-1.247778340589589E+001;-8.137566478161175E+001;
8.245000000000000E+007;-1.325994820495927E+001;-8.329684152457921E+001;
8.248500000000000E+007;-1.332515836335971E+001;-8.413231413530629E+001;
8.252000000000000E+007;-1.350249420151539E+001;-8.459339807108930E+001;
8.255500000000000E+007;-1.439926689528093E+001;-8.537918253676438E+001;
8.259000000000000E+007;-1.454616980390771E+001;-8.598801302161445E+001;
8.262500000000000E+007;-1.477627973273513E+001;-8.709753863085882E+001;
8.266000000000000E+007;-1.561860553614178E+001;-8.845337221628874E+001;
8.269500000000000E+007;-1.625918055525625E+001;-8.989039537179589E+001;
8.273000000000000E+007;-1.643627393344239E+001;-9.128550000531465E+001;
8.276500000000000E+007;-1.720429318869163E+001;-9.356859458879346E+001;
8.280000000000000E+007;-1.806573635849629E+001;-9.458845008322332E+001;
8.283500000000000E+007;-1.813270631373645E+001;-9.246558053787668E+001;
8.287000000000000E+007;-1.915981123558215E+001;-9.636542728074697E+001;
8.290500000000000E+007;-2.009743607238216E+001;-9.815614681068598E+001;
8.294000000000000E+007;-2.095896760387162E+001;-9.719855638975821E+001;
8.297500000000000E+007;-2.174301634165639E+001;-9.806819302325877E+001;
8.301000000000000E+007;-2.359814752142963E+001;-1.021749481835823E+002;
8.304500000000000E+007;-2.524894252940155E+001;-1.020053415195779E+002;
8.308000000000000E+007;-2.557520877749780E+001;-1.016828113456410E+002;
8.311500000000000E+007;-2.930914606783174E+001;-1.078860178864974E+002;
8.315000000000000E+007;-3.090534264400641E+001;-1.073432371217645E+002;
8.318500000000000E+007;-3.298052476942090E+001;-1.034933566979636E+002;
8.322000000000000E+007;-4.063797765207796E+001;-1.289498446940043E+002;
8.325500000000000E+007;-4.435239683315656E+001;8.455802239526767E+001;
8.329000000000000E+007;-3.840258344736803E+001;7.955746944537141E+001;
8.332500000000000E+007;-3.302798737677660E+001;7.943767309879573E+001;
8.336000000000000E+007;-2.877825773582631E+001;7.759538314210160E+001;
8.339500000000000E+007;-2.799898124700639E+001;7.553585212896580E+001;
8.343000000000000E+007;-2.563194372895458E+001;7.029104093416792E+001;
8.346500000000000E+007;-2.371644949869061E+001;7.176063075032887E+001;
8.350000000000000E+007;-2.359634916866950E+001;6.877401104725891E+001;
8.353500000000000E+007;-2.194268137762057E+001;6.866213192714906E+001;
8.357000000000000E+007;-2.017914414852300E+001;6.234564081189812E+001;
8.360500000000000E+007;-1.996581882975792E+001;6.234797006339547E+001;
8.364000000000000E+007;-1.927824254151794E+001;6.451907491082450E+001;
8.367500000000000E+007;-1.784443824451869E+001;6.144694260916608E+001;
8.371000000000000E+007;-1.763503446965607E+001;6.111016528407590E+001;
8.374500000000000E+007;-1.752652000665120E+001;6.134061768550558E+001;
8.378000000000000E+007;-1.623999856660549E+001;5.797363207647182E+001;
8.381500000000000E+007;-1.579633894313460E+001;5.600997546714089E+001;
8.385000000000000E+007;-1.572599607240707E+001;5.533411679008554E+001;
8.388500000000000E+007;-1.482895737929835E+001;5.723397394546438E+001;
8.392000000000000E+007;-1.446060349307762E+001;5.396352477967315E+001;
8.395500000000000E+007;-1.432260391813396E+001;5.539489915163597E+001;
8.399000000000000E+007;-1.373499526716491E+001;5.163528365164476E+001;
8.402500000000000E+007;-1.320693956191356E+001;5.176001898611745E+001;
8.406000000000000E+007;-1.308003315539266E+001;5.065621306580542E+001;
8.409500000000000E+007;-1.271108804395246E+001;4.813123552619825E+001;
8.413000000000000E+007;-1.209160493146429E+001;4.712230704532558E+001;
8.416500000000000E+007;-1.193548844494842E+001;4.535956220746773E+001;
8.420000000000000E+007;-1.171641526995420E+001;4.714475754406015E+001;
8.423500000000000E+007;-1.133755198474685E+001;4.601977093694376E+001;
8.427000000000000E+007;-1.125686630674315E+001;4.529009540567768E+001;
8.430500000000000E+007;-1.105368381620489E+001;4.493226625797739E+001;
8.434000000000000E+007;-1.070478840154492E+001;4.407985129850172E+001;
8.437500000000000E+007;-1.033624777710078E+001;3.959763985226597E+001;
8.441000000000000E+007;-1.043884256857574E+001;4.213043480143068E+001;
8.444500000000000E+007;-9.972403109491323E+000;3.984559758356145E+001;
8.448000000000000E+007;-9.822104233757257E+000;4.006694917881787E+001;
8.451500000000000E+007;-9.706011260389072E+000;3.772403176654468E+001;
8.455000000000000E+007;-9.415232100403070E+000;3.731030801964316E+001;
8.458500000000000E+007;-9.140998185911121E+000;3.679951141400808E+001;
8.462000000000000E+007;-9.144897647329014E+000;3.568574206490205E+001;
8.465500000000000E+007;-8.975163107718894E+000;3.627556766709272E+001;
8.469000000000000E+007;-8.633437900577992E+000;3.328402470453206E+001;
8.472500000000000E+007;-8.557186971617185E+000;3.294446064263484E+001;
8.476000000000000E+007;-8.434340436843376E+000;3.287999676194175E+001;
8.479500000000000E+007;-8.163418497212264E+000;3.100002071224363E+001;
8.483000000000000E+007;-7.951095415675201E+000;2.830884520176684E+001;
8.486500000000000E+007;-8.056143149616650E+000;3.087061778107270E+001;
8.490000000000000E+007;-7.799840494865448E+000;2.969098644758412E+001;
8.493500000000000E+007;-7.679726079905916E+000;2.793964695111431E+001;
8.497000000000000E+007;-7.556512927618253E+000;2.755691752763516E+001;
8.500500000000000E+007;-7.428097105962743E+000;2.640231046143245E+001;
8.504000000000000E+007;-7.307768866692159E+000;2.590042604854826E+001;
8.507500000000000E+007;-7.232816360475367E+000;2.467540568649629E+001;
8.511000000000000E+007;-7.029691911835472E+000;2.384320091781034E+001;
8.514500000000000E+007;-6.905674382913345E+000;2.241935495159492E+001;
8.518000000000000E+007;-6.925938065105008E+000;2.167149254035887E+001;
8.521500000000000E+007;-6.708270045859104E+000;2.023066911323616E+001;
8.525000000000000E+007;-6.638078334621343E+000;2.169664668308203E+001;
8.528500000000000E+007;-6.580710232825167E+000;2.028648027366891E+001;
8.532000000000000E+007;-6.520541843047859E+000;1.994856003105369E+001;
8.535500000000000E+007;-6.337447228316594E+000;1.770984075160976E+001;
8.539000000000000E+007;-6.269848776998846E+000;1.797339801290151E+001;
8.542500000000000E+007;-6.216313748747143E+000;1.665243669563420E+001;
8.546000000000000E+007;-6.120820701472561E+000;1.569554713090762E+001;
8.549500000000000E+007;-5.989876741597561E+000;1.437227223387765E+001;
8.553000000000000E+007;-5.898950827491627E+000;1.367411885008566E+001;
8.556500000000000E+007;-5.853321100281979E+000;1.331303488379755E+001;
8.560000000000000E+007;-5.724853011560792E+000;1.138307326025739E+001;
8.563500000000000E+007;-5.752368745740234E+000;1.010586291496159E+001;
8.567000000000000E+007;-5.621504267790374E+000;1.143060050854192E+001;
8.570500000000000E+007;-5.537963621706448E+000;9.551642597961926E+000;
8.574000000000000E+007;-5.536156769807938E+000;9.113888081996608E+000;
8.577500000000000E+007;-5.469339404381811E+000;9.425410923508270E+000;
8.581000000000000E+007;-5.316889662396745E+000;6.951701641293701E+000;
8.584500000000000E+007;-5.324550961119167E+000;7.882738957213447E+000;
8.588000000000000E+007;-5.289522037004161E+000;6.896316879655204E+000;
8.591500000000000E+007;-5.206326886529371E+000;5.559089483467950E+000;
8.595000000000000E+007;-5.190281337573068E+000;4.576059411734155E+000;
8.598500000000000E+007;-5.177021475040251E+000;5.719927439576361E+000;
8.602000000000000E+007;-5.040117010964090E+000;2.418307160990200E+000;
8.605500000000000E+007;-5.034765583863451E+000;3.031097255771598E+000;
8.609000000000000E+007;-5.010699541013731E+000;3.766524886320332E+000;
8.612500000000000E+007;-4.864488266155563E+000;1.435499308169709E+000;
8.616000000000000E+007;-4.886280221445023E+000;8.681414700665784E-001;
8.619500000000000E+007;-4.827027708866509E+000;9.603115174116930E-001;
8.623000000000000E+007;-4.809205570875403E+000;6.547227650380785E-001;
8.626500000000000E+007;-4.710081152181959E+000;-1.044269530072568E+000;
8.630000000000000E+007;-4.771823308664811E+000;-3.415468329418471E-001;
8.633500000000000E+007;-4.599443234591639E+000;-2.943686380877943E+000;
8.637000000000000E+007;-4.615936529882998E+000;-2.549644542333749E+000;
8.640500000000000E+007;-4.542101813536623E+000;-4.153907664158271E+000;
8.644000000000000E+007;-4.551061553806462E+000;-3.436526511458632E+000;
8.647500000000000E+007;-4.467263080803739E+000;-4.815459040166001E+000;
8.651000000000000E+007;-4.463377944115080E+000;-5.186101464925004E+000;
8.654500000000000E+007;-4.447786821838988E+000;-6.255693999691965E+000;
8.658000000000000E+007;-4.347449984347617E+000;-8.429074827007725E+000;
8.661500000000000E+007;-4.366494608785549E+000;-6.466581090988811E+000;
8.665000000000000E+007;-4.281206868744610E+000;-9.119133810535081E+000;
8.668500000000000E+007;-4.349873454712996E+000;-7.210510001419987E+000;
8.672000000000000E+007;-4.282415996559613E+000;-7.631045963167824E+000;
8.675500000000000E+007;-4.159129636659313E+000;-9.802641711186256E+000;
8.679000000000000E+007;-4.168235341970031E+000;-1.035911992212922E+001;
8.682500000000000E+007;-4.187873966327205E+000;-1.234900105301833E+001;
8.686000000000000E+007;-4.136389664270912E+000;-1.061282691455427E+001;
8.689500000000000E+007;-4.153002489859055E+000;-1.142078573316042E+001;
8.693000000000000E+007;-4.001379924235690E+000;-1.287115808710596E+001;
8.696500000000000E+007;-4.113082414371752E+000;-1.247409792232669E+001;
8.700000000000000E+007;-4.013619320583578E+000;-1.520825803570420E+001;
