# Version 1.00
#
freq[Hz];db:Trc1_S11;ang:Trc1_S11;
8.000000000000000E+007;-4.819659953703470E+000;-3.076044959561015E+001;
8.003500000000000E+007;-4.868296713593168E+000;-2.940732461956582E+001;
8.007000000000000E+007;-4.927329589899004E+000;-3.092497689539755E+001;
8.010500000000000E+007;-5.040050704845531E+000;-3.149597784369492E+001;
8.014000000000000E+007;-5.061205499932415E+000;-3.257141734124959E+001;
8.017500000000000E+007;-5.156311654961077E+000;-3.332188548703361E+001;
8.021000000000000E+007;-5.313089441039147E+000;-3.461122383291679E+001;
8.024500000000000E+007;-5.338621774124170E+000;-3.409919497615490E+001;
8.028000000000000E+007;-5.464022000462069E+000;-3.490890495890459E+001;
8.031500000000000E+007;-5.557599972619973E+000;-3.342065321542390E+001;
8.035000000000000E+007;-5.715583186880412E+000;-3.406126815734762E+001;
8.038500000000000E+007;-5.673034461659610E+000;-3.455966326948947E+001;
8.042000000000000E+007;-5.880625465722994E+000;-3.690417753839449E+001;
8.045500000000000E+007;-5.922208880280041E+000;-3.797601597973735E+001;
8.049000000000000E+007;-6.042566220789988E+000;-3.674609642150095E+001;
8.052500000000000E+007;-6.120811974687894E+000;-3.878495769802102E+001;
8.056000000000000E+007;-6.232559467592506E+000;-3.944578769388658E+001;
8.059500000000000E+007;-6.300735707920440E+000;-3.923427190019645E+001;
8.063000000000000E+007;-6.458007865202739E+000;-3.791904510920325E+001;
8.066500000000000E+007;-6.625507398540925E+000;-3.984641646553067E+001;
8.070000000000000E+007;-6.673837521815520E+000;-3.872716919394097E+001;
8.073500000000000E+007;-6.815809860536223E+000;-3.769719583292868E+001;
8.077000000000000E+007;-6.933357380530176E+000;-3.930186042044885E+001;
8.080500000000000E+007;-6.971412923957821E+000;-3.761962522827356E+001;
8.084000000000000E+007;-7.063869768352200E+000;-3.840598465117949E+001;
8.087500000000000E+007;-7.078873038885442E+000;-3.680791750393201E+001;
8.091000000000000E+007;-7.022359182311919E+000;-3.685943336105085E+001;
8.094500000000000E+007;-6.945316660484123E+000;-3.756929314825160E+001;
8.098000000000000E+007;-7.033685926757249E+000;-3.627690781006004E+001;
8.101500000000000E+007;-6.870283258084572E+000;-3.557511798514424E+001;
8.105000000000000E+007;-6.743419635813498E+000;-3.662241072967675E+001;
8.108500000000000E+007;-6.760455740625705E+000;-3.813365752249072E+001;
8.112000000000000E+007;-6.648280335232815E+000;-3.689459512792371E+001;
8.115500000000000E+007;-6.602822778346583E+000;-3.816686978129668E+001;
8.119000000000000E+007;-6.548892493375956E+000;-3.933608808167475E+001;
8.122500000000000E+007;-6.415363688799054E+000;-4.015783879534013E+001;
8.126000000000000E+007;-6.389336378691533E+000;-3.996334648234328E+001;
8.129500000000000E+007;-6.433244495363215E+000;-4.413136614836190E+001;
8.133000000000000E+007;-6.463758931264652E+000;-4.321567435848683E+001;
8.136500000000000E+007;-6.384713540809905E+000;-4.488156323914860E+001;
8.140000000000000E+007;-6.500897701938411E+000;-4.621771500531487E+001;
8.143500000000000E+007;-6.524613261694544E+000;-4.854333430878617E+001;
8.147000000000000E+007;-6.590097364602521E+000;-4.882674561598175E+001;
8.150500000000000E+007;-6.647497418550166E+000;-4.993478393861406E+001;
8.154000000000000E+007;-6.744892815583216E+000;-5.119085436240351E+001;
8.157500000000000E+007;-6.789841740429649E+000;-5.252850841059644E+001;
8.161000000000000E+007;-6.899506585316623E+000;-5.271257979938592E+001;
8.164500000000000E+007;-7.018783723859152E+000;-5.526391814201325E+001;
8.168000000000000E+007;-7.128366081277955E+000;-5.491034257559471E+001;
8.171500000000000E+007;-7.134033007004935E+000;-5.628342838136815E+001;
8.175000000000000E+007;-7.381831838270600E+000;-5.769653464526036E+001;
8.178500000000000E+007;-7.543305522764648E+000;-5.957404177564212E+001;
8.182000000000000E+007;-7.497098955608064E+000;-5.941033164085095E+001;
8.185500000000000E+007;-7.838604567645618E+000;-6.095827368583809E+001;
8.189000000000000E+007;-7.973607485332988E+000;-6.201626123709377E+001;
8.192500000000000E+007;-8.082348434622038E+000;-6.192936594150112E+001;
8.196000000000000E+007;-8.277145507600723E+000;-6.454445990577806E+001;
8.199500000000000E+007;-8.491951498042587E+000;-6.617516722690873E+001;
8.203000000000000E+007;-8.511060319980652E+000;-6.456976764264405E+001;
8.206500000000000E+007;-8.710176452080894E+000;-6.842587957865241E+001;
8.210000000000000E+007;-9.074691107050260E+000;-6.916550366266795E+001;
8.213500000000000E+007;-9.193881663950132E+000;-7.200563648647149E+001;
8.217000000000000E+007;-9.324138827019558E+000;-7.009050955547603E+001;
8.220500000000000E+007;-9.591606190251490E+000;-7.112650773306510E+001;
8.224000000000000E+007;-9.749566641141138E+000;-7.147281797682484E+001;
8.227500000000000E+007;-9.926699490876038E+000;-7.262876266544184E+001;
8.231000000000000E+007;-1.026042968784463E+001;-7.640285793355650E+001;
8.234500000000000E+007;-1.045877027460208E+001;-7.579615635625450E+001;
8.238000000000000E+007;-1.060333241625638E+001;-7.681910480301525E+001;
8.241500000000000E+007;-1.101653916124000E+001;-7.612012406244948E+001;
8.245000000000000E+007;-1.121103461050700E+001;-7.771168810824364E+001;
8.248500000000000E+007;-1.143956269653677E+001;-7.897944210805069E+001;
8.252000000000000E+007;-1.185781359673685E+001;-7.893904938502415E+001;
8.255500000000000E+007;-1.218097543551958E+001;-8.262522792277298E+001;
8.259000000000000E+007;-1.234277251569837E+001;-8.119343223501409E+001;
8.262500000000000E+007;-1.273202084259880E+001;-8.441764970894357E+001;
8.266000000000000E+007;-1.331724927735918E+001;-8.565017578076814E+001;
8.269500000000000E+007;-1.330242823739464E+001;-8.520305679758135E+001;
8.273000000000000E+007;-1.376893654164563E+001;-8.577662089507450E+001;
8.276500000000000E+007;-1.446556419312288E+001;-8.863293569628594E+001;
8.280000000000000E+007;-1.466383360210327E+001;-8.823240949301213E+001;
8.283500000000000E+007;-1.502136760322904E+001;-8.886713702474336E+001;
8.287000000000000E+007;-1.589137052032629E+001;-9.182373742288227E+001;
8.290500000000000E+007;-1.622491693172616E+001;-9.164662659957145E+001;
8.294000000000000E+007;-1.670212709918971E+001;-9.187372928865247E+001;
8.297500000000000E+007;-1.738639500085635E+001;-9.225060815007112E+001;
8.301000000000000E+007;-1.817588960966463E+001;-9.383888914860900E+001;
8.304500000000000E+007;-1.862753572406034E+001;-9.625042204328372E+001;
8.308000000000000E+007;-1.941917285892549E+001;-9.570138639210178E+001;
8.311500000000000E+007;-2.054703210696400E+001;-9.631032286396736E+001;
8.315000000000000E+007;-2.112564189753228E+001;-9.780265850940705E+001;
8.318500000000000E+007;-2.237937536309642E+001;-9.789408349870061E+001;
8.322000000000000E+007;-2.433574160644584E+001;-1.007085754246492E+002;
8.325500000000000E+007;-2.449700255820421E+001;-9.927480706105952E+001;
8.329000000000000E+007;-2.664876690956370E+001;-1.035157550577023E+002;
8.332500000000000E+007;-2.911960567508319E+001;-1.027808641519866E+002;
8.336000000000000E+007;-3.122746365502048E+001;-1.033372682833783E+002;
8.339500000000000E+007;-3.358229891255453E+001;-1.035117428038739E+002;
8.343000000000000E+007;-5.688341892138860E+001;-1.687155966038077E+002;
8.346500000000000E+007;-4.645033184654419E+001;5.320854795485652E+001;
8.350000000000000E+007;-4.588878806153228E+001;6.796733903446226E+001;
8.353500000000000E+007;-3.113027972661698E+001;6.673174185941745E+001;
8.357000000000000E+007;-2.876798493089815E+001;7.288379158882430E+001;
8.360500000000000E+007;-2.864513635662145E+001;6.752079878299894E+001;
8.364000000000000E+007;-2.552133948243377E+001;6.755132248383468E+001;
8.367500000000000E+007;-2.318001212726724E+001;6.956348514498285E+001;
8.371000000000000E+007;-2.292292958314736E+001;6.376057520575507E+001;
8.374500000000000E+007;-2.182151717743725E+001;6.326060088667731E+001;
8.378000000000000E+007;-2.024397149412934E+001;6.074335188182175E+001;
8.381500000000000E+007;-2.002245842457519E+001;6.277143226431481E+001;
8.385000000000000E+007;-1.908771890184462E+001;6.043503448278199E+001;
8.388500000000000E+007;-1.790748287201186E+001;5.767849959034486E+001;
8.392000000000000E+007;-1.778444136006400E+001;5.882924499006553E+001;
8.395500000000000E+007;-1.700230978829735E+001;5.843813738916008E+001;
8.399000000000000E+007;-1.614035623904741E+001;5.526686835091946E+001;
8.402500000000000E+007;-1.591702471027314E+001;5.452143697863203E+001;
8.406000000000000E+007;-1.559237587119804E+001;5.546098714517091E+001;
8.409500000000000E+007;-1.470606783906448E+001;5.267768079739489E+001;
8.413000000000000E+007;-1.441020671371384E+001;5.242327837987202E+001;
8.416500000000000E+007;-1.424548525340491E+001;5.172069676524238E+001;
8.420000000000000E+007;-1.360707900978091E+001;5.044690139222561E+001;
8.423500000000000E+007;-1.326707922132971E+001;4.921264452150427E+001;
8.427000000000000E+007;-1.326242408258455E+001;4.955925746348036E+001;
8.430500000000000E+007;-1.263757991199488E+001;5.009873544316450E+001;
8.434000000000000E+007;-1.230152678363967E+001;4.771307164734861E+001;
8.437500000000000E+007;-1.214312188810533E+001;4.560684819868473E+001;
8.441000000000000E+007;-1.181161580892366E+001;4.482468099794859E+001;
8.444500000000000E+007;-1.113280032498305E+001;4.248223890241840E+001;
8.448000000000000E+007;-1.127411945205573E+001;4.185443457534826E+001;
8.451500000000000E+007;-1.112987208576532E+001;4.360802099228894E+001;
8.455000000000000E+007;-1.054731437700799E+001;4.051965626809842E+001;
8.458500000000000E+007;-1.047661015608198E+001;3.901102928804838E+001;
8.462000000000000E+007;-1.031765186565783E+001;3.974056984514473E+001;
8.465500000000000E+007;-9.864964194782704E+000;3.772643495458247E+001;
8.469000000000000E+007;-9.739019670159125E+000;3.773709754040730E+001;
8.472500000000000E+007;-9.626892426459266E+000;3.596270361723371E+001;
8.476000000000000E+007;-9.396097721469497E+000;3.526793815907915E+001;
8.479500000000000E+007;-9.131230845632530E+000;3.446989696947127E+001;
8.483000000000000E+007;-8.951120896581660E+000;3.224688080071816E+001;
8.486500000000000E+007;-8.841595374622468E+000;3.199628963167991E+001;
8.490000000000000E+007;-8.603390604432335E+000;3.189152683433259E+001;
8.493500000000000E+007;-8.540712056889323E+000;3.127121975148718E+001;
8.497000000000000E+007;-8.334098064136100E+000;2.969617229246372E+001;
8.500500000000000E+007;-8.167873158791027E+000;2.908070743419112E+001;
8.504000000000000E+007;-8.010272331810462E+000;2.900839835127770E+001;
8.507500000000000E+007;-7.967418947648702E+000;2.850267109208481E+001;
8.511000000000000E+007;-7.674643901885405E+000;2.601095602085472E+001;
8.514500000000000E+007;-7.591891194399255E+000;2.402638000495366E+001;
8.518000000000000E+007;-7.541055354168545E+000;2.540425737695301E+001;
8.521500000000000E+007;-7.381564723682020E+000;2.319615848284161E+001;
8.525000000000000E+007;-7.319239784141352E+000;2.320518423563092E+001;
8.528500000000000E+007;-7.223683689092502E+000;2.222112976936926E+001;
8.532000000000000E+007;-7.005955704641974E+000;2.087760084354969E+001;
8.535500000000000E+007;-6.903410233560401E+000;2.210255470740249E+001;
8.539000000000000E+007;-6.786649450234340E+000;1.984822411935423E+001;
8.542500000000000E+007;-6.760055941526485E+000;2.016654554612807E+001;
8.546000000000000E+007;-6.607823281215667E+000;1.835319737801836E+001;
8.549500000000000E+007;-6.544311898071237E+000;1.791885200981628E+001;
8.553000000000000E+007;-6.508259807166771E+000;1.722453874802361E+001;
8.556500000000000E+007;-6.378608915674194E+000;1.607303312695094E+001;
8.560000000000000E+007;-6.321891318327088E+000;1.582993500435318E+001;
8.563500000000000E+007;-6.200626928805912E+000;1.437020580963235E+001;
8.567000000000000E+007;-6.031793682087347E+000;1.381286614061112E+001;
8.570500000000000E+007;-5.957551228759145E+000;1.263123865075662E+001;
8.574000000000000E+007;-5.971199708767060E+000;1.141991340983753E+001;
8.577500000000000E+007;-5.787970384116494E+000;9.911230501494696E+000;
8.581000000000000E+007;-5.783863994280932E+000;1.187324391502104E+001;
8.584500000000000E+007;-5.737441210825319E+000;1.031149504650655E+001;
8.588000000000000E+007;-5.638674558786869E+000;9.476051307455631E+000;
8.591500000000000E+007;-5.611092300152449E+000;7.819161607390893E+000;
8.595000000000000E+007;-5.572557597429137E+000;6.732161028205594E+000;
8.598500000000000E+007;-5.506308117839684E+000;8.415954691615525E+000;
8.602000000000000E+007;-5.485635840299015E+000;6.182933962673630E+000;
8.605500000000000E+007;-5.317423023445172E+000;6.287089416256714E+000;
8.609000000000000E+007;-5.237747450028666E+000;3.746626452200884E+000;
8.612500000000000E+007;-5.256519109198293E+000;4.668768467979118E+000;
8.616000000000000E+007;-5.227876036201050E+000;4.101060496944943E+000;
8.619500000000000E+007;-5.112333147448491E+000;1.641392579408102E+000;
8.623000000000000E+007;-5.043123352525707E+000;2.111614522592223E+000;
8.626500000000000E+007;-5.053826793614761E+000;1.162112354466350E+000;
8.630000000000000E+007;-4.937394526102972E+000;4.824938078239276E-001;
8.633500000000000E+007;-4.885375672304093E+000;-1.066068996442518E+000;
8.637000000000000E+007;-4.854727126741615E+000;-2.238920221452029E+000;
8.640500000000000E+007;-4.797071573396354E+000;-2.247275202528938E+000;
8.644000000000000E+007;-4.756442169860906E+000;-1.666674866214747E+000;
8.647500000000000E+007;-4.727749059679342E+000;-1.947366208470408E+000;
8.651000000000000E+007;-4.653646593061241E+000;-3.877038365288694E+000;
8.654500000000000E+007;-4.580488170254319E+000;-5.740920304548313E+000;
8.658000000000000E+007;-4.561897486771967E+000;-5.767385034557174E+000;
8.661500000000000E+007;-4.547248762141261E+000;-4.472015675737978E+000;
8.665000000000000E+007;-4.494365981328919E+000;-5.845444663100804E+000;
8.668500000000000E+007;-4.463312307655047E+000;-7.744716368136247E+000;
8.672000000000000E+007;-4.510532799709536E+000;-6.486758520046497E+000;
8.675500000000000E+007;-4.407108942944959E+000;-7.541834676365560E+000;
8.679000000000000E+007;-4.354111812785238E+000;-9.595431733465603E+000;
8.682500000000000E+007;-4.426309160022255E+000;-7.566537930264143E+000;
8.686000000000000E+007;-4.267485704061020E+000;-8.576579722413705E+000;
8.689500000000000E+007;-4.218985138964578E+000;-1.095663071765376E+001;
8.693000000000000E+007;-4.216640201215248E+000;-1.116059847383135E+001;
8.696500000000000E+007;-4.202941430095425E+000;-1.240508825633862E+001;
8.700000000000000E+007;-4.153952266262127E+000;-1.276708595577230E+001;
