# Version 1.00
#
freq[Hz];db:Trc1_S11;ang:Trc1_S11;
8.000000000000000E+007;-4.534484135348142E+000;-2.697684144463952E+001;
8.003500000000000E+007;-4.590890573195323E+000;-2.925330526785211E+001;
8.007000000000000E+007;-4.581351526527485E+000;-2.988900664787381E+001;
8.010500000000000E+007;-4.641171045727764E+000;-3.012964153689558E+001;
8.014000000000000E+007;-4.733083670982278E+000;-2.944643631948405E+001;
8.017500000000000E+007;-4.797951756225047E+000;-2.972430988362584E+001;
8.021000000000000E+007;-4.837411770902969E+000;-3.002317194034852E+001;
8.024500000000000E+007;-4.910375838354890E+000;-3.198153736835715E+001;
8.028000000000000E+007;-5.036560410654902E+000;-3.354047738130036E+001;
8.031500000000000E+007;-5.014316970483749E+000;-3.327125326058744E+001;
8.035000000000000E+007;-5.155678264716341E+000;-3.188289043555990E+001;
8.038500000000000E+007;-5.226684209290052E+000;-3.532006457044302E+001;
8.042000000000000E+007;-5.234462841116589E+000;-3.577198433077705E+001;
8.045500000000000E+007;-5.390110459309632E+000;-3.333092341504447E+001;
8.049000000000000E+007;-5.469762451346145E+000;-3.603480438542920E+001;
8.052500000000000E+007;-5.536035620422645E+000;-3.589250586043967E+001;
8.056000000000000E+007;-5.626508635353980E+000;-3.623737112763572E+001;
8.059500000000000E+007;-5.754829559138802E+000;-3.630691096827520E+001;
8.063000000000000E+007;-5.803523733431296E+000;-3.678647445895740E+001;
8.066500000000000E+007;-5.898221295420089E+000;-3.688094906252107E+001;
8.070000000000000E+007;-6.034911063283415E+000;-3.728618762653849E+001;
8.073500000000000E+007;-6.109440507314724E+000;-3.540927928276624E+001;
8.077000000000000E+007;-6.104652379855747E+000;-3.731268217895255E+001;
8.080500000000000E+007;-6.299591638646047E+000;-3.679002939384808E+001;
8.084000000000000E+007;-6.245237450320440E+000;-3.741210202650360E+001;
8.087500000000000E+007;-6.317229986079735E+000;-3.427739966522832E+001;
8.091000000000000E+007;-6.383131968337308E+000;-3.638600527245994E+001;
8.094500000000000E+007;-6.372632804182621E+000;-3.609534448510014E+001;
8.098000000000000E+007;-6.300496081733249E+000;-3.487917753838872E+001;
8.101500000000000E+007;-6.261156016166069E+000;-3.439407818376820E+001;
8.105000000000000E+007;-6.228941308826324E+000;-3.741077855625679E+001;
8.108500000000000E+007;-6.119764355611779E+000;-3.553108232864250E+001;
8.112000000000000E+007;-6.027535704258850E+000;-3.774996802885499E+001;
8.115500000000000E+007;-5.995144413556855E+000;-3.600128247659096E+001;
8.119000000000000E+007;-5.911658205577751E+000;-3.730836936234896E+001;
8.122500000000000E+007;-5.799703829946918E+000;-3.846432366790577E+001;
8.126000000000000E+007;-5.822341894236830E+000;-3.907507414678351E+001;
8.129500000000000E+007;-5.829467455756998E+000;-3.993896116071181E+001;
8.133000000000000E+007;-5.816545814158424E+000;-4.337231422530965E+001;
8.136500000000000E+007;-5.826059308159666E+000;-4.301867488212625E+001;
8.140000000000000E+007;-5.807129965182689E+000;-4.470703762247258E+001;
8.143500000000000E+007;-5.737432238948496E+000;-4.503689085841128E+001;
8.147000000000000E+007;-5.892071960712123E+000;-4.651303162916176E+001;
8.150500000000000E+007;-5.945859985189438E+000;-4.722423300181190E+001;
8.154000000000000E+007;-6.034852416545791E+000;-4.867548970165967E+001;
8.157500000000000E+007;-6.056517876720969E+000;-4.852370791412901E+001;
8.161000000000000E+007;-6.118344536576584E+000;-5.116080380573644E+001;
8.164500000000000E+007;-6.193943941115984E+000;-5.061106568497640E+001;
8.168000000000000E+007;-6.260661527671691E+000;-5.325942169262792E+001;
8.171500000000000E+007;-6.463881917433413E+000;-5.507036950400967E+001;
8.175000000000000E+007;-6.459478484782982E+000;-5.561732385193574E+001;
8.178500000000000E+007;-6.455031280164973E+000;-5.488925937977744E+001;
8.182000000000000E+007;-6.701906240064959E+000;-5.608149764689009E+001;
8.185500000000000E+007;-6.732369589132673E+000;-5.633997328387923E+001;
8.189000000000000E+007;-6.879162975751341E+000;-5.912676693477498E+001;
8.192500000000000E+007;-7.035779362098862E+000;-6.030251593051616E+001;
8.196000000000000E+007;-7.093014241248071E+000;-6.177625917250303E+001;
8.199500000000000E+007;-7.167093938503738E+000;-6.068714903164788E+001;
8.203000000000000E+007;-7.328790733980686E+000;-6.339710554628280E+001;
8.206500000000000E+007;-7.492399889866567E+000;-6.297539652879416E+001;
8.210000000000000E+007;-7.487980625023758E+000;-6.372314916062229E+001;
8.213500000000000E+007;-7.743885054201932E+000;-6.426121857346436E+001;
8.217000000000000E+007;-7.914027891848423E+000;-6.604383138001364E+001;
8.220500000000000E+007;-7.878543787554041E+000;-6.715049551495240E+001;
8.224000000000000E+007;-8.110039185657175E+000;-6.816431617463127E+001;
8.227500000000000E+007;-8.355448289635250E+000;-6.851247678390926E+001;
8.231000000000000E+007;-8.365168141337867E+000;-7.013420360456726E+001;
8.234500000000000E+007;-8.489953454926193E+000;-6.986682588640358E+001;
8.238000000000000E+007;-8.818369024456528E+000;-7.181526981398278E+001;
8.241500000000000E+007;-9.044168143263807E+000;-7.248866085816066E+001;
8.245000000000000E+007;-9.173036112243880E+000;-7.373616122228566E+001;
8.248500000000000E+007;-9.434012297216059E+000;-7.435383932649677E+001;
8.252000000000000E+007;-9.540253379690684E+000;-7.674178030414534E+001;
8.255500000000000E+007;-9.676756145662717E+000;-7.695516148387873E+001;
8.259000000000000E+007;-1.000665618974532E+001;-7.852147083254275E+001;
8.262500000000000E+007;-1.011343629332760E+001;-7.863894696343076E+001;
8.266000000000000E+007;-1.030462447291221E+001;-7.913875617117667E+001;
8.269500000000000E+007;-1.063864746687509E+001;-8.099151940557049E+001;
8.273000000000000E+007;-1.109423740443716E+001;-8.172631276317635E+001;
8.276500000000000E+007;-1.101115059857137E+001;-8.219180420249234E+001;
8.280000000000000E+007;-1.134164463281492E+001;-8.365655302311323E+001;
8.283500000000000E+007;-1.183142770387489E+001;-8.465442422305800E+001;
8.287000000000000E+007;-1.181011391428990E+001;-8.530355633504166E+001;
8.290500000000000E+007;-1.234462650858690E+001;-8.854166817838581E+001;
8.294000000000000E+007;-1.278084257480876E+001;-8.818213784408403E+001;
8.297500000000000E+007;-1.301761317990301E+001;-8.962923700797519E+001;
8.301000000000000E+007;-1.300144550954477E+001;-8.945767683671139E+001;
8.304500000000000E+007;-1.388970460678370E+001;-9.181976892061788E+001;
8.308000000000000E+007;-1.389821978652880E+001;-9.203618224821769E+001;
8.311500000000000E+007;-1.419184505916366E+001;-9.335754881875573E+001;
8.315000000000000E+007;-1.500669484063287E+001;-9.493415526507974E+001;
8.318500000000000E+007;-1.547964602282775E+001;-9.635507406361857E+001;
8.322000000000000E+007;-1.575034482086799E+001;-9.640052254240057E+001;
8.325500000000000E+007;-1.625515566004504E+001;-9.859160284247183E+001;
8.329000000000000E+007;-1.703827314369634E+001;-9.941364103112885E+001;
8.332500000000000E+007;-1.722346774638122E+001;-1.001150596054742E+002;
8.336000000000000E+007;-1.773941684046138E+001;-1.016237587261658E+002;
8.339500000000000E+007;-1.899146155872542E+001;-1.031059881622353E+002;
8.343000000000000E+007;-1.914529715179702E+001;-1.031000593184289E+002;
8.346500000000000E+007;-1.987448089632326E+001;-1.045954933987220E+002;
8.350000000000000E+007;-2.160399673580009E+001;-1.087589556914882E+002;
8.353500000000000E+007;-2.226451899863883E+001;-1.071362987814623E+002;
8.357000000000000E+007;-2.258043632780861E+001;-1.109650249215871E+002;
8.360500000000000E+007;-2.550126591063927E+001;-1.148147633333477E+002;
8.364000000000000E+007;-2.619440977705907E+001;-1.151583237802859E+002;
8.367500000000000E+007;-2.801244053654028E+001;-1.172576504560770E+002;
8.371000000000000E+007;-3.045964575551511E+001;-1.264457517598280E+002;
8.374500000000000E+007;-3.510888764602279E+001;-1.396810946515540E+002;
8.378000000000000E+007;-3.521291285314184E+001;-1.407346565477544E+002;
8.381500000000000E+007;-3.848086688589022E+001;1.496511757302800E+002;
8.385000000000000E+007;-3.487290587102426E+001;9.422102384879405E+001;
8.388500000000000E+007;-3.536243714423732E+001;9.817341780646096E+001;
8.392000000000000E+007;-3.095986448161631E+001;9.118180009099157E+001;
8.395500000000000E+007;-2.686640206746531E+001;7.796783314985822E+001;
8.399000000000000E+007;-2.647534053946957E+001;7.246418705451238E+001;
8.402500000000000E+007;-2.496522411983935E+001;7.026805789109449E+001;
8.406000000000000E+007;-2.236553962836680E+001;6.870516110061745E+001;
8.409500000000000E+007;-2.229162310214227E+001;6.781284652983531E+001;
8.413000000000000E+007;-2.145029860651175E+001;6.788000955331991E+001;
8.416500000000000E+007;-1.976090377358064E+001;6.554562414834629E+001;
8.420000000000000E+007;-1.905064369801460E+001;6.126016632779007E+001;
8.423500000000000E+007;-1.907498355749313E+001;6.204248791926442E+001;
8.427000000000000E+007;-1.739761152934820E+001;5.904390264741105E+001;
8.430500000000000E+007;-1.731552252011716E+001;5.877088621251552E+001;
8.434000000000000E+007;-1.698264277757393E+001;5.764157074027940E+001;
8.437500000000000E+007;-1.593709012425390E+001;5.668720357019864E+001;
8.441000000000000E+007;-1.539818072144477E+001;5.502856120206409E+001;
8.444500000000000E+007;-1.539790364026709E+001;5.457356170187327E+001;
8.448000000000000E+007;-1.480031742122451E+001;5.259330035008503E+001;
8.451500000000000E+007;-1.413742826242940E+001;5.135160207954946E+001;
8.455000000000000E+007;-1.412070008091366E+001;5.145978766051653E+001;
8.458500000000000E+007;-1.350831950264500E+001;4.854296452732887E+001;
8.462000000000000E+007;-1.307991454178785E+001;4.685045764409583E+001;
8.465500000000000E+007;-1.295407510965134E+001;4.779628534567468E+001;
8.469000000000000E+007;-1.263030529501205E+001;4.607656258291706E+001;
8.472500000000000E+007;-1.219052459217327E+001;4.392381378224067E+001;
8.476000000000000E+007;-1.207674565953163E+001;4.426612962715928E+001;
8.479500000000000E+007;-1.176494123045113E+001;4.195348555893338E+001;
8.483000000000000E+007;-1.126382613239716E+001;4.111354753182594E+001;
8.486500000000000E+007;-1.112340796897244E+001;4.216995089864406E+001;
8.490000000000000E+007;-1.095884026142921E+001;3.944335791519888E+001;
8.493500000000000E+007;-1.069591116329515E+001;3.936294444088136E+001;
8.497000000000000E+007;-1.026836913179214E+001;3.807037189051161E+001;
8.500500000000000E+007;-1.031139949153823E+001;3.740904847303423E+001;
8.504000000000000E+007;-9.906344632700032E+000;3.625864994663936E+001;
8.507500000000000E+007;-9.686763863694360E+000;3.486903284249699E+001;
8.511000000000000E+007;-9.686099096150317E+000;3.701644483637440E+001;
8.514500000000000E+007;-9.367820767782709E+000;3.274158976893776E+001;
8.518000000000000E+007;-9.090198979682636E+000;3.164526111263470E+001;
8.521500000000000E+007;-8.988492969490935E+000;3.052740475326629E+001;
8.525000000000000E+007;-8.897773301923285E+000;3.013814823489019E+001;
8.528500000000000E+007;-8.625817036318614E+000;3.043147136630621E+001;
8.532000000000000E+007;-8.617543324404622E+000;2.960030491283457E+001;
8.535500000000000E+007;-8.488530563860122E+000;2.842556982637029E+001;
8.539000000000000E+007;-8.107569180930673E+000;2.709074452503348E+001;
8.542500000000000E+007;-8.032356575817330E+000;2.693103412806913E+001;
8.546000000000000E+007;-8.033123636791332E+000;2.509635664482820E+001;
8.549500000000000E+007;-7.805174627671879E+000;2.552432165078548E+001;
8.553000000000000E+007;-7.725595963150223E+000;2.420027621093923E+001;
8.556500000000000E+007;-7.617131487663284E+000;2.266784898944337E+001;
8.560000000000000E+007;-7.495146424704076E+000;2.378174608037586E+001;
8.563500000000000E+007;-7.290065269655219E+000;2.099508583888543E+001;
8.567000000000000E+007;-7.252413521523192E+000;2.065525869209181E+001;
8.570500000000000E+007;-7.137331048773404E+000;1.969764717251521E+001;
8.574000000000000E+007;-6.927076791798938E+000;1.844753819513767E+001;
8.577500000000000E+007;-6.938042104904616E+000;1.758174087411054E+001;
8.581000000000000E+007;-6.826956915273324E+000;1.607842303331175E+001;
8.584500000000000E+007;-6.749903578899247E+000;1.540741332574882E+001;
8.588000000000000E+007;-6.615326964287529E+000;1.504683705401589E+001;
8.591500000000000E+007;-6.565678578928546E+000;1.511862341054775E+001;
8.595000000000000E+007;-6.452465922544167E+000;1.443815500770204E+001;
8.598500000000000E+007;-6.321019776713800E+000;1.303330749079593E+001;
8.602000000000000E+007;-6.367566105039723E+000;1.324721237635082E+001;
8.605500000000000E+007;-6.155710958453601E+000;1.103774301615387E+001;
8.609000000000000E+007;-6.111933165364626E+000;1.039458318333809E+001;
8.612500000000000E+007;-6.106839825147446E+000;8.760317440274902E+000;
8.616000000000000E+007;-5.931331194993994E+000;8.249610035920306E+000;
8.619500000000000E+007;-5.947760472095835E+000;1.026888158020519E+001;
8.623000000000000E+007;-5.859642837496575E+000;8.275812817281997E+000;
8.626500000000000E+007;-5.814830172866826E+000;7.435879152172624E+000;
8.630000000000000E+007;-5.654001269029019E+000;7.027369433644441E+000;
8.633500000000000E+007;-5.676212286994334E+000;5.925434541141628E+000;
8.637000000000000E+007;-5.563801926172063E+000;4.685547514836217E+000;
8.640500000000000E+007;-5.529948404739167E+000;5.267255782995854E+000;
8.644000000000000E+007;-5.484364389266532E+000;2.483176231935147E+000;
8.647500000000000E+007;-5.374673796819141E+000;2.813303645663283E+000;
8.651000000000000E+007;-5.309551513101628E+000;3.227001444057916E+000;
8.654500000000000E+007;-5.277260365101703E+000;2.176168207219997E+000;
8.658000000000000E+007;-5.183789879380546E+000;7.763514291948657E-002;
8.661500000000000E+007;-5.168101331563750E+000;7.767906883458159E-002;
8.665000000000000E+007;-5.108333592360983E+000;3.205784604294075E-001;
8.668500000000000E+007;-5.009614588602773E+000;-1.957120145380364E+000;
8.672000000000000E+007;-4.940891355067258E+000;-3.332016481126676E+000;
8.675500000000000E+007;-4.949506438705537E+000;-2.425707541648279E+000;
8.679000000000000E+007;-4.887501203313958E+000;-2.695874904164632E+000;
8.682500000000000E+007;-4.823915770177036E+000;-5.044466205702920E+000;
8.686000000000000E+007;-4.776972073021118E+000;-5.276679138943857E+000;
8.689500000000000E+007;-4.705425073031112E+000;-6.942695481623469E+000;
8.693000000000000E+007;-4.638100162822195E+000;-6.905164287854610E+000;
8.696500000000000E+007;-4.635868354216017E+000;-7.565131560788903E+000;
8.700000000000000E+007;-4.570591156244803E+000;-8.047395871001568E+000;
