# Version 1.00
#
freq[Hz];db:Trc1_S11;ang:Trc1_S11;
8.000000000000000E+007;-5.603039286110162E+000;-3.283405687386291E+001;
8.003500000000000E+007;-5.755388358558926E+000;-3.439931732663302E+001;
8.007000000000000E+007;-5.678557629612968E+000;-3.672343702019812E+001;
8.010500000000000E+007;-5.765828655378613E+000;-3.610509266901983E+001;
8.014000000000000E+007;-5.934672400642799E+000;-3.665154293534723E+001;
8.017500000000000E+007;-6.015523196899300E+000;-3.616830049918792E+001;
8.021000000000000E+007;-6.121012880250240E+000;-3.655185729167326E+001;
8.024500000000000E+007;-6.274237091638441E+000;-3.850191750251199E+001;
8.028000000000000E+007;-6.400910209250786E+000;-3.912004617563745E+001;
8.031500000000000E+007;-6.415127927603604E+000;-4.031071098558109E+001;
8.035000000000000E+007;-6.599911334667458E+000;-4.027242930923650E+001;
8.038500000000000E+007;-6.752066398440043E+000;-4.090246729123279E+001;
8.042000000000000E+007;-6.804913750747455E+000;-4.022408425938076E+001;
8.045500000000000E+007;-6.950863166929112E+000;-4.244012483109658E+001;
8.049000000000000E+007;-7.086942735497643E+000;-4.231370603055106E+001;
8.052500000000000E+007;-7.263080161625012E+000;-4.204736391321457E+001;
8.056000000000000E+007;-7.324014141079863E+000;-4.084369395270237E+001;
8.059500000000000E+007;-7.634317106495354E+000;-4.113972327158243E+001;
8.063000000000000E+007;-7.675690578052604E+000;-4.151231293288171E+001;
8.066500000000000E+007;-7.821239160454086E+000;-4.316017833522187E+001;
8.070000000000000E+007;-7.960495133059964E+000;-4.109392779880444E+001;
8.073500000000000E+007;-8.108990813037421E+000;-4.144753947356345E+001;
8.077000000000000E+007;-8.195131245129360E+000;-4.054785023408033E+001;
8.080500000000000E+007;-8.253866445838645E+000;-4.192833416269035E+001;
8.084000000000000E+007;-8.379803187893190E+000;-3.988757125888230E+001;
8.087500000000000E+007;-8.247317412916789E+000;-3.852467332451955E+001;
8.091000000000000E+007;-8.338173100890764E+000;-3.998216254498942E+001;
8.094500000000000E+007;-8.259380202683710E+000;-3.832350598547445E+001;
8.098000000000000E+007;-8.079044084627954E+000;-3.823172437932615E+001;
8.101500000000000E+007;-8.077908308181863E+000;-3.739611693372489E+001;
8.105000000000000E+007;-8.021502178018951E+000;-3.727379388530031E+001;
8.108500000000000E+007;-7.798000895152343E+000;-3.878781535884888E+001;
8.112000000000000E+007;-7.719597832616742E+000;-3.959757147888583E+001;
8.115500000000000E+007;-7.646011685852203E+000;-3.949156323660958E+001;
8.119000000000000E+007;-7.547549198769413E+000;-4.279837267697126E+001;
8.122500000000000E+007;-7.519889844059944E+000;-4.230390362806460E+001;
8.126000000000000E+007;-7.481514573117154E+000;-4.429760271212967E+001;
8.129500000000000E+007;-7.554397654057463E+000;-4.631185303492364E+001;
8.133000000000000E+007;-7.467107778300282E+000;-4.669704779276738E+001;
8.136500000000000E+007;-7.606120891469900E+000;-4.806603906720518E+001;
8.140000000000000E+007;-7.746482715340248E+000;-5.058411025729345E+001;
8.143500000000000E+007;-7.777827104775926E+000;-5.066938716306385E+001;
8.147000000000000E+007;-7.852277244449914E+000;-5.216595960921749E+001;
8.150500000000000E+007;-8.045609008303428E+000;-5.454486980545732E+001;
8.154000000000000E+007;-8.108438523700819E+000;-5.626907537634248E+001;
8.157500000000000E+007;-8.211293873548383E+000;-5.651285201005179E+001;
8.161000000000000E+007;-8.568233898901125E+000;-5.748165808260230E+001;
8.164500000000000E+007;-8.608265768411810E+000;-6.059877965991871E+001;
8.168000000000000E+007;-8.755613241567081E+000;-6.042183251184253E+001;
8.171500000000000E+007;-8.999180928787412E+000;-6.211718105762987E+001;
8.175000000000000E+007;-9.092674511034037E+000;-6.272467297169468E+001;
8.178500000000000E+007;-9.259055960934614E+000;-6.433861016012746E+001;
8.182000000000000E+007;-9.710152918732591E+000;-6.661747840559359E+001;
8.185500000000000E+007;-9.814766277516052E+000;-6.787922108536162E+001;
8.189000000000000E+007;-9.992896064141757E+000;-6.815641599605634E+001;
8.192500000000000E+007;-1.034208932365148E+001;-6.963560400963021E+001;
8.196000000000000E+007;-1.060112542865105E+001;-7.079524088996867E+001;
8.199500000000000E+007;-1.064323229064308E+001;-7.067309864409798E+001;
8.203000000000000E+007;-1.110575497599449E+001;-7.376961353569804E+001;
8.206500000000000E+007;-1.143819531363215E+001;-7.470736655820022E+001;
8.210000000000000E+007;-1.160177832853676E+001;-7.447043431274079E+001;
8.213500000000000E+007;-1.196819885107824E+001;-7.590854438762189E+001;
8.217000000000000E+007;-1.244982657843067E+001;-7.740449470529417E+001;
8.220500000000000E+007;-1.246151405988228E+001;-7.871526357636208E+001;
8.224000000000000E+007;-1.306670761570159E+001;-8.015959767923165E+001;
8.227500000000000E+007;-1.366042668705735E+001;-8.086915882105376E+001;
8.231000000000000E+007;-1.382150267875224E+001;-8.211105944005546E+001;
8.234500000000000E+007;-1.409367333389407E+001;-8.187918728773204E+001;
8.238000000000000E+007;-1.496891694579947E+001;-8.368203477504780E+001;
8.241500000000000E+007;-1.513454971920932E+001;-8.437037564657628E+001;
8.245000000000000E+007;-1.537947391272959E+001;-8.552318735736206E+001;
8.248500000000000E+007;-1.613153610288446E+001;-8.670416228999380E+001;
8.252000000000000E+007;-1.727076038838983E+001;-8.868586594157078E+001;
8.255500000000000E+007;-1.714809238055143E+001;-8.719728193147773E+001;
8.259000000000000E+007;-1.837214077786351E+001;-9.127272555671968E+001;
8.262500000000000E+007;-1.922896921291756E+001;-9.198276839991459E+001;
8.266000000000000E+007;-1.936996353674272E+001;-9.297513464553650E+001;
8.269500000000000E+007;-2.052772749364026E+001;-9.257926049211466E+001;
8.273000000000000E+007;-2.225869187533025E+001;-9.358954268261307E+001;
8.276500000000000E+007;-2.218155912222209E+001;-9.633253246013129E+001;
8.280000000000000E+007;-2.415805560701118E+001;-9.682609442254773E+001;
8.283500000000000E+007;-2.664388334487933E+001;-1.005560046046407E+002;
8.287000000000000E+007;-2.735736601402479E+001;-9.292819066804681E+001;
8.290500000000000E+007;-2.824115180861604E+001;-9.851305004714354E+001;
8.294000000000000E+007;-3.450706775792150E+001;-9.572532605687586E+001;
8.297500000000000E+007;-4.103847715070180E+001;-9.693080655909515E+001;
8.301000000000000E+007;-4.821970903424069E+001;-8.805776487953834E+001;
8.304500000000000E+007;-4.321252917043213E+001;9.337946647121700E+001;
8.308000000000000E+007;-3.317487645638567E+001;5.489419321464145E+001;
8.311500000000000E+007;-3.137327528685362E+001;6.819114942618091E+001;
8.315000000000000E+007;-2.664356307681911E+001;6.295200046962133E+001;
8.318500000000000E+007;-2.517549374674114E+001;6.740265411295496E+001;
8.322000000000000E+007;-2.470998884407019E+001;7.059981720892110E+001;
8.325500000000000E+007;-2.259530189661985E+001;6.592694772048122E+001;
8.329000000000000E+007;-2.126671724573115E+001;6.552818998239998E+001;
8.332500000000000E+007;-2.096920339879288E+001;6.465106581931306E+001;
8.336000000000000E+007;-1.989954907995280E+001;6.121412530308808E+001;
8.339500000000000E+007;-1.867283424452815E+001;6.438853654373614E+001;
8.343000000000000E+007;-1.841268531741698E+001;6.164467286009121E+001;
8.346500000000000E+007;-1.791574750493846E+001;6.249622937590893E+001;
8.350000000000000E+007;-1.666670405740903E+001;6.050393285266784E+001;
8.353500000000000E+007;-1.665957007722891E+001;5.965709933158968E+001;
8.357000000000000E+007;-1.603226467359015E+001;5.915618960307488E+001;
8.360500000000000E+007;-1.528104649949103E+001;5.774135641668234E+001;
8.364000000000000E+007;-1.497497155664714E+001;5.675449859398662E+001;
8.367500000000000E+007;-1.464168988052857E+001;5.478200755886683E+001;
8.371000000000000E+007;-1.414283062053980E+001;5.667728725062476E+001;
8.374500000000000E+007;-1.376662734209857E+001;5.409651350112431E+001;
8.378000000000000E+007;-1.331375819583875E+001;5.242009766463697E+001;
8.381500000000000E+007;-1.297679852698578E+001;5.154344528976931E+001;
8.385000000000000E+007;-1.242201788936309E+001;5.039657189309014E+001;
8.388500000000000E+007;-1.258391012954856E+001;5.138477931920173E+001;
8.392000000000000E+007;-1.219882460357511E+001;4.898106275590826E+001;
8.395500000000000E+007;-1.150479762734077E+001;4.662891752528510E+001;
8.399000000000000E+007;-1.165826065538317E+001;4.971078182627150E+001;
8.402500000000000E+007;-1.132887435844493E+001;4.746330113435074E+001;
8.406000000000000E+007;-1.076112145167589E+001;4.449037655341861E+001;
8.409500000000000E+007;-1.061612298834674E+001;4.476993561708575E+001;
8.413000000000000E+007;-1.055870351880800E+001;4.421759608750211E+001;
8.416500000000000E+007;-1.013881013480135E+001;4.276592379539519E+001;
8.420000000000000E+007;-1.000715705270359E+001;4.152001897897885E+001;
8.423500000000000E+007;-9.915432023445741E+000;4.151058269817812E+001;
8.427000000000000E+007;-9.439914521015238E+000;3.687244868701266E+001;
8.430500000000000E+007;-9.322785165648623E+000;3.874196830717633E+001;
8.434000000000000E+007;-9.295728297956218E+000;3.820001338809142E+001;
8.437500000000000E+007;-8.915671590382221E+000;3.530954888269625E+001;
8.441000000000000E+007;-8.683176746827231E+000;3.511589605862489E+001;
8.444500000000000E+007;-8.628259786944444E+000;3.397494655512830E+001;
8.448000000000000E+007;-8.514231156578164E+000;3.581676039627474E+001;
8.451500000000000E+007;-8.183171024394515E+000;3.352015860278350E+001;
8.455000000000000E+007;-8.210050370153661E+000;3.300980364035431E+001;
8.458500000000000E+007;-8.096640863418358E+000;3.183271835335911E+001;
8.462000000000000E+007;-7.787208959009043E+000;2.944115762648144E+001;
8.465500000000000E+007;-7.741466672817645E+000;3.071082662434105E+001;
8.469000000000000E+007;-7.641505276885157E+000;2.992107357332808E+001;
8.472500000000000E+007;-7.503269642824336E+000;2.899948642999834E+001;
8.476000000000000E+007;-7.431766689333880E+000;2.804113675930721E+001;
8.479500000000000E+007;-7.280815462895721E+000;2.640582289111408E+001;
8.483000000000000E+007;-7.057659734175296E+000;2.298812111926877E+001;
8.486500000000000E+007;-7.009117890045134E+000;2.506384357615133E+001;
8.490000000000000E+007;-6.978650718596741E+000;2.570160800797560E+001;
8.493500000000000E+007;-6.753826649987337E+000;2.296284560611213E+001;
8.497000000000000E+007;-6.758402696709436E+000;2.346871943279746E+001;
8.500500000000000E+007;-6.685599480685303E+000;2.254013903975833E+001;
8.504000000000000E+007;-6.532926255382173E+000;2.119265876398086E+001;
8.507500000000000E+007;-6.289424535604905E+000;1.908030751000442E+001;
8.511000000000000E+007;-6.393804897176617E+000;2.094990031338248E+001;
8.514500000000000E+007;-6.231945010410620E+000;1.853571746225075E+001;
8.518000000000000E+007;-6.044031949111400E+000;1.851711274252697E+001;
8.521500000000000E+007;-6.120924294807050E+000;1.708765292552701E+001;
8.525000000000000E+007;-6.017554377817055E+000;1.670496946957537E+001;
8.528500000000000E+007;-5.860130848546296E+000;1.439403017956547E+001;
8.532000000000000E+007;-5.778447793244680E+000;1.362637153571199E+001;
8.535500000000000E+007;-5.780592728302778E+000;1.421950917717736E+001;
8.539000000000000E+007;-5.610412093993806E+000;1.337810479871316E+001;
8.542500000000000E+007;-5.629870291783424E+000;1.241017956293649E+001;
8.546000000000000E+007;-5.562636256708500E+000;1.272078228136467E+001;
8.549500000000000E+007;-5.469616270079404E+000;1.268711423042196E+001;
8.553000000000000E+007;-5.388385713627786E+000;9.936872272608902E+000;
8.556500000000000E+007;-5.366997567001079E+000;9.537976615253758E+000;
8.560000000000000E+007;-5.336807239954239E+000;1.081582781688912E+001;
8.563500000000000E+007;-5.146752857396608E+000;8.457884316018564E+000;
8.567000000000000E+007;-5.201181713507978E+000;7.302812235027363E+000;
8.570500000000000E+007;-5.158372843851006E+000;7.561651889517983E+000;
8.574000000000000E+007;-5.103556509085037E+000;6.902177604251213E+000;
8.577500000000000E+007;-5.078789078565454E+000;7.331208969048121E+000;
8.581000000000000E+007;-5.026756115524396E+000;4.748028215573808E+000;
8.584500000000000E+007;-4.911647564220626E+000;4.306463615493422E+000;
8.588000000000000E+007;-4.791797179283247E+000;1.691692540946074E+000;
8.591500000000000E+007;-4.871837662573971E+000;4.031863915571251E+000;
8.595000000000000E+007;-4.757674201275449E+000;2.153801614967482E+000;
8.598500000000000E+007;-4.752226290559511E+000;-2.486655110620867E-001;
8.602000000000000E+007;-4.799596129525462E+000;1.234249933889426E+000;
8.605500000000000E+007;-4.728769997612957E+000;1.916722730434680E+000;
8.609000000000000E+007;-4.635529322905621E+000;-6.071431544013127E-001;
8.612500000000000E+007;-4.612929925734371E+000;-1.090274278953519E+000;
8.616000000000000E+007;-4.479882495052570E+000;-2.241232146722874E+000;
8.619500000000000E+007;-4.511112790806312E+000;-2.385005372268340E+000;
8.623000000000000E+007;-4.499498359966443E+000;-2.959194288799748E+000;
8.626500000000000E+007;-4.382146784829677E+000;-5.230255973013579E+000;
8.630000000000000E+007;-4.366412937513272E+000;-4.185963268185745E+000;
8.633500000000000E+007;-4.325317924621539E+000;-5.946633622682987E+000;
8.637000000000000E+007;-4.370159463446207E+000;-5.324872801729349E+000;
8.640500000000000E+007;-4.281860577029515E+000;-7.317471750153785E+000;
8.644000000000000E+007;-4.242405556491386E+000;-6.927221875451645E+000;
8.647500000000000E+007;-4.206638223050599E+000;-5.732928950940440E+000;
8.651000000000000E+007;-4.171240628345552E+000;-7.976561897700996E+000;
8.654500000000000E+007;-4.197934264250749E+000;-8.129569802766879E+000;
8.658000000000000E+007;-4.189430880966032E+000;-8.718780602909243E+000;
8.661500000000000E+007;-4.086334715535550E+000;-9.906112099882508E+000;
8.665000000000000E+007;-4.157512872463617E+000;-8.381634913075342E+000;
8.668500000000000E+007;-4.029740073900494E+000;-1.147179386373322E+001;
8.672000000000000E+007;-3.985499270840236E+000;-1.216916591304179E+001;
8.675500000000000E+007;-4.014003049506174E+000;-1.368483822210150E+001;
8.679000000000000E+007;-3.981234447494709E+000;-1.388821920478388E+001;
8.682500000000000E+007;-3.883831142324749E+000;-1.485169813999132E+001;
8.686000000000000E+007;-3.917136132794692E+000;-1.323231692379232E+001;
8.689500000000000E+007;-3.895253927908613E+000;-1.487197701533157E+001;
8.693000000000000E+007;-3.893914440873925E+000;-1.522780406188972E+001;
8.696500000000000E+007;-3.861867077771742E+000;-1.454511244439568E+001;
8.700000000000000E+007;-3.891133315806570E+000;-1.456341007102098E+001;
