# Version 1.00
#
freq[Hz];db:Trc1_S11;ang:Trc1_S11;
7.856000000000000E+007;-1.455963096956763E+000;1.461554327709928E+002;
7.858500000000000E+007;-1.444590831383093E+000;1.451045605821919E+002;
7.861000000000000E+007;-1.425307888593826E+000;1.455849019317025E+002;
7.863500000000000E+007;-1.464428172742443E+000;1.465789772890743E+002;
7.866000000000000E+007;-1.450085597933060E+000;1.446243797232032E+002;
7.868500000000000E+007;-1.435479444093790E+000;1.458905938313054E+002;
7.871000000000000E+007;-1.438048942132178E+000;1.450815224811755E+002;
7.873500000000000E+007;-1.452842437093497E+000;1.450084073599187E+002;
7.876000000000000E+007;-1.479147875841525E+000;1.434348952381585E+002;
7.878500000000000E+007;-1.443220269595857E+000;1.429072659284881E+002;
7.881000000000000E+007;-1.463359410246840E+000;1.432988504927706E+002;
7.883500000000000E+007;-1.451079078206871E+000;1.422638468937975E+002;
7.886000000000000E+007;-1.450391995018862E+000;1.435939887816092E+002;
7.888500000000000E+007;-1.452737544609529E+000;1.414132067313730E+002;
7.891000000000000E+007;-1.500561241726101E+000;1.396840750974901E+002;
7.893500000000000E+007;-1.464838423427076E+000;1.409458795957506E+002;
7.896000000000000E+007;-1.470398466778049E+000;1.410203567513781E+002;
7.898500000000000E+007;-1.496504636536415E+000;1.404852829850300E+002;
7.901000000000000E+007;-1.466553307606939E+000;1.405749341747289E+002;
7.903500000000000E+007;-1.444240358376932E+000;1.399745393465827E+002;
7.906000000000000E+007;-1.490404042754418E+000;1.386970051486800E+002;
7.908500000000000E+007;-1.474564404265194E+000;1.393246626896811E+002;
7.911000000000000E+007;-1.459735223855886E+000;1.393902237130011E+002;
7.913500000000000E+007;-1.485937116453280E+000;1.385137869376503E+002;
7.916000000000000E+007;-1.468155180564860E+000;1.376436502462113E+002;
7.918500000000000E+007;-1.489550624858578E+000;1.374028575011638E+002;
7.921000000000000E+007;-1.478695787945763E+000;1.377381690076192E+002;
7.923500000000000E+007;-1.462890776054401E+000;1.381675178311506E+002;
7.926000000000000E+007;-1.473643819861150E+000;1.374362910257087E+002;
7.928500000000000E+007;-1.480556734226809E+000;1.361540628632193E+002;
7.931000000000000E+007;-1.488024354742940E+000;1.348058898698889E+002;
7.933500000000000E+007;-1.507986188383454E+000;1.357247814158518E+002;
7.936000000000000E+007;-1.510030228099987E+000;1.334639550016612E+002;
7.938500000000000E+007;-1.515006871473003E+000;1.351522207182267E+002;
7.941000000000000E+007;-1.494067305626381E+000;1.342258236878646E+002;
7.943500000000000E+007;-1.480870948186399E+000;1.345242208644913E+002;
7.946000000000000E+007;-1.500409228113552E+000;1.330573137669766E+002;
7.948500000000000E+007;-1.465993364943544E+000;1.328485133864842E+002;
7.951000000000000E+007;-1.521216751570665E+000;1.323809677848536E+002;
7.953500000000000E+007;-1.512319736591548E+000;1.321990330253267E+002;
7.956000000000000E+007;-1.499562457795769E+000;1.309548389477354E+002;
7.958500000000000E+007;-1.498966212530285E+000;1.323303129952724E+002;
7.961000000000000E+007;-1.510370523659252E+000;1.296906084301998E+002;
7.963500000000000E+007;-1.529568599734571E+000;1.291791774562405E+002;
7.966000000000000E+007;-1.535838330086518E+000;1.285392029607431E+002;
7.968500000000000E+007;-1.513086543239049E+000;1.284089853048395E+002;
7.971000000000000E+007;-1.538342706475740E+000;1.282828179541246E+002;
7.973500000000000E+007;-1.534287067470360E+000;1.277996470721316E+002;
7.976000000000000E+007;-1.498426944936998E+000;1.283207825245099E+002;
7.978500000000000E+007;-1.552895432244472E+000;1.274921965826025E+002;
7.981000000000000E+007;-1.544896487424381E+000;1.278157215267376E+002;
7.983500000000000E+007;-1.502340651309159E+000;1.285650067798578E+002;
7.986000000000000E+007;-1.523161142066941E+000;1.257715569534917E+002;
7.988500000000000E+007;-1.512993590287436E+000;1.264797789042199E+002;
7.991000000000000E+007;-1.521408731036275E+000;1.260973823422202E+002;
7.993500000000000E+007;-1.543504636080790E+000;1.270429217580240E+002;
7.996000000000000E+007;-1.536969724105405E+000;1.244453410538206E+002;
7.998500000000000E+007;-1.515117239606748E+000;1.255465476808336E+002;
8.001000000000000E+007;-1.549329418993148E+000;1.246699641641798E+002;
8.003500000000000E+007;-1.554080380526145E+000;1.227376033441707E+002;
8.006000000000000E+007;-1.545581728726372E+000;1.242051061433099E+002;
8.008500000000000E+007;-1.564848508655873E+000;1.234350429303253E+002;
8.011000000000000E+007;-1.540970063187913E+000;1.222305730077977E+002;
8.013500000000000E+007;-1.543146362268800E+000;1.212217459727749E+002;
8.016000000000000E+007;-1.559807584502858E+000;1.215781051429209E+002;
8.018500000000000E+007;-1.535705747416992E+000;1.212881939948394E+002;
8.021000000000000E+007;-1.570587834363679E+000;1.216618380139836E+002;
8.023500000000000E+007;-1.565077158450039E+000;1.210428798397150E+002;
8.026000000000000E+007;-1.565606161713960E+000;1.196876929706060E+002;
8.028500000000000E+007;-1.563908539248965E+000;1.197534128527117E+002;
8.031000000000000E+007;-1.579237574013241E+000;1.207924441042616E+002;
8.033500000000000E+007;-1.556952356797163E+000;1.188481680251712E+002;
8.036000000000000E+007;-1.569119812516057E+000;1.174791154055066E+002;
8.038500000000000E+007;-1.566705721726516E+000;1.180794952510580E+002;
8.041000000000000E+007;-1.589964521771455E+000;1.175332671191532E+002;
8.043500000000000E+007;-1.575982795473737E+000;1.170441417339252E+002;
8.046000000000000E+007;-1.582175594485788E+000;1.164146519821762E+002;
8.048500000000000E+007;-1.582436240608489E+000;1.159340042990970E+002;
8.051000000000000E+007;-1.602874102253042E+000;1.180650494206093E+002;
8.053500000000000E+007;-1.591726292015776E+000;1.154279294449210E+002;
8.056000000000000E+007;-1.619146252754023E+000;1.148240516685067E+002;
8.058500000000000E+007;-1.574133973146103E+000;1.164677090858586E+002;
8.061000000000000E+007;-1.598332243328032E+000;1.156670893990765E+002;
8.063500000000000E+007;-1.627040809372184E+000;1.137642229590962E+002;
8.066000000000000E+007;-1.584768316526047E+000;1.126372827344518E+002;
8.068500000000000E+007;-1.632494368864858E+000;1.132509276246244E+002;
8.071000000000000E+007;-1.572633331704737E+000;1.101975131997735E+002;
8.073500000000000E+007;-1.626895097458489E+000;1.133224582235698E+002;
8.076000000000000E+007;-1.622083092549332E+000;1.115850166232591E+002;
8.078500000000000E+007;-1.616307400160716E+000;1.128014500053661E+002;
8.081000000000000E+007;-1.622839779881353E+000;1.113589603576518E+002;
8.083500000000000E+007;-1.632298983184516E+000;1.122229129973376E+002;
8.086000000000000E+007;-1.659755375327909E+000;1.096574738064453E+002;
8.088500000000000E+007;-1.636689953218850E+000;1.079869505380797E+002;
8.091000000000000E+007;-1.691321734133562E+000;1.108763131863660E+002;
8.093500000000000E+007;-1.679644840876458E+000;1.088667361333368E+002;
8.096000000000000E+007;-1.682380654113073E+000;1.085394572007191E+002;
8.098500000000000E+007;-1.664756537481918E+000;1.075317582537067E+002;
8.101000000000000E+007;-1.653634633778346E+000;1.069844540328016E+002;
8.103500000000000E+007;-1.639099145557377E+000;1.061723667564684E+002;
8.106000000000000E+007;-1.677418223098872E+000;1.059367913776030E+002;
8.108500000000000E+007;-1.671916908656126E+000;1.059063291478308E+002;
8.111000000000000E+007;-1.704810843265116E+000;1.056592210997991E+002;
8.113500000000000E+007;-1.714091524063177E+000;1.055463279691994E+002;
8.116000000000000E+007;-1.716503496228554E+000;1.060278745667449E+002;
8.118500000000000E+007;-1.681312422205712E+000;1.044324110088065E+002;
8.121000000000000E+007;-1.694497192720312E+000;1.033901680114276E+002;
8.123500000000000E+007;-1.761571371093267E+000;1.046837768906077E+002;
8.126000000000000E+007;-1.742486354437096E+000;1.031816132204039E+002;
8.128500000000000E+007;-1.737970298034144E+000;1.029492612191491E+002;
8.131000000000000E+007;-1.704183071672055E+000;1.002527507689188E+002;
8.133500000000000E+007;-1.740991617237221E+000;1.024815637342125E+002;
8.136000000000000E+007;-1.742218600627369E+000;1.005215561710983E+002;
8.138500000000000E+007;-1.742120821493966E+000;9.957876943708817E+001;
8.141000000000000E+007;-1.796410815344170E+000;1.001288117361838E+002;
8.143500000000000E+007;-1.753136188893940E+000;9.837446283611430E+001;
8.146000000000000E+007;-1.748185856538768E+000;9.938436250724311E+001;
8.148500000000000E+007;-1.762961384684838E+000;9.605026044237620E+001;
8.151000000000000E+007;-1.779145960357262E+000;9.732183595293159E+001;
8.153500000000000E+007;-1.788290292892535E+000;9.713569912985540E+001;
8.156000000000000E+007;-1.808650299990859E+000;9.752338096171712E+001;
8.158500000000000E+007;-1.809974763240819E+000;9.531295147254397E+001;
8.161000000000000E+007;-1.830463113770205E+000;9.537185474872770E+001;
8.163500000000000E+007;-1.828346326144050E+000;9.381188802102095E+001;
8.166000000000000E+007;-1.835446675023126E+000;9.397918194961180E+001;
8.168500000000000E+007;-1.823007598541618E+000;9.367199181064700E+001;
8.171000000000000E+007;-1.857973685565209E+000;9.153512516670949E+001;
8.173500000000000E+007;-1.931707167720559E+000;9.490445740408293E+001;
8.176000000000000E+007;-1.895621266838028E+000;9.222727351797910E+001;
8.178500000000000E+007;-1.938392489854646E+000;9.175356207627705E+001;
8.181000000000000E+007;-1.947204935422627E+000;9.146294372023526E+001;
8.183500000000000E+007;-1.893977126185437E+000;8.983142746292491E+001;
8.186000000000000E+007;-1.930708597978565E+000;8.981565606257222E+001;
8.188500000000000E+007;-1.934634057722606E+000;8.829306757241297E+001;
8.191000000000000E+007;-1.978541341660345E+000;9.015684636738523E+001;
8.193500000000000E+007;-2.022161529513584E+000;8.935239512917740E+001;
8.196000000000000E+007;-1.984329409199806E+000;8.793000193497326E+001;
8.198500000000000E+007;-2.012750285934085E+000;8.727488732894123E+001;
8.201000000000000E+007;-2.047625679907297E+000;8.730573571788361E+001;
8.203500000000000E+007;-2.051249800897979E+000;8.544663941171676E+001;
8.206000000000000E+007;-2.085787824669345E+000;8.661462519976031E+001;
8.208500000000000E+007;-2.085968265871852E+000;8.407283512355632E+001;
8.211000000000000E+007;-2.110113881225149E+000;8.359762618471423E+001;
8.213500000000000E+007;-2.092621098197621E+000;8.134686151585468E+001;
8.216000000000000E+007;-2.140742170177571E+000;8.172856601922813E+001;
8.218500000000000E+007;-2.212417140813012E+000;8.187156295794293E+001;
8.221000000000000E+007;-2.167158454546833E+000;7.842623026863036E+001;
8.223500000000000E+007;-2.149701366151540E+000;7.809524375455014E+001;
8.226000000000000E+007;-2.222708463634737E+000;7.943790552537440E+001;
8.228500000000000E+007;-2.266802511966867E+000;7.818298645844443E+001;
8.231000000000000E+007;-2.296525968726602E+000;7.765143571559032E+001;
8.233500000000000E+007;-2.271984731099046E+000;7.518876227431738E+001;
8.236000000000000E+007;-2.368805157046498E+000;7.540642475830808E+001;
8.238500000000000E+007;-2.419743872859541E+000;7.491940402538376E+001;
8.241000000000000E+007;-2.443872907292562E+000;7.461528041712910E+001;
8.243500000000000E+007;-2.485678880393905E+000;7.383859567782652E+001;
8.246000000000000E+007;-2.549030319199932E+000;7.351690373599779E+001;
8.248500000000000E+007;-2.526133718739670E+000;7.130980795944637E+001;
8.251000000000000E+007;-2.566995366443113E+000;6.985870820433485E+001;
8.253500000000000E+007;-2.658883060913792E+000;7.070631399188751E+001;
8.256000000000000E+007;-2.724719214012545E+000;6.841536552624125E+001;
8.258500000000000E+007;-2.801594878891580E+000;6.769450860415732E+001;
8.261000000000000E+007;-2.787076308651446E+000;6.639410205773142E+001;
8.263500000000000E+007;-2.838924166193873E+000;6.545835310928658E+001;
8.266000000000000E+007;-2.941692548032644E+000;6.476781042542483E+001;
8.268500000000000E+007;-3.061475826996411E+000;6.453843222097515E+001;
8.271000000000000E+007;-3.122383222401831E+000;6.316744546718323E+001;
8.273500000000000E+007;-3.160298447011479E+000;6.060280834248247E+001;
8.276000000000000E+007;-3.239916251196501E+000;6.019660924519450E+001;
8.278500000000000E+007;-3.379444853506304E+000;5.896627848815088E+001;
8.281000000000000E+007;-3.442851166260744E+000;5.764282984247205E+001;
8.283500000000000E+007;-3.648407441986099E+000;5.801646295267022E+001;
8.286000000000000E+007;-3.729369012370329E+000;5.681921878207061E+001;
8.288500000000000E+007;-3.785296364944526E+000;5.432246272689859E+001;
8.291000000000000E+007;-3.930927048292323E+000;5.193925970715940E+001;
8.293500000000000E+007;-4.154553422396057E+000;5.224897896102022E+001;
8.296000000000000E+007;-4.240131334249142E+000;4.876300030574844E+001;
8.298500000000000E+007;-4.405290039015159E+000;4.681280926023558E+001;
8.301000000000000E+007;-4.673609782068626E+000;4.653071754184869E+001;
8.303500000000000E+007;-4.827872897190286E+000;4.401376041776688E+001;
8.306000000000000E+007;-5.124870263977842E+000;4.316349025742986E+001;
8.308500000000000E+007;-5.424776279086896E+000;4.221274667656663E+001;
8.311000000000000E+007;-5.678522415993926E+000;3.984912392217853E+001;
8.313500000000000E+007;-5.940309601253204E+000;3.729480714633939E+001;
8.316000000000000E+007;-6.296097141982445E+000;3.586063642317177E+001;
8.318500000000000E+007;-6.656924097226724E+000;3.463466596084997E+001;
8.321000000000000E+007;-7.019037271003410E+000;3.053674524464604E+001;
8.323500000000000E+007;-7.595174870399564E+000;2.818756551312216E+001;
8.326000000000000E+007;-8.019741361511230E+000;2.731409886550381E+001;
8.328500000000000E+007;-8.656157177802761E+000;2.409177852686002E+001;
8.331000000000000E+007;-9.306390573637440E+000;2.133129974240741E+001;
8.333500000000000E+007;-1.001326402851113E+001;1.701340437588286E+001;
8.336000000000000E+007;-1.093868258719415E+001;1.630677864758068E+001;
8.338500000000000E+007;-1.193497142824976E+001;1.284071778025151E+001;
8.341000000000000E+007;-1.313541339918670E+001;1.147323693852736E+001;
8.343500000000000E+007;-1.455713778486897E+001;6.972650406856772E+000;
8.346000000000000E+007;-1.617017985908041E+001;3.885809449286202E+000;
8.348500000000000E+007;-1.842835721268967E+001;-3.158392948738137E-001;
8.351000000000000E+007;-2.140214918825997E+001;-5.702371977370603E+000;
8.353500000000000E+007;-2.583775518608870E+001;-1.483336700634232E+001;
8.356000000000000E+007;-3.593300668372972E+001;-4.412363102323809E+001;
8.358500000000000E+007;-3.226549328914087E+001;-1.521650685394249E+002;
8.361000000000000E+007;-2.481512288115233E+001;-1.791286095344506E+002;
8.363500000000000E+007;-2.033485224485190E+001;1.767160049733847E+002;
8.366000000000000E+007;-1.798210709051232E+001;1.703537563515205E+002;
8.368500000000000E+007;-1.587714039986025E+001;1.659902168665752E+002;
8.371000000000000E+007;-1.415708767698021E+001;1.637917917658136E+002;
8.373500000000000E+007;-1.283628000946130E+001;1.609968129015962E+002;
8.376000000000000E+007;-1.167700688769093E+001;1.580109559192805E+002;
8.378500000000000E+007;-1.087786135557864E+001;1.529623699279311E+002;
8.381000000000000E+007;-9.919207781622223E+000;1.537630449355870E+002;
8.383500000000000E+007;-9.297547578754228E+000;1.482638632339976E+002;
8.386000000000000E+007;-8.618929891506870E+000;1.478016134059851E+002;
8.388500000000000E+007;-8.082867932267062E+000;1.453625443665183E+002;
8.391000000000000E+007;-7.508383186001871E+000;1.432173723694380E+002;
8.393500000000000E+007;-7.119690094217792E+000;1.407554550830393E+002;
8.396000000000000E+007;-6.701097657749925E+000;1.364731342286844E+002;
8.398500000000000E+007;-6.337892069545899E+000;1.366958967539332E+002;
8.401000000000000E+007;-6.029016367061694E+000;1.340556733235000E+002;
8.403500000000000E+007;-5.724727288488480E+000;1.308157583327754E+002;
8.406000000000000E+007;-5.450923882036372E+000;1.302742900059472E+002;
8.408500000000000E+007;-5.167945410905368E+000;1.288414199164555E+002;
8.411000000000000E+007;-4.933061465704693E+000;1.276722020530427E+002;
8.413500000000000E+007;-4.776209879548329E+000;1.263921608911738E+002;
8.416000000000000E+007;-4.558867046603707E+000;1.239035195453488E+002;
8.418500000000000E+007;-4.412792656234816E+000;1.223023047202512E+002;
8.421000000000000E+007;-4.198595733197064E+000;1.213274024116602E+002;
8.423500000000000E+007;-4.066553944058574E+000;1.192442518607055E+002;
8.426000000000000E+007;-3.910389805844945E+000;1.191873543078931E+002;
8.428500000000000E+007;-3.788388589551365E+000;1.187972650388901E+002;
8.431000000000000E+007;-3.707401645904504E+000;1.156489899922923E+002;
8.433500000000000E+007;-3.554286494032508E+000;1.132777429130910E+002;
8.436000000000000E+007;-3.471784061765134E+000;1.138464064887696E+002;
8.438500000000000E+007;-3.385569383615266E+000;1.118697195606106E+002;
8.441000000000000E+007;-3.256854925688041E+000;1.107070901685960E+002;
8.443500000000000E+007;-3.200767710305358E+000;1.086308585432054E+002;
8.446000000000000E+007;-3.135516315323902E+000;1.091101951671706E+002;
8.448500000000000E+007;-3.037390776789309E+000;1.072771779417716E+002;
8.451000000000000E+007;-3.003561502674581E+000;1.075842837446767E+002;
8.453500000000000E+007;-2.941983073545218E+000;1.066578908508706E+002;
8.456000000000000E+007;-2.829515659757857E+000;1.025269027908356E+002;
8.458500000000000E+007;-2.796589193732845E+000;1.035802862574770E+002;
8.461000000000000E+007;-2.711127942602410E+000;1.009147175945292E+002;
8.463500000000000E+007;-2.711897838344071E+000;1.016191631151842E+002;
8.466000000000000E+007;-2.630762695622627E+000;9.911928485005518E+001;
8.468500000000000E+007;-2.602311637886624E+000;9.987195619857864E+001;
8.471000000000000E+007;-2.589333084207221E+000;9.875468781866520E+001;
8.473500000000000E+007;-2.543454205051265E+000;9.860548224460409E+001;
8.476000000000000E+007;-2.480356108258376E+000;9.620266864549394E+001;
8.478500000000000E+007;-2.470330054109977E+000;9.676983816722543E+001;
8.481000000000000E+007;-2.368749843836570E+000;9.524022759738774E+001;
8.483500000000000E+007;-2.398588673826733E+000;9.607130514042068E+001;
8.486000000000000E+007;-2.345572548464389E+000;9.360265599961758E+001;
8.488500000000000E+007;-2.324540980931503E+000;9.338066420416675E+001;
8.491000000000000E+007;-2.276255769595641E+000;9.254339003688172E+001;
8.493500000000000E+007;-2.289419752556891E+000;9.254599709367780E+001;
8.496000000000000E+007;-2.234048915533553E+000;9.106332347544537E+001;
8.498500000000000E+007;-2.187041242590596E+000;8.908577566988569E+001;
8.501000000000000E+007;-2.163702127257450E+000;9.014951415896343E+001;
8.503500000000000E+007;-2.176790017659699E+000;8.948827773349545E+001;
8.506000000000000E+007;-2.167071769557679E+000;8.840189506526247E+001;
8.508500000000000E+007;-2.094941625269532E+000;8.705903454741855E+001;
8.511000000000000E+007;-2.098226637399522E+000;8.714151747297646E+001;
8.513500000000000E+007;-2.059669622761719E+000;8.589740258967746E+001;
8.516000000000000E+007;-2.031601408149015E+000;8.528714247349059E+001;
8.518500000000000E+007;-2.104958479407574E+000;8.665351145999465E+001;
8.521000000000000E+007;-2.021345088823787E+000;8.510658274921276E+001;
8.523500000000000E+007;-2.008538975941614E+000;8.313725937239039E+001;
8.526000000000000E+007;-1.993362803949148E+000;8.256995315769966E+001;
8.528500000000000E+007;-2.007745829540795E+000;8.313268249813972E+001;
8.531000000000000E+007;-1.974480299514186E+000;8.233792904485443E+001;
8.533500000000000E+007;-1.975715794031298E+000;8.117823451351462E+001;
8.536000000000000E+007;-1.972113217422344E+000;8.200517387286939E+001;
8.538500000000000E+007;-1.965070409532486E+000;8.001952596002664E+001;
8.541000000000000E+007;-1.959036964790022E+000;8.100947467467242E+001;
8.543500000000000E+007;-1.925279164166577E+000;8.027214471021793E+001;
