# Version 1.00
#
freq[Hz];db:Trc1_S11;ang:Trc1_S11;
7.856000000000000E+007;-2.789763235654138E+000;-2.626899092995183E+001;
7.858500000000000E+007;-2.840054060307421E+000;-2.603901465205989E+001;
7.861000000000000E+007;-2.902959189232809E+000;-2.540837939898116E+001;
7.863500000000000E+007;-2.849579485600574E+000;-2.699079493494854E+001;
7.866000000000000E+007;-2.838577950957986E+000;-2.781553493622250E+001;
7.868500000000000E+007;-2.839046760513593E+000;-2.868125182554336E+001;
7.871000000000000E+007;-2.866714596107313E+000;-2.761185353551872E+001;
7.873500000000000E+007;-2.885269254240718E+000;-2.776432889761369E+001;
7.876000000000000E+007;-2.899582240643060E+000;-2.854785370010306E+001;
7.878500000000000E+007;-2.856448247028402E+000;-2.913480058877898E+001;
7.881000000000000E+007;-2.891634776180429E+000;-2.938821033301619E+001;
7.883500000000000E+007;-2.915166098927986E+000;-2.999118047914284E+001;
7.886000000000000E+007;-2.892271530873661E+000;-3.066200724968774E+001;
7.888500000000000E+007;-2.925285708729806E+000;-3.012478743107533E+001;
7.891000000000000E+007;-2.860872744847932E+000;-3.022325545188813E+001;
7.893500000000000E+007;-2.916110224033167E+000;-3.116051289670578E+001;
7.896000000000000E+007;-2.940633555037192E+000;-3.042696410332139E+001;
7.898500000000000E+007;-2.920916675400649E+000;-3.104416249724253E+001;
7.901000000000000E+007;-2.933228523392202E+000;-3.257232801993919E+001;
7.903500000000000E+007;-2.957108928763678E+000;-3.161525599163262E+001;
7.906000000000000E+007;-2.924826828570026E+000;-3.416842314280714E+001;
7.908500000000000E+007;-2.986617692483286E+000;-3.377095263499604E+001;
7.911000000000000E+007;-2.940935789283435E+000;-3.374096012814133E+001;
7.913500000000000E+007;-3.005340943184774E+000;-3.230554745170453E+001;
7.916000000000000E+007;-2.964763296204782E+000;-3.339455263767546E+001;
7.918500000000000E+007;-2.977285847585795E+000;-3.384177176141964E+001;
7.921000000000000E+007;-2.991791194925890E+000;-3.462911296771650E+001;
7.923500000000000E+007;-2.961981977035634E+000;-3.513336875820425E+001;
7.926000000000000E+007;-3.031167480072643E+000;-3.475983082442110E+001;
7.928500000000000E+007;-3.006687351255645E+000;-3.523504363007889E+001;
7.931000000000000E+007;-2.952842342211321E+000;-3.731978007262755E+001;
7.933500000000000E+007;-3.021410938409421E+000;-3.552228057160715E+001;
7.936000000000000E+007;-3.025147527997881E+000;-3.616983930886381E+001;
7.938500000000000E+007;-3.025615789216468E+000;-3.651734516021997E+001;
7.941000000000000E+007;-3.029767874637478E+000;-3.729684974793281E+001;
7.943500000000000E+007;-3.058658818110968E+000;-3.778411521703846E+001;
7.946000000000000E+007;-3.047568770447868E+000;-3.735173729846293E+001;
7.948500000000000E+007;-3.100324449678985E+000;-3.784222479444426E+001;
7.951000000000000E+007;-3.059191880190747E+000;-3.831292409038168E+001;
7.953500000000000E+007;-3.095186067433356E+000;-3.928320117608307E+001;
7.956000000000000E+007;-3.111004258158435E+000;-3.766208803794407E+001;
7.958500000000000E+007;-3.104981272466525E+000;-3.942529713140810E+001;
7.961000000000000E+007;-3.079250407095973E+000;-4.082037399650165E+001;
7.963500000000000E+007;-3.100229899141399E+000;-4.037860793432770E+001;
7.966000000000000E+007;-3.112030777755930E+000;-4.184480348858281E+001;
7.968500000000000E+007;-3.116307162384771E+000;-4.094110412291074E+001;
7.971000000000000E+007;-3.144652161657541E+000;-4.188529836886717E+001;
7.973500000000000E+007;-3.161232025146136E+000;-3.962393006354523E+001;
7.976000000000000E+007;-3.180455711624142E+000;-4.126648979034061E+001;
7.978500000000000E+007;-3.123586771616110E+000;-4.219966120657470E+001;
7.981000000000000E+007;-3.174206145723950E+000;-4.191379966979926E+001;
7.983500000000000E+007;-3.172401787528508E+000;-4.164686355571364E+001;
7.986000000000000E+007;-3.213771784147711E+000;-4.093328442052717E+001;
7.988500000000000E+007;-3.189469757783136E+000;-4.398669608206058E+001;
7.991000000000000E+007;-3.266249828175824E+000;-4.289272441446742E+001;
7.993500000000000E+007;-3.206953385402064E+000;-4.422249755614409E+001;
7.996000000000000E+007;-3.207866460843360E+000;-4.314614196035253E+001;
7.998500000000000E+007;-3.226679492040523E+000;-4.669644676351051E+001;
8.001000000000000E+007;-3.264757593766801E+000;-4.535623740981890E+001;
8.003500000000000E+007;-3.263377968524770E+000;-4.516669125045569E+001;
8.006000000000000E+007;-3.261596015929480E+000;-4.404062558495768E+001;
8.008500000000000E+007;-3.268234927288027E+000;-4.524309761531567E+001;
8.011000000000000E+007;-3.278449292819549E+000;-4.534875508700993E+001;
8.013500000000000E+007;-3.306219481082422E+000;-4.505403668431188E+001;
8.016000000000000E+007;-3.334871512551969E+000;-4.744281308662615E+001;
8.018500000000000E+007;-3.319111271087859E+000;-4.667411199423923E+001;
8.021000000000000E+007;-3.389268565041966E+000;-4.841006317622654E+001;
8.023500000000000E+007;-3.369755926631207E+000;-4.854976104856148E+001;
8.026000000000000E+007;-3.357657026124831E+000;-4.699382425065421E+001;
8.028500000000000E+007;-3.405754252784266E+000;-4.643248178875293E+001;
8.031000000000000E+007;-3.415102283772109E+000;-4.848785376937555E+001;
8.033500000000000E+007;-3.386729753253002E+000;-4.829215805447633E+001;
8.036000000000000E+007;-3.417618464759506E+000;-5.036896549297939E+001;
8.038500000000000E+007;-3.417582068931636E+000;-4.828154071706877E+001;
8.041000000000000E+007;-3.444593203931451E+000;-5.147112050724517E+001;
8.043500000000000E+007;-3.443423273549362E+000;-5.072246539153310E+001;
8.046000000000000E+007;-3.522807355190571E+000;-4.968103215002147E+001;
8.048500000000000E+007;-3.445266869342800E+000;-5.134972725704615E+001;
8.051000000000000E+007;-3.423000072575385E+000;-5.296481516273850E+001;
8.053500000000000E+007;-3.432716759363133E+000;-5.206406877236188E+001;
8.056000000000000E+007;-3.524492305952780E+000;-5.254364241195604E+001;
8.058500000000000E+007;-3.559286252303912E+000;-5.360311820562125E+001;
8.061000000000000E+007;-3.537448611659261E+000;-5.330109922517344E+001;
8.063500000000000E+007;-3.572915515489887E+000;-5.337352539741226E+001;
8.066000000000000E+007;-3.627626810989956E+000;-5.306677088648988E+001;
8.068500000000000E+007;-3.562710845466858E+000;-5.545030918279753E+001;
8.071000000000000E+007;-3.616251083779070E+000;-5.618846270937414E+001;
8.073500000000000E+007;-3.632141431147208E+000;-5.477875341817150E+001;
8.076000000000000E+007;-3.670002005735397E+000;-5.523056213689829E+001;
8.078500000000000E+007;-3.692565825418918E+000;-5.490735718088739E+001;
8.081000000000000E+007;-3.673317737845392E+000;-5.756077592702510E+001;
8.083500000000000E+007;-3.712137084902301E+000;-5.644713575009227E+001;
8.086000000000000E+007;-3.723072054038877E+000;-5.764795736565835E+001;
8.088500000000000E+007;-3.712300925551014E+000;-5.659821021251335E+001;
8.091000000000000E+007;-3.814917140531438E+000;-5.885935190608404E+001;
8.093500000000000E+007;-3.771445030496377E+000;-5.918977668599459E+001;
8.096000000000000E+007;-3.864915359954338E+000;-6.056484870810552E+001;
8.098500000000000E+007;-3.812810748765576E+000;-5.942943531747955E+001;
8.101000000000000E+007;-3.822585871800424E+000;-5.991520171510065E+001;
8.103500000000000E+007;-3.867163374341860E+000;-6.101265203073247E+001;
8.106000000000000E+007;-3.910038006889793E+000;-6.004601956466794E+001;
8.108500000000000E+007;-3.872881064629829E+000;-6.122759757641252E+001;
8.111000000000000E+007;-3.950570455760490E+000;-6.130942494569009E+001;
8.113500000000000E+007;-3.940673141309861E+000;-6.154637368805379E+001;
8.116000000000000E+007;-3.965617110479707E+000;-6.139849911799284E+001;
8.118500000000000E+007;-3.998457954138939E+000;-6.269635896542796E+001;
8.121000000000000E+007;-3.996249924164617E+000;-6.207184385220604E+001;
8.123500000000000E+007;-4.031187481165317E+000;-6.348717089886951E+001;
8.126000000000000E+007;-4.071566063775636E+000;-6.483627923754986E+001;
8.128500000000000E+007;-4.127082661929367E+000;-6.674331484860038E+001;
8.131000000000000E+007;-4.111482545222772E+000;-6.618634996931509E+001;
8.133500000000000E+007;-4.090031712415620E+000;-6.457093087302025E+001;
8.136000000000000E+007;-4.197925947346861E+000;-6.635801434572026E+001;
8.138500000000000E+007;-4.183137100886189E+000;-6.622203003855246E+001;
8.141000000000000E+007;-4.260071087524762E+000;-6.686753381285674E+001;
8.143500000000000E+007;-4.242342437172050E+000;-6.758132524622695E+001;
8.146000000000000E+007;-4.323907951192417E+000;-6.908459382472256E+001;
8.148500000000000E+007;-4.295636389389895E+000;-6.858519260211965E+001;
8.151000000000000E+007;-4.354909742486650E+000;-7.005324794278204E+001;
8.153500000000000E+007;-4.399299244604704E+000;-7.038367014191225E+001;
8.156000000000000E+007;-4.403509274545377E+000;-6.997526767644128E+001;
8.158500000000000E+007;-4.433562040566041E+000;-7.035608605378330E+001;
8.161000000000000E+007;-4.478107238261388E+000;-7.139351420114464E+001;
8.163500000000000E+007;-4.493002443430242E+000;-7.171771474036228E+001;
8.166000000000000E+007;-4.625867158915679E+000;-7.257698842980339E+001;
8.168500000000000E+007;-4.585832433127630E+000;-7.283670778897738E+001;
8.171000000000000E+007;-4.636602880078724E+000;-7.353366484573793E+001;
8.173500000000000E+007;-4.669978944698041E+000;-7.428148249688987E+001;
8.176000000000000E+007;-4.667809315163899E+000;-7.467781733645654E+001;
8.178500000000000E+007;-4.780833576410882E+000;-7.524349908227757E+001;
8.181000000000000E+007;-4.815960761684484E+000;-7.684361088631503E+001;
8.183500000000000E+007;-4.887596895530169E+000;-7.567819231946800E+001;
8.186000000000000E+007;-4.877367964385211E+000;-7.620519171279594E+001;
8.188500000000000E+007;-4.943789975509134E+000;-7.777791901533306E+001;
8.191000000000000E+007;-5.013235562035730E+000;-7.846773190961172E+001;
8.193500000000000E+007;-5.099726713215540E+000;-7.911998497015136E+001;
8.196000000000000E+007;-5.108283165950148E+000;-7.999781770928860E+001;
8.198500000000000E+007;-5.114795860356912E+000;-7.855906525782947E+001;
8.201000000000000E+007;-5.206496776435322E+000;-8.060517141666914E+001;
8.203500000000000E+007;-5.336716652634066E+000;-8.210976817150832E+001;
8.206000000000000E+007;-5.296500747487945E+000;-8.089728927640867E+001;
8.208500000000000E+007;-5.354421789630763E+000;-8.147611573054317E+001;
8.211000000000000E+007;-5.461678757281201E+000;-8.351179305144849E+001;
8.213500000000000E+007;-5.547846479870569E+000;-8.414594613270803E+001;
8.216000000000000E+007;-5.628205107797228E+000;-8.522675464611947E+001;
8.218500000000000E+007;-5.681882501076570E+000;-8.514551421008630E+001;
8.221000000000000E+007;-5.816740558082871E+000;-8.673152339752026E+001;
8.223500000000000E+007;-5.827635353460680E+000;-8.621128191736833E+001;
8.226000000000000E+007;-5.878862102669584E+000;-8.753493539926816E+001;
8.228500000000000E+007;-6.029909228521318E+000;-8.803017624743823E+001;
8.231000000000000E+007;-6.104135037441977E+000;-8.861924255097620E+001;
8.233500000000000E+007;-6.162947404264852E+000;-8.821304875941320E+001;
8.236000000000000E+007;-6.311290055589690E+000;-9.060519636548280E+001;
8.238500000000000E+007;-6.396732359298143E+000;-9.120859684809847E+001;
8.241000000000000E+007;-6.471014792859701E+000;-9.122077072916552E+001;
8.243500000000000E+007;-6.549022579824668E+000;-9.076449736320589E+001;
8.246000000000000E+007;-6.682219196875074E+000;-9.308802796313520E+001;
8.248500000000000E+007;-6.760066817514201E+000;-9.453720269404622E+001;
8.251000000000000E+007;-6.902113107871672E+000;-9.479968255080416E+001;
8.253500000000000E+007;-7.120777269453947E+000;-9.644616169341458E+001;
8.256000000000000E+007;-7.141206824095148E+000;-9.561674276190163E+001;
8.258500000000000E+007;-7.270490129350129E+000;-9.752150121868110E+001;
8.261000000000000E+007;-7.446981143486526E+000;-9.805928935693933E+001;
8.263500000000000E+007;-7.519034444183950E+000;-9.782439363921124E+001;
8.266000000000000E+007;-7.781579034410071E+000;-1.010942668739156E+002;
8.268500000000000E+007;-7.857395469045425E+000;-1.015189888619466E+002;
8.271000000000000E+007;-8.020540574260801E+000;-1.018447757905866E+002;
8.273500000000000E+007;-8.207967880944072E+000;-1.028761735827876E+002;
8.276000000000000E+007;-8.469823203021532E+000;-1.040955631037455E+002;
8.278500000000000E+007;-8.585620119675095E+000;-1.045544862544586E+002;
8.281000000000000E+007;-8.856060972105018E+000;-1.059800517377369E+002;
8.283500000000000E+007;-8.990704261578458E+000;-1.073049574621761E+002;
8.286000000000000E+007;-9.199654848461297E+000;-1.079710528584126E+002;
8.288500000000000E+007;-9.424073570022118E+000;-1.073998413799210E+002;
8.291000000000000E+007;-9.725742570521609E+000;-1.101381568524120E+002;
8.293500000000000E+007;-9.875692110295818E+000;-1.111942432771069E+002;
8.296000000000000E+007;-1.023370902253948E+001;-1.128774807116619E+002;
8.298500000000000E+007;-1.049579699948447E+001;-1.122674151516773E+002;
8.301000000000000E+007;-1.081727710218909E+001;-1.140309669289859E+002;
8.303500000000000E+007;-1.116913278415111E+001;-1.159959178738521E+002;
8.306000000000000E+007;-1.156070703634355E+001;-1.161312818026090E+002;
8.308500000000000E+007;-1.190397856412851E+001;-1.179956841335999E+002;
8.311000000000000E+007;-1.226086812881202E+001;-1.196426268093834E+002;
8.313500000000000E+007;-1.281916466742888E+001;-1.209386679002459E+002;
8.316000000000000E+007;-1.320654652453644E+001;-1.218005303341157E+002;
8.318500000000000E+007;-1.355226413110804E+001;-1.220444291995472E+002;
8.321000000000000E+007;-1.410124051731972E+001;-1.240609727404317E+002;
8.323500000000000E+007;-1.476866100721482E+001;-1.243628062303915E+002;
8.326000000000000E+007;-1.526419222235846E+001;-1.272580468391701E+002;
8.328500000000000E+007;-1.598254592203461E+001;-1.286995666107804E+002;
8.331000000000000E+007;-1.728409944125727E+001;-1.307621230589121E+002;
8.333500000000000E+007;-1.778489621943451E+001;-1.302933284442178E+002;
8.336000000000000E+007;-1.875934113286197E+001;-1.332583071151302E+002;
8.338500000000000E+007;-2.010003392101882E+001;-1.333557303472327E+002;
8.341000000000000E+007;-2.114112600345143E+001;-1.359216534010896E+002;
8.343500000000000E+007;-2.184451075763449E+001;-1.344689954365996E+002;
8.346000000000000E+007;-2.415659315423415E+001;-1.403928926603551E+002;
8.348500000000000E+007;-2.670379693819303E+001;-1.401284114455442E+002;
8.351000000000000E+007;-2.882539066881368E+001;-1.410408885360816E+002;
8.353500000000000E+007;-3.571145099058938E+001;-1.482294066939554E+002;
8.356000000000000E+007;-5.033712305977388E+001;1.265560047380513E+002;
8.358500000000000E+007;-4.073437496028064E+001;6.370296083333655E+001;
8.361000000000000E+007;-3.120939238045849E+001;4.577743874333150E+001;
8.363500000000000E+007;-2.774160244828448E+001;4.366079345261636E+001;
8.366000000000000E+007;-2.531708161070181E+001;3.390849821644083E+001;
8.368500000000000E+007;-2.278453808340537E+001;3.142822064260817E+001;
8.371000000000000E+007;-2.126974069432108E+001;3.278705482528766E+001;
8.373500000000000E+007;-2.018955956158529E+001;3.118495529918505E+001;
8.376000000000000E+007;-1.888160504058650E+001;2.847090051428709E+001;
8.378500000000000E+007;-1.771260329026521E+001;2.592888615096554E+001;
8.381000000000000E+007;-1.659413807709199E+001;2.421127817218846E+001;
8.383500000000000E+007;-1.595914659750999E+001;2.341078119768067E+001;
8.386000000000000E+007;-1.525673556006644E+001;2.294584245912170E+001;
8.388500000000000E+007;-1.437345695550893E+001;2.086212164963875E+001;
8.391000000000000E+007;-1.391235007409171E+001;2.042195887223241E+001;
8.393500000000000E+007;-1.347280554321153E+001;1.965306861005545E+001;
8.396000000000000E+007;-1.281866941664944E+001;1.622379038543106E+001;
8.398500000000000E+007;-1.233736485830771E+001;1.625713431625053E+001;
8.401000000000000E+007;-1.185763114091041E+001;1.319324492307656E+001;
8.403500000000000E+007;-1.142151572140002E+001;1.352859127921026E+001;
8.406000000000000E+007;-1.105911238555365E+001;1.148376494509990E+001;
8.408500000000000E+007;-1.063538405921160E+001;1.014347550831040E+001;
8.411000000000000E+007;-1.019925353349241E+001;8.130578679574731E+000;
8.413500000000000E+007;-9.942949356350274E+000;7.769204353481849E+000;
8.416000000000000E+007;-9.624613386040647E+000;6.564846002521485E+000;
8.418500000000000E+007;-9.236705848920304E+000;3.724864534919964E+000;
8.421000000000000E+007;-9.046412658118689E+000;3.046179939967442E+000;
8.423500000000000E+007;-8.795323382815385E+000;2.877971532415414E+000;
8.426000000000000E+007;-8.444398508035404E+000;1.003899748731907E+000;
8.428500000000000E+007;-8.335794492612752E+000;-1.102721130355124E-001;
8.431000000000000E+007;-8.063610267270899E+000;-6.334430603630927E-001;
8.433500000000000E+007;-7.846106979144760E+000;-1.708591915564325E+000;
8.436000000000000E+007;-7.535901814305207E+000;-4.840632755566181E+000;
8.438500000000000E+007;-7.398723276065270E+000;-6.002926063444654E+000;
8.441000000000000E+007;-7.278836240888335E+000;-5.807087066074450E+000;
8.443500000000000E+007;-7.059577573388664E+000;-7.802908806054036E+000;
8.446000000000000E+007;-6.920586374785884E+000;-8.241295638523416E+000;
8.448500000000000E+007;-6.723356218907203E+000;-9.896225321892638E+000;
8.451000000000000E+007;-6.524857593855114E+000;-1.187155130369349E+001;
8.453500000000000E+007;-6.504314276112962E+000;-1.004950579329989E+001;
8.456000000000000E+007;-6.265179883825806E+000;-1.249899706579282E+001;
8.458500000000000E+007;-6.226382932452192E+000;-1.449590176555781E+001;
8.461000000000000E+007;-6.030938179674123E+000;-1.598585546498151E+001;
8.463500000000000E+007;-5.935394794230141E+000;-1.674934355254370E+001;
8.466000000000000E+007;-5.773320623990604E+000;-1.751070500910721E+001;
8.468500000000000E+007;-5.779297429570685E+000;-1.872717386923327E+001;
8.471000000000000E+007;-5.737875005071133E+000;-1.860547445180280E+001;
8.473500000000000E+007;-5.533143878855656E+000;-1.930961670122685E+001;
8.476000000000000E+007;-5.446529488950800E+000;-2.065237049847197E+001;
8.478500000000000E+007;-5.289807381496677E+000;-2.205783074890057E+001;
8.481000000000000E+007;-5.283292845806003E+000;-2.169856761740190E+001;
8.483500000000000E+007;-5.234796375303435E+000;-2.243583233959645E+001;
8.486000000000000E+007;-5.076829361894102E+000;-2.498021281342563E+001;
8.488500000000000E+007;-5.023850058609620E+000;-2.358478108194218E+001;
8.491000000000000E+007;-4.969364090108995E+000;-2.617257271019373E+001;
8.493500000000000E+007;-4.911363543720928E+000;-2.563478719336246E+001;
8.496000000000000E+007;-4.876169527368629E+000;-2.580149057718943E+001;
8.498500000000000E+007;-4.765121577476975E+000;-2.741284901774588E+001;
8.501000000000000E+007;-4.695482559963391E+000;-2.987632265649338E+001;
8.503500000000000E+007;-4.688116608239288E+000;-2.867238915743590E+001;
8.506000000000000E+007;-4.607670064682332E+000;-2.995275501244102E+001;
8.508500000000000E+007;-4.544554367285191E+000;-3.159172106167429E+001;
8.511000000000000E+007;-4.547297706155424E+000;-3.192759896849544E+001;
8.513500000000000E+007;-4.494438260874336E+000;-3.182738356172123E+001;
8.516000000000000E+007;-4.418359911224069E+000;-3.377636813177553E+001;
8.518500000000000E+007;-4.358413375667944E+000;-3.394577974521798E+001;
8.521000000000000E+007;-4.342155518691629E+000;-3.247975503544798E+001;
8.523500000000000E+007;-4.261250564785142E+000;-3.544520811221801E+001;
8.526000000000000E+007;-4.223944426986503E+000;-3.634983998920784E+001;
8.528500000000000E+007;-4.158013376404928E+000;-3.653449659794290E+001;
8.531000000000000E+007;-4.163967606725278E+000;-3.748729678843453E+001;
8.533500000000000E+007;-4.130593770473658E+000;-3.806829728961812E+001;
8.536000000000000E+007;-4.085022650585541E+000;-3.792179926267681E+001;
